!Keysight Technologies,P9374A,MY57211810,A.19.30.04
!Date: Friday, May 02, 2025 10:37:02
!Correction: S11(C* 2-Port  ) 
!S21(C* 2-Port  ) 
!S12(C* 2-Port  ) 
!S22(C* 2-Port  ) 
!S2P File: Measurements: S11, S21, S12, S22:
# Hz S  dB   R 50
13000000000 -18.545841 -83.108727 -15.13909 19.36215 -15.010252 19.26482 -15.977015 -78.904579
13010000000 -19.313118 -91.25798 -15.128698 1.9446262 -15.232204 1.5565164 -16.285707 -87.51429
13020000000 -19.845642 -93.019188 -15.035128 -15.640367 -15.158842 -16.348486 -16.986219 -93.964355
13030000000 -20.798302 -94.300941 -14.940265 -34.313358 -15.140917 -34.389557 -18.328707 -93.763115
13040000000 -21.449125 -92.816261 -14.899846 -52.395084 -15.164735 -52.380707 -18.803898 -85.602852
13050000000 -22.510189 -87.68383 -14.911061 -70.639839 -14.962254 -69.868134 -18.163439 -72.884705
13060000000 -22.258612 -79.414764 -14.933842 -88.331764 -15.002774 -87.339081 -16.993401 -69.199745
13070000000 -21.812374 -76.446953 -14.99368 -106.57546 -15.027772 -105.90585 -17.528812 -74.738251
13080000000 -20.738245 -73.91906 -14.968646 -124.47923 -14.989587 -124.41194 -17.66321 -82.699234
13090000000 -20.41407 -76.891518 -15.012045 -142.48447 -15.01172 -142.20284 -18.12558 -78.512161
13100000000 -20.031931 -78.450417 -15.035346 -160.45131 -15.035629 -159.85561 -18.582661 -73.522537
13110000000 -19.323858 -83.888153 -15.346471 -177.4314 -15.706442 -175.59087 -17.89102 -68.728142
13120000000 -19.493803 -86.259972 -15.175535 164.59035 -15.31149 163.85826 -17.017157 -73.087402
13130000000 -20.00716 -88.806557 -14.952118 146.62819 -15.083912 146.45367 -16.086201 -80.028519
13140000000 -20.148237 -88.596703 -14.914608 128.03773 -15.190093 127.94012 -15.895408 -86.939163
13150000000 -20.272755 -89.897537 -15.005705 110.22683 -15.235568 111.77944 -16.440414 -94.205818
13160000000 -20.512205 -91.784912 -15.094655 91.82753 -15.170572 94.338196 -17.527332 -99.723907
13170000000 -21.003124 -91.536156 -15.100695 74.784065 -15.00982 76.839211 -18.987431 -94.36586
13180000000 -20.940161 -89.873566 -15.062427 57.303928 -14.876816 58.880856 -18.776348 -75.291664
13190000000 -20.982784 -88.067162 -14.983103 39.638107 -14.803897 40.848663 -17.778118 -64.950325
13200000000 -20.905437 -88.579201 -14.984129 21.651039 -14.937465 22.223238 -16.911116 -74.278931
13210000000 -20.923874 -83.037094 -14.880472 1.3624884 -15.586595 2.8912747 -16.436394 -80.106743
13220000000 -20.315481 -84.597115 -14.964893 -15.582676 -15.283351 -16.569132 -16.464052 -89.941444
13230000000 -20.266464 -91.400597 -15.00744 -31.129215 -15.202213 -28.726042 -17.022795 -90.577034
13240000000 -20.094772 -94.70195 -14.981549 -48.612835 -15.295512 -47.451954 -17.981241 -92.346771
13250000000 -19.750244 -97.485603 -14.894504 -68.533607 -14.877931 -66.786469 -18.200397 -96.143204
13260000000 -19.394785 -101.86203 -14.847874 -86.613823 -14.79773 -85.24234 -17.37166 -90.281776
13270000000 -20.008339 -106.07967 -14.977424 -104.43137 -14.858393 -103.64432 -16.844917 -91.217628
13280000000 -20.201523 -108.97778 -14.995757 -121.62895 -14.866921 -120.75869 -16.539185 -95.258926
13290000000 -21.207899 -109.33315 -15.026661 -139.46031 -14.925112 -138.92282 -17.006525 -98.46946
13300000000 -21.358442 -107.68678 -14.941755 -156.77536 -14.890635 -156.41554 -18.107403 -99.637299
13310000000 -21.550577 -106.06868 -14.917822 -174.72525 -14.841795 -174.22118 -18.67436 -92.328117
13320000000 -21.468695 -106.10935 -14.865788 167.43826 -14.837209 168.06699 -19.0487 -90.393784
13330000000 -21.169111 -105.50082 -14.961682 148.91068 -15.281034 150.89969 -18.53791 -89.549828
13340000000 -20.692379 -108.99324 -14.977508 130.56406 -15.593677 130.39804 -18.656353 -94.995476
13350000000 -21.309057 -108.35625 -14.797019 113.65919 -14.896191 114.96889 -17.887201 -100.09836
13360000000 -21.122671 -112.53785 -14.824712 95.694946 -14.843928 97.728546 -17.829695 -103.85855
13370000000 -21.688599 -116.26263 -14.802501 77.839661 -14.750121 79.181953 -18.167881 -109.67832
13380000000 -21.438078 -116.83659 -14.82272 59.801373 -14.81467 60.245464 -18.425488 -112.17095
13390000000 -22.207932 -121.48882 -14.796722 41.975121 -14.864021 41.718487 -19.149155 -109.25324
13400000000 -22.166813 -120.12042 -14.761504 24.554882 -14.799339 24.7915 -19.123083 -107.65087
13410000000 -22.467037 -122.76538 -14.706827 6.6405849 -14.883196 7.1724963 -18.934559 -102.5227
13420000000 -22.182045 -121.79694 -14.679352 -11.474055 -14.893574 -10.605413 -18.679617 -102.56665
13430000000 -22.717281 -127.16616 -14.646281 -29.592546 -14.79742 -28.496346 -18.45899 -105.44722
13440000000 -22.75276 -129.13596 -14.689505 -47.623295 -14.803429 -45.967472 -19.164879 -110.79601
13450000000 -23.924528 -134.69414 -14.666656 -65.846222 -14.640026 -64.022736 -19.870039 -120.38535
13460000000 -24.647501 -138.71947 -14.907068 -83.096642 -15.442765 -81.325218 -22.306599 -116.36887
13470000000 -26.682804 -141.25003 -14.74382 -100.88898 -15.003552 -101.88828 -23.647375 -113.82734
13480000000 -26.800596 -127.68449 -14.676695 -118.73384 -14.792923 -117.91225 -22.032284 -104.18692
13490000000 -26.886026 -123.25996 -14.637745 -136.96439 -14.829917 -135.70941 -20.046463 -103.56819
13500000000 -25.457245 -116.46936 -14.655731 -154.8835 -14.689245 -153.60484 -18.761967 -113.5521
13510000000 -24.900469 -118.40359 -14.676008 -173.38748 -14.797058 -172.39496 -18.930317 -120.45834
13520000000 -23.9391 -123.20733 -14.698801 169.65059 -14.708281 170.22722 -20.007988 -125.67551
13530000000 -23.633379 -130.09056 -14.643833 151.77722 -14.640022 152.6306 -21.361536 -124.72501
13540000000 -23.6021 -138.52074 -14.576376 134.11711 -14.624331 134.98239 -22.128178 -114.41862
13550000000 -24.964378 -151.60306 -14.566367 115.34195 -14.605215 116.51181 -22.737146 -104.741
13560000000 -27.088583 -161.58322 -14.636685 97.870148 -14.570857 99.305313 -22.322498 -95.047195
13570000000 -31.046909 -167.42096 -14.680591 80.274162 -14.52649 81.536629 -22.21068 -111.85558
13580000000 -37.94632 -151.31659 -14.668084 63.707489 -14.738136 65.205666 -22.266012 -116.78308
13590000000 -37.060677 -87.733292 -14.534364 45.653572 -14.920243 44.138733 -24.793928 -123.7998
13600000000 -32.135708 -89.703461 -14.355347 26.847454 -14.43909 26.547241 -25.622299 -133.15601
13610000000 -28.510624 -98.002647 -14.328828 7.5848584 -14.513948 8.5830126 -25.823719 -103.13091
13620000000 -26.387489 -108.8764 -14.465793 -10.740161 -14.554727 -9.3200636 -23.89065 -92.525116
13630000000 -25.634272 -122.60094 -14.602077 -28.875427 -14.526426 -27.51375 -21.096458 -93.448204
13640000000 -25.482533 -132.52379 -14.700769 -45.884739 -14.519622 -45.897518 -19.964506 -101.68449
13650000000 -26.317476 -143.59419 -14.697783 -62.799706 -14.539475 -63.137806 -19.819605 -114.96655
13660000000 -27.667099 -145.88472 -14.643824 -80.134361 -14.532683 -80.894577 -19.841087 -127.68636
13670000000 -31.345549 -154.70335 -14.533257 -98.254341 -14.61796 -98.368118 -22.658949 -130.58849
13680000000 -34.0368 -153.07932 -14.501576 -116.64103 -14.962429 -113.76881 -29.510244 -109.39294
13690000000 -40.226604 -143.15053 -14.478343 -134.65741 -15.158816 -134.79025 -31.641081 -81.1185
13700000000 -33.579815 -99.240265 -14.499549 -152.09401 -14.489221 -151.09781 -24.856226 -91.077324
13710000000 -30.864811 -101.80775 -14.55166 -169.48183 -14.890371 -168.60033 -23.343979 -91.144142
13720000000 -29.063044 -107.18739 -14.485229 172.72876 -14.657475 171.81013 -22.965879 -110.52879
13730000000 -29.521091 -109.80491 -14.391765 154.09862 -14.492228 155.05997 -22.852531 -116.37192
13740000000 -27.776894 -118.81882 -14.357329 136.04326 -14.448551 137.1469 -24.885065 -108.1031
13750000000 -28.885715 -125.93114 -14.367754 117.54762 -14.375568 118.51481 -23.630688 -104.75507
13760000000 -27.211771 -125.51075 -14.430004 99.403122 -14.482701 99.711517 -22.200041 -97.366776
13770000000 -27.704788 -132.02281 -14.509193 81.408524 -14.552173 81.588531 -20.928089 -106.9852
13780000000 -27.338596 -133.3149 -14.6033 64.162415 -14.646849 64.61969 -19.915215 -119.4558
13790000000 -28.778217 -138.39737 -14.620439 46.495472 -14.726317 47.350422 -20.432711 -125.67995
13800000000 -28.599854 -141.88324 -14.521845 28.886728 -14.638956 29.96977 -23.203539 -137.53859
13810000000 -32.412399 -138.0563 -14.586593 10.779589 -15.32898 13.232167 -30.030361 -139.79147
13820000000 -32.64011 -136.77933 -14.580958 -6.9516544 -14.851206 -6.9390187 -30.920385 -143.50572
13830000000 -34.581749 -148.31419 -14.614693 -24.503576 -14.722725 -21.601414 -29.329897 -101.58926
13840000000 -33.347984 -127.02021 -14.59156 -41.891884 -14.889099 -41.637016 -26.987001 -93.836632
13850000000 -31.633089 -124.56455 -14.511148 -59.59026 -14.351851 -59.743584 -22.717293 -107.95008
13860000000 -29.095146 -127.67429 -14.454934 -77.758896 -14.646693 -78.050804 -21.663492 -112.12865
13870000000 -28.204935 -136.42381 -14.439765 -95.830368 -14.639886 -95.789993 -21.292736 -125.94985
13880000000 -27.50317 -141.42285 -14.48607 -114.00079 -14.674208 -113.40886 -21.826834 -135.09462
13890000000 -27.077934 -155.54469 -14.519913 -131.69337 -14.645336 -130.91571 -23.558483 -141.35727
13900000000 -27.179104 -169.36803 -14.562543 -149.55095 -14.449232 -148.51384 -24.807186 -139.32475
13910000000 -28.330513 179.00092 -14.62671 -166.69617 -14.503961 -165.99742 -24.554615 -129.86588
13920000000 -29.121195 165.30063 -14.560267 175.61169 -14.528242 175.53937 -25.040043 -131.16641
13930000000 -30.393929 152.89236 -14.555 157.83662 -14.873396 159.28682 -27.406525 -144.69075
13940000000 -32.117077 153.47479 -14.548282 140.11641 -15.093941 139.5139 -28.73119 -174.47421
13950000000 -34.869606 145.29532 -14.526622 122.2854 -14.475995 122.58376 -29.344431 -170.0528
13960000000 -34.814941 162.97012 -14.507619 104.50175 -14.531709 104.68157 -35.706264 -147.78267
13970000000 -33.395081 169.88084 -14.490949 86.745987 -14.519135 86.693848 -32.417675 -127.16013
13980000000 -32.102512 170.06589 -14.460348 68.992783 -14.534382 68.992027 -27.227678 -116.76087
13990000000 -30.742302 160.35544 -14.439059 51.284336 -14.554405 51.315895 -25.641808 -125.77064
14000000000 -29.682922 155.29996 -14.421072 33.569572 -14.507001 34.344776 -23.660801 -140.765
14010000000 -30.036091 133.79114 -14.390474 15.452499 -14.374609 15.954765 -24.159855 -158.07529
14020000000 -30.182491 122.41691 -14.385525 -2.3861549 -14.352839 -1.9199361 -25.815567 -173.3466
14030000000 -31.064783 106.6595 -14.436976 -20.148729 -14.295885 -19.441391 -28.457296 -176.80733
14040000000 -31.296352 101.64633 -14.414662 -37.536999 -14.271902 -37.023514 -35.547882 -176.53664
14050000000 -30.81185 98.064735 -14.394203 -55.540401 -14.430286 -55.427109 -36.153366 132.07785
14060000000 -28.884029 99.463387 -14.330712 -73.377953 -14.767328 -72.890594 -34.535255 69.367989
14070000000 -28.857491 92.33828 -14.347997 -91.111168 -14.596207 -91.471283 -43.109436 82.968384
14080000000 -29.815022 90.023132 -14.319471 -109.09795 -14.364932 -107.57548 -39.640423 -103.74586
14090000000 -28.634853 88.650436 -14.325789 -126.76659 -14.306092 -125.25806 -37.191059 -153.45366
14100000000 -28.788319 75.099525 -14.318209 -144.83118 -14.22814 -144.01028 -31.096798 -174.6221
14110000000 -28.266283 65.8162 -14.300162 -162.32451 -14.246389 -162.42026 -38.636772 121.78961
14120000000 -28.994001 50.103397 -14.306117 179.69472 -14.346934 179.23192 -37.913738 64.241119
14130000000 -28.916447 40.136425 -14.27629 162.19731 -14.372341 162.51712 -40.06889 -18.243156
14140000000 -29.982351 30.370996 -14.259398 143.813 -14.31835 144.50095 -36.882671 -70.799988
14150000000 -30.575275 42.508873 -14.272223 126.04192 -14.215297 126.95776 -39.693832 -112.77072
14160000000 -30.652489 29.668461 -14.36267 108.22208 -14.928748 110.39211 -38.892242 -121.43145
14170000000 -29.16264 49.012173 -14.367717 91.066154 -14.566424 90.068466 -36.373562 68.18042
14180000000 -26.63291 52.241035 -14.308835 73.417465 -14.476833 73.644203 -27.338022 54.485233
14190000000 -25.477594 48.611252 -14.220228 55.662113 -14.553227 54.896847 -26.218582 38.640766
14200000000 -25.00552 40.714573 -14.138345 37.88945 -14.175979 37.975071 -28.252842 -4.3567824
14210000000 -24.821226 39.485016 -14.112513 19.684319 -14.253118 20.525698 -27.895632 -26.115982
14220000000 -24.845274 25.343977 -14.154284 1.3489294 -14.232974 1.9766949 -33.957443 -58.348694
14230000000 -24.999542 14.969903 -14.221904 -16.522856 -14.24293 -16.418707 -40.35841 -59.744095
14240000000 -25.700142 4.3115706 -14.256664 -33.538372 -14.311368 -34.266392 -34.326195 34.605022
14250000000 -26.536268 0.20486875 -14.159121 -51.013065 -14.170117 -51.467102 -30.775345 13.983071
14260000000 -26.777508 -1.1736768 -14.07612 -68.909866 -14.195707 -68.762993 -28.33025 -7.0673409
14270000000 -27.021894 4.4421935 -14.023969 -87.547966 -14.102053 -87.064377 -26.493322 -29.116882
14280000000 -27.095892 11.42668 -14.019867 -106.02407 -14.30017 -103.46884 -25.69202 -47.558079
14290000000 -25.791046 16.188622 -14.10531 -123.97968 -14.605652 -123.71912 -26.331455 -47.799099
14300000000 -26.251768 13.371531 -14.165068 -141.26503 -14.133979 -141.41063 -34.183258 -33.106773
14310000000 -25.221207 15.891593 -14.159015 -158.85762 -14.439548 -159.40787 -30.423122 27.247356
14320000000 -25.006363 12.311306 -14.118903 -176.41179 -14.343715 -177.16618 -30.598478 29.796345
14330000000 -24.2791 7.459096 -14.070023 165.77284 -14.18522 166.85231 -27.113008 7.6466255
14340000000 -24.782158 0.16847624 -14.067924 147.7739 -14.125596 149.46213 -25.190411 2.1257951
14350000000 -24.473877 -2.9316454 -14.051014 129.79797 -14.014386 131.02051 -25.81605 -32.900524
14360000000 -24.671513 -9.4734459 -14.014746 111.77699 -13.959496 111.94734 -25.435776 -37.520939
14370000000 -24.316265 -13.216877 -14.034027 93.718346 -13.973646 93.639519 -28.267313 -51.553493
14380000000 -24.675316 -19.721184 -14.119204 76.06916 -14.058335 76.500893 -30.900913 -62.818466
14390000000 -24.552866 -16.852337 -14.089279 58.553654 -14.056155 58.921673 -31.140881 -37.143875
14400000000 -25.754459 -17.438942 -14.020267 40.824722 -14.088254 41.426315 -27.45126 -15.95383
14410000000 -25.336199 -10.160233 -13.928121 22.41095 -14.27389 24.195978 -23.429506 -35.023788
14420000000 -26.061552 -8.4961386 -13.952708 4.2729974 -14.063561 4.7293997 -24.64798 -38.423489
14430000000 -26.721933 3.6420512 -14.003819 -13.678476 -13.969572 -12.9114 -30.470505 -29.16346
14440000000 -25.918423 10.385577 -14.022378 -31.670429 -13.998308 -31.320332 -35.779629 39.600674
14450000000 -24.049423 4.0853643 -14.077715 -49.609329 -14.073319 -48.922119 -34.484806 33.364021
14460000000 -24.086483 -1.9120039 -14.116554 -67.183868 -14.07277 -65.95697 -25.494381 20.16123
14470000000 -23.404722 -8.913805 -14.152205 -85.142845 -14.124758 -84.088409 -24.590593 1.1715602
14480000000 -23.222057 -16.154022 -14.171211 -102.7011 -14.157578 -102.3324 -23.153746 -23.699852
14490000000 -22.972141 -22.578518 -14.198252 -120.23339 -14.16131 -120.41472 -24.269754 -34.332523
14500000000 -23.764612 -28.807142 -14.216959 -137.53647 -14.17423 -137.24295 -25.345293 -53.607883
14510000000 -23.741837 -28.911608 -14.139788 -155.06879 -14.180926 -154.17493 -27.736162 -63.564774
14520000000 -25.594799 -25.576345 -14.05081 -173.10454 -14.128684 -172.07884 -30.274206 -41.732407
14530000000 -26.396124 -10.333654 -14.000121 168.44853 -14.210765 170.23184 -28.224401 -20.176344
14540000000 -25.390223 -0.9206953 -14.020782 150.05151 -14.239084 151.02208 -25.113914 -3.6739264
14550000000 -23.856939 1.9610728 -14.110417 132.26328 -14.047686 133.07527 -27.080254 5.8754063
14560000000 -23.343899 2.1397779 -14.212335 114.38138 -14.255408 114.88768 -25.253288 18.812574
14570000000 -22.311115 -3.7597764 -14.244374 97.178978 -14.271961 97.473953 -26.68704 8.6438389
14580000000 -22.16597 -11.153161 -14.248269 79.564278 -14.269721 80.344551 -24.392513 -5.3757157
14590000000 -21.832615 -17.189756 -14.220342 62.153732 -14.282713 63.013878 -23.815651 -3.6987016
14600000000 -22.039776 -25.36948 -14.218636 44.095249 -14.25755 45.053951 -24.286095 -22.525522
14610000000 -22.23592 -27.951504 -14.205442 26.665447 -14.289873 27.116272 -23.559622 -9.7819614
14620000000 -23.149105 -27.641905 -14.202037 8.9379492 -14.243081 9.4313612 -23.479416 -13.280234
14630000000 -22.647764 -23.047604 -14.182562 -8.6195154 -14.219585 -7.4387746 -22.900606 -28.917925
14640000000 -22.43667 -19.554203 -14.16837 -26.773901 -14.218111 -25.289928 -22.349155 -36.611301
14650000000 -22.322128 -15.309687 -14.138221 -44.557701 -14.155896 -43.587048 -24.573618 -30.615679
14660000000 -21.685717 -13.625482 -14.143049 -62.754906 -14.244007 -61.952618 -25.482647 4.9950733
14670000000 -20.94626 -15.03358 -14.186852 -80.376709 -14.216853 -80.010818 -25.615932 20.90267
14680000000 -20.933035 -19.241917 -14.247255 -98.228874 -14.228949 -97.344986 -22.18889 14.188659
14690000000 -20.845505 -22.448488 -14.294221 -115.56661 -14.283706 -114.68692 -20.955111 9.9353085
14700000000 -20.724745 -27.446424 -14.276344 -133.0219 -14.28457 -132.16812 -20.582544 -13.337653
14710000000 -20.971342 -29.093369 -14.238193 -150.45778 -14.158314 -149.82915 -19.342186 -17.435585
14720000000 -20.808371 -30.534365 -14.206667 -168.37767 -14.143609 -168.03584 -20.291466 -29.119492
14730000000 -20.354586 -31.608521 -14.201248 173.55051 -14.218266 173.84245 -20.903677 -35.711128
14740000000 -20.063444 -32.963589 -14.23284 155.84846 -14.289721 155.84334 -22.394737 -34.397358
14750000000 -19.89904 -35.040405 -14.287489 137.95044 -14.324609 138.65068 -22.039869 -33.436176
14760000000 -19.611408 -35.837578 -14.326215 120.68025 -14.362853 121.75105 -20.800781 -35.075748
14770000000 -19.512165 -36.958736 -14.292357 103.30635 -14.320661 104.31659 -19.74472 -28.409945
14780000000 -19.818207 -39.380955 -14.191141 85.689682 -14.210955 86.055229 -19.917221 -16.340065
14790000000 -19.963257 -40.865875 -14.184853 67.633957 -14.198354 67.926727 -22.521946 -19.255751
14800000000 -20.280447 -43.082867 -14.212627 49.637791 -14.199492 50.110996 -21.324877 -38.327908
14810000000 -20.454132 -42.143845 -14.243052 32.112709 -14.216078 32.920418 -22.263027 -24.416485
14820000000 -20.152634 -43.994175 -14.275253 14.370091 -14.264974 15.021983 -22.194218 -25.785673
14830000000 -19.585264 -45.681873 -14.282375 -3.031503 -14.310161 -2.4520869 -19.504307 -27.902493
14840000000 -19.318018 -50.199982 -14.244102 -20.520546 -14.246063 -20.279247 -18.758553 -30.228489
14850000000 -19.182892 -52.889008 -14.214766 -38.321304 -14.196345 -37.724152 -17.88195 -47.36124
14860000000 -18.886683 -55.278271 -14.190773 -56.042862 -14.288402 -55.68494 -18.909588 -52.004917
14870000000 -19.049582 -57.143745 -14.215244 -73.883041 -14.27931 -73.493546 -19.789545 -60.164562
14880000000 -19.142132 -59.734772 -14.229181 -91.559013 -14.293624 -90.868828 -19.686834 -63.42688
14890000000 -19.396814 -59.102398 -14.255295 -109.14627 -14.319365 -108.19099 -19.603079 -53.978828
14900000000 -19.821003 -61.101181 -14.195666 -126.57227 -14.166269 -125.96799 -21.030096 -43.542366
14910000000 -20.052155 -61.242966 -14.135549 -144.05923 -14.078379 -143.86131 -24.50692 -3.4055932
14920000000 -19.876099 -63.877529 -14.108637 -161.85353 -14.062185 -161.82971 -22.454683 -63.646935
14930000000 -19.940945 -67.191338 -14.080944 -179.61913 -14.028273 -179.40417 -20.147905 -53.583908
14940000000 -20.094748 -71.948936 -14.054368 162.26216 -13.999549 162.66943 -22.128469 -61.791153
14950000000 -20.155396 -73.276573 -14.030484 143.86761 -14.039543 144.43199 -21.644936 -70.710533
14960000000 -20.434053 -76.15686 -14.097873 126.17355 -14.103017 126.56503 -22.757978 -47.875431
14970000000 -20.813951 -76.35952 -14.120753 108.79801 -14.079037 109.06851 -21.626892 -48.362743
14980000000 -20.927723 -73.851837 -14.085389 91.207855 -14.098241 91.3964 -19.724062 -51.383648
14990000000 -20.844669 -70.015289 -14.025525 73.413635 -14.094952 73.250664 -19.501747 -60.791927
15000000000 -20.500525 -71.051712 -13.977785 55.516857 -14.096877 55.513454 -19.026882 -70.222298
