!Keysight Technologies,P9374A,MY57211810,A.19.30.04
!Date: Friday, May 02, 2025 09:35:37
!Correction: S11(Off) 
!S21(Off) 
!S12(Off) 
!S22(Off) 
!S2P File: Measurements: S11, S21, S12, S22:
# Hz S  dB   R 50
13000000000 -12.25579 115.59155 -200 45 -18.64826 -28.833002 -13.216696 -171.33667
13010000000 -12.442233 109.35536 -200 45 -18.628361 -93.781937 -17.415125 -175.54439
13020000000 -13.501408 105.63492 -200 45 -18.594858 -158.52855 -20.690962 -121.24608
13030000000 -14.508813 103.99729 -200 45 -18.811819 136.71484 -13.405085 -110.77264
13040000000 -16.147249 107.86081 -200 45 -18.923473 73.450294 -10.762842 -130.33546
13050000000 -16.644722 123.14523 -200 45 -18.920761 9.8087311 -10.832906 -148.33955
13060000000 -14.658346 131.25591 -200 45 -18.846479 -53.507069 -12.353123 -160.43919
13070000000 -13.515847 129.01047 -200 45 -18.756269 -117.9306 -15.183376 -160.63628
13080000000 -12.5576 124.6671 -200 45 -18.780937 177.24028 -15.925025 -135.25734
13090000000 -12.117734 118.77808 -200 45 -19.023165 112.71665 -12.416337 -131.18408
13100000000 -12.229527 112.67579 -200 45 -19.168917 49.476418 -10.887164 -146.00941
13110000000 -12.347435 110.3092 -200 45 -19.236834 -13.117946 -11.378573 -162.10014
13120000000 -12.354188 105.77032 -200 45 -19.122713 -76.143433 -13.582654 -174.54742
13130000000 -12.908604 99.785843 -200 45 -18.942616 -139.97557 -18.182646 -171.04326
13140000000 -13.943329 97.448364 -200 45 -18.91024 155.07397 -18.777058 -123.86819
13150000000 -15.225386 97.008659 -200 45 -19.006662 90.430145 -13.280415 -116.62734
13160000000 -16.595316 106.61067 -200 45 -19.158283 26.964413 -10.449435 -132.35796
13170000000 -15.781626 119.67213 -200 45 -19.186028 -35.951511 -10.003592 -152.57578
13180000000 -14.371717 122.23341 -200 45 -19.117359 -99.308304 -11.926215 -169.05054
13190000000 -13.405523 120.84483 -200 45 -19.013605 -163.31256 -15.485101 -163.68202
13200000000 -12.540396 118.00299 -200 45 -19.020802 132.19775 -14.72385 -141.47327
13210000000 -12.200547 111.36348 -200 45 -19.093477 68.372528 -12.37653 -142.3246
13220000000 -12.226082 107.08563 -200 45 -19.20583 4.9563661 -11.127082 -152.00536
13230000000 -12.300453 102.31382 -200 45 -19.159019 -57.672539 -10.996198 -167.58986
13240000000 -12.681931 96.388405 -200 45 -18.991877 -120.63054 -13.177637 174.19673
13250000000 -13.997498 94.181396 -200 45 -18.703299 175.03314 -19.784119 178.18442
13260000000 -15.125749 95.944756 -200 45 -18.681984 110.24009 -17.748569 -123.45981
13270000000 -16.19977 104.17438 -200 45 -18.653709 45.485146 -12.84209 -128.25246
13280000000 -16.072014 118.20158 -200 45 -18.769278 -18.519751 -10.821999 -142.40933
13290000000 -14.272383 122.29081 -200 45 -18.748522 -82.513222 -10.450176 -159.64023
13300000000 -13.360035 122.49909 -200 45 -18.651031 -145.5486 -12.087882 -173.9603
13310000000 -12.349445 119.92503 -200 45 -18.555531 149.4615 -15.071762 -168.33972
13320000000 -11.535159 114.78224 -200 45 -18.603783 85.266846 -13.944267 -151.04524
13330000000 -11.614213 107.73466 -200 45 -18.729116 20.936419 -11.718687 -155.27483
13340000000 -11.67988 103.43954 -200 45 -18.720158 -42.336498 -10.931486 -168.30817
13350000000 -12.2763 97.392693 -200 45 -18.681879 -105.68401 -11.677034 176.04076
13360000000 -13.50357 94.453804 -200 45 -18.479 -169.17044 -14.727484 165.5106
13370000000 -14.900476 100.39957 -200 45 -18.364784 125.83532 -19.05018 -174.71558
13380000000 -15.314707 107.74648 -200 45 -18.376558 60.813805 -16.298813 -142.43861
13390000000 -14.769254 118.30818 -200 45 -18.462734 -3.7470767 -12.416716 -145.53064
13400000000 -13.495335 120.82314 -200 45 -18.527273 -67.734268 -10.675777 -161.67856
13410000000 -12.584641 117.94909 -200 45 -18.561274 -130.96692 -11.255525 -178.27007
13420000000 -12.28392 117.30901 -200 45 -18.452572 164.4753 -13.397656 177.3589
13430000000 -11.553463 112.73319 -200 45 -18.513607 100.15961 -14.183262 -173.35379
13440000000 -11.416093 107.6179 -200 45 -18.606489 35.187435 -13.291909 -167.98386
13450000000 -11.763145 101.93213 -200 45 -18.709908 -28.087646 -11.808101 -169.73123
13460000000 -12.042441 97.044403 -200 45 -18.826946 -91.635078 -10.73484 178.13394
13470000000 -13.549214 92.700668 -200 45 -18.743429 -153.8358 -11.680682 160.52882
13480000000 -14.89531 97.485397 -200 45 -18.578941 141.76285 -15.424013 153.29156
13490000000 -15.402948 108.8493 -200 45 -18.447309 77.059044 -18.092047 179.34459
13500000000 -14.839538 115.09182 -200 45 -18.570116 12.143315 -15.785704 -162.53551
13510000000 -13.548649 118.72747 -200 45 -18.640829 -52.719124 -13.239971 -161.51671
13520000000 -12.956824 115.04945 -200 45 -18.930222 -115.79588 -11.528044 -171.68793
13530000000 -12.766265 113.0457 -200 45 -18.940752 -178.82109 -11.555963 174.95488
13540000000 -12.547298 113.11404 -200 45 -18.889652 118.09233 -13.013716 168.97908
13550000000 -12.059458 108.98003 -200 45 -18.868689 54.184132 -13.903811 174.11523
13560000000 -12.229237 105.85804 -200 45 -18.871027 -9.5857143 -13.448837 178.74091
13570000000 -12.262759 101.90063 -200 45 -18.971563 -73.32402 -12.514674 177.9055
13580000000 -12.927802 97.929855 -200 45 -18.883163 -136.16861 -11.842331 169.88939
13590000000 -14.565989 98.875908 -200 45 -18.843746 160.19231 -12.459702 158.47369
13600000000 -14.676689 107.6392 -200 45 -18.656797 96.761131 -14.770325 151.93089
13610000000 -14.427611 114.84564 -200 45 -18.616919 31.823771 -17.635681 167.1718
13620000000 -13.288877 116.91322 -200 45 -18.646669 -32.697102 -15.62925 -170.97743
13630000000 -12.404945 115.39856 -200 45 -18.784294 -96.500366 -13.289442 -174.51978
13640000000 -12.415898 111.17995 -200 45 -18.76359 -160.28622 -12.625316 179.50908
13650000000 -12.16543 111.79203 -200 45 -18.835157 136.38936 -11.87982 174.68053
13660000000 -11.996915 110.59055 -200 45 -18.759869 72.915947 -11.802372 163.39883
13670000000 -11.670019 106.81664 -200 45 -18.706224 9.2539349 -13.640975 157.99847
13680000000 -11.713841 105.4961 -200 45 -18.68088 -55.266029 -13.9873 171.01636
13690000000 -11.702881 100.091 -200 45 -18.787861 -118.74205 -12.146377 168.50992
13700000000 -12.534287 97.263565 -200 45 -18.721682 178.17244 -12.067575 157.20988
13710000000 -13.578199 100.62332 -200 45 -18.611343 114.87302 -13.11497 150.81094
13720000000 -13.446548 105.36062 -200 45 -18.466595 50.455666 -14.480838 147.57054
13730000000 -13.362659 110.46829 -200 45 -18.340963 -14.014587 -16.900837 154.81929
13740000000 -12.333524 111.00505 -200 45 -18.381945 -79.209885 -15.939781 178.19165
13750000000 -11.976521 107.8868 -200 45 -18.466331 -143.33714 -13.255159 176.7702
13760000000 -11.965773 106.73103 -200 45 -18.541409 152.96429 -12.490376 169.42705
13770000000 -11.525265 105.96423 -200 45 -18.564438 88.874626 -12.037007 164.42783
13780000000 -11.47184 102.68233 -200 45 -18.682453 25.164959 -11.955576 155.71771
13790000000 -11.247416 100.36852 -200 45 -18.558048 -38.469257 -13.214281 150.99146
13800000000 -11.205168 96.615746 -200 45 -18.627396 -102.5335 -13.683037 158.0804
13810000000 -11.602952 90.434036 -200 45 -18.60743 -166.52744 -12.482691 157.60455
13820000000 -12.685956 89.085716 -200 45 -18.723019 129.92987 -12.22219 147.85522
13830000000 -13.576854 92.083 -200 45 -18.593742 66.312714 -13.505543 137.97612
13840000000 -13.687036 97.503799 -200 45 -18.644135 2.3201873 -16.222252 139.97725
13850000000 -13.338404 104.09724 -200 45 -18.606651 -62.655968 -16.83832 159.92819
13860000000 -12.234882 103.30267 -200 45 -18.796619 -126.21362 -15.164618 166.21069
13870000000 -11.863518 101.84593 -200 45 -18.8482 169.66583 -14.346189 167.2429
13880000000 -11.425788 99.492958 -200 45 -18.988131 106.93739 -13.083954 166.36307
13890000000 -11.040928 95.105362 -200 45 -18.976166 43.255482 -12.400027 157.82538
13900000000 -11.287072 90.848915 -200 45 -18.999672 -19.902609 -13.097143 151.92896
13910000000 -11.18189 88.261978 -200 45 -19.017715 -83.781601 -13.478241 154.09145
13920000000 -11.443082 83.154579 -200 45 -19.007908 -146.98274 -13.002648 152.81219
13930000000 -12.409711 79.376816 -200 45 -19.012585 149.55515 -12.989684 148.15404
13940000000 -13.44308 82.438034 -200 45 -18.954418 86.115654 -13.257804 142.98117
13950000000 -14.107971 87.980469 -200 45 -18.957758 22.604858 -14.397429 136.33423
13960000000 -13.733934 96.754204 -200 45 -18.842749 -41.892521 -16.715479 141.61691
13970000000 -12.589322 100.32022 -200 45 -18.922882 -106.17643 -16.335266 157.36992
13980000000 -11.560444 97.656212 -200 45 -18.987858 -169.48897 -15.240284 158.16171
13990000000 -10.95708 94.550941 -200 45 -19.009094 127.12578 -15.08214 159.97075
14000000000 -10.519814 89.051125 -200 45 -19.09885 63.525963 -14.125544 162.37158
14010000000 -10.631867 83.128838 -200 45 -19.093969 0.53827161 -13.21157 158.14857
14020000000 -11.073981 79.762001 -200 45 -19.057259 -62.99942 -12.899836 153.19978
14030000000 -11.319273 76.946396 -200 45 -19.010426 -126.05269 -12.791728 147.6189
14040000000 -12.20309 73.610603 -200 45 -18.899319 170.74542 -13.176539 142.74454
14050000000 -13.252224 76.349007 -200 45 -18.768501 107.03651 -13.60414 140.56885
14060000000 -13.640844 82.654793 -200 45 -18.698963 42.781685 -14.032303 136.07622
14070000000 -13.45483 89.245224 -200 45 -18.596886 -21.435221 -15.570479 135.24991
14080000000 -12.336188 94.266693 -200 45 -18.602688 -86.266777 -15.886168 145.91629
14090000000 -11.182249 92.211998 -200 45 -18.649767 -149.95331 -15.000656 144.14896
14100000000 -10.499926 87.838776 -200 45 -18.657845 146.17511 -16.247398 142.66325
14110000000 -10.026397 82.273781 -200 45 -18.679647 82.296898 -16.10046 157.88878
14120000000 -10.14256 74.826591 -200 45 -18.70446 18.617329 -14.182266 157.75032
14130000000 -10.642817 69.889847 -200 45 -18.678993 -44.801098 -13.538762 153.88138
14140000000 -11.288695 67.592911 -200 45 -18.631666 -108.52065 -12.436505 150.15858
14150000000 -11.940715 65.561035 -200 45 -18.587873 -172.27901 -11.958701 137.17149
14160000000 -13.034112 67.789886 -200 45 -18.483377 124.11722 -13.517923 126.53693
14170000000 -13.248621 74.346237 -200 45 -18.403399 59.730167 -15.120534 130.92638
14180000000 -12.862628 78.966949 -200 45 -18.401222 -4.6172733 -15.132332 133.22151
14190000000 -12.12941 81.833038 -200 45 -18.475168 -69.070984 -15.790876 133.88783
14200000000 -11.102722 80.202934 -200 45 -18.5182 -132.89821 -15.685361 138.60696
14210000000 -10.521123 75.349907 -200 45 -18.565678 163.36018 -15.534276 134.29192
14220000000 -10.256109 70.638954 -200 45 -18.531723 99.77594 -17.364927 134.83752
14230000000 -10.1849 64.509331 -200 45 -18.5436 35.810429 -17.421865 154.41536
14240000000 -10.654489 58.991383 -200 45 -18.567324 -28.325821 -14.771122 158.90688
14250000000 -11.324372 56.662487 -200 45 -18.665621 -92.010155 -13.169364 151.4314
14260000000 -11.968746 54.561535 -200 45 -18.655861 -155.35451 -12.53959 141.38977
14270000000 -12.849117 55.376961 -200 45 -18.637114 141.19426 -12.721755 130.46991
14280000000 -13.365618 61.241901 -200 45 -18.578186 77.461998 -13.956198 121.25282
14290000000 -12.883225 66.185226 -200 45 -18.557375 13.586012 -16.013374 120.72845
14300000000 -12.263013 67.985756 -200 45 -18.561686 -50.857674 -16.874146 132.74727
14310000000 -11.435348 67.076607 -200 45 -18.627197 -114.59942 -15.45103 136.24283
14320000000 -10.994314 63.21431 -200 45 -18.708183 -178.10139 -15.231835 126.02612
14330000000 -10.851827 58.374035 -200 45 -18.644459 118.57065 -17.413258 121.63533
14340000000 -10.857914 55.134354 -200 45 -18.655828 54.39024 -18.622835 136.30896
14350000000 -11.018451 50.207054 -200 45 -18.688261 -9.3319035 -17.937042 145.427
14360000000 -11.482472 47.973152 -200 45 -18.772114 -73.070786 -16.722097 155.91975
14370000000 -11.883382 45.754082 -200 45 -18.791109 -136.21556 -13.861505 153.31456
14380000000 -12.556341 44.412296 -200 45 -18.815828 160.7047 -12.703385 137.07256
14390000000 -13.492558 47.664394 -200 45 -18.699425 97.63533 -13.557714 123.28159
14400000000 -13.373642 53.672764 -200 45 -18.576296 33.52919 -14.876863 117.42631
14410000000 -12.788256 57.137924 -200 45 -18.555241 -30.626944 -16.507671 113.59678
14420000000 -11.986511 56.665871 -200 45 -18.548164 -94.523933 -18.42016 124.60866
14430000000 -11.380007 53.762447 -200 45 -18.606882 -158.27675 -16.711466 133.41891
14440000000 -11.189688 49.537338 -200 45 -18.592838 138.82607 -16.205393 121.25776
14450000000 -11.121872 46.168171 -200 45 -18.452494 74.727165 -18.669811 115.26062
14460000000 -11.182025 43.149342 -200 45 -18.392105 10.472775 -20.28475 131.69862
14470000000 -11.331632 39.442192 -200 45 -18.400242 -53.666748 -19.510136 144.51285
14480000000 -11.584149 36.979404 -200 45 -18.425148 -117.79425 -17.717026 154.74203
14490000000 -11.999357 33.381145 -200 45 -18.514874 178.37962 -14.98901 151.20976
14500000000 -12.857793 32.229374 -200 45 -18.526314 114.85724 -13.541686 136.88487
14510000000 -13.635274 37.527641 -200 45 -18.505434 51.348217 -13.604523 120.33918
14520000000 -13.310736 42.794174 -200 45 -18.461267 -12.123189 -15.179837 104.93157
14530000000 -12.575134 45.462547 -200 45 -18.425299 -76.203537 -18.705456 101.36105
14540000000 -11.75366 43.617756 -200 45 -18.423195 -140.40756 -20.097595 123.0159
14550000000 -11.244216 39.695648 -200 45 -18.467443 155.76048 -18.096001 125.7282
14560000000 -11.166504 35.499901 -200 45 -18.471712 92.309631 -18.209126 116.05829
14570000000 -11.030998 30.95256 -200 45 -18.339365 29.054659 -19.834658 113.04885
14580000000 -11.314062 26.961266 -200 45 -18.315065 -35.621765 -21.713303 117.9149
14590000000 -11.59341 23.315981 -200 45 -18.285339 -99.624023 -23.26259 141.27647
14600000000 -11.992893 20.064957 -200 45 -18.337746 -164.23232 -19.165203 161.05815
14610000000 -12.98221 17.4186 -200 45 -18.399288 131.8896 -15.598313 149.69354
14620000000 -14.042927 20.431946 -200 45 -18.469421 68.14357 -14.300238 130.94308
14630000000 -14.51004 28.947947 -200 45 -18.527681 4.9319215 -14.452239 111.43058
14640000000 -13.759194 34.111599 -200 45 -18.477695 -58.683819 -16.258961 91.896858
14650000000 -12.774314 35.767159 -200 45 -18.461744 -122.75193 -21.04217 82.861008
14660000000 -11.867299 32.386871 -200 45 -18.531021 172.79196 -23.479441 121.00375
14670000000 -11.334594 27.342129 -200 45 -18.595987 109.69156 -19.660578 123.69892
14680000000 -11.299584 21.524008 -200 45 -18.651842 45.978779 -19.208324 106.29702
14690000000 -11.522004 15.765134 -200 45 -18.669977 -16.75156 -21.707458 91.545753
14700000000 -12.148274 11.16985 -200 45 -18.604773 -80.460678 -27.750509 97.196419
14710000000 -12.839946 7.9952846 -200 45 -18.541595 -144.34009 -26.872656 162.73026
14720000000 -13.843918 5.9652362 -200 45 -18.497805 151.70174 -20.340658 165.38046
14730000000 -15.102831 9.7584944 -200 45 -18.518702 87.624916 -16.656075 149.71284
14740000000 -15.36029 18.0334 -200 45 -18.604893 23.681395 -14.839499 124.96217
14750000000 -14.944337 25.442091 -200 45 -18.680868 -39.692219 -15.493647 95.050735
14760000000 -13.851331 27.837816 -200 45 -18.657911 -103.03451 -19.565872 70.379715
14770000000 -12.88972 26.551855 -200 45 -18.681973 -166.59689 -26.128016 84.407829
14780000000 -12.081349 21.19454 -200 45 -18.667706 129.97475 -24.841869 115.01038
14790000000 -11.787867 14.218557 -200 45 -18.691521 66.776619 -22.522499 116.87854
14800000000 -11.953752 6.5024343 -200 45 -18.58168 3.2883134 -21.002066 99.825912
14810000000 -12.70248 0.78058153 -200 45 -18.517008 -60.591217 -23.353987 63.986286
14820000000 -13.772373 -3.4917881 -200 45 -18.512442 -124.683 -37.160316 -36.751102
14830000000 -15.205189 -3.1392982 -200 45 -18.505558 171.6534 -23.821558 -167.45326
14840000000 -16.507236 3.0295935 -200 45 -18.484621 107.81873 -19.710894 160.11748
14850000000 -16.582294 14.400167 -200 45 -18.51088 44.099182 -17.843723 138.27112
14860000000 -15.520747 20.892996 -200 45 -18.548647 -19.630695 -16.722075 112.81712
14870000000 -14.507156 21.138826 -200 45 -18.566603 -83.013077 -17.616095 80.364464
14880000000 -13.493637 19.2854 -200 45 -18.493649 -146.60437 -22.179558 48.684719
14890000000 -12.855016 14.97902 -200 45 -18.486271 149.67265 -33.452461 60.211357
14900000000 -12.412768 8.6976891 -200 45 -18.457157 86.245911 -27.939217 115.71027
14910000000 -12.365482 0.50965834 -200 45 -18.429443 22.760193 -25.51853 94.722946
14920000000 -12.981961 -7.8175445 -200 45 -18.345207 -41.051003 -26.753153 65.709259
14930000000 -14.157187 -13.133695 -200 45 -18.320036 -104.97976 -31.569609 14.974813
14940000000 -15.798096 -15.227948 -200 45 -18.230059 -169.08458 -30.888731 -100.5788
14950000000 -17.433016 -8.1547451 -200 45 -18.247896 126.91117 -23.74539 -159.15239
14960000000 -17.513508 5.5377927 -200 45 -18.257675 63.017818 -20.538315 161.56042
14970000000 -16.173605 11.712783 -200 45 -18.250717 -0.76224005 -19.818218 127.38657
14980000000 -15.093332 9.9436817 -200 45 -18.252281 -64.900627 -20.812902 97.857651
14990000000 -14.462865 5.2402649 -200 45 -18.267408 -128.62698 -22.725548 72.106613
15000000000 -14.3709 1.200049 -200 45 -18.210728 167.54822 -25.592997 43.486488
15010000000 -14.126407 -2.6100566 -200 45 -18.278896 103.46194 -31.407883 7.3025026
15020000000 -14.073341 -8.3864813 -200 45 -18.293633 39.965153 -49.267555 -0.79302979
15030000000 -14.276011 -15.702407 -200 45 -18.307962 -23.767727 -38.014011 56.488045
15040000000 -15.281837 -21.724236 -200 45 -18.263962 -87.563301 -32.104553 -19.609312
15050000000 -16.628885 -24.287418 -200 45 -18.259756 -151.10617 -27.167707 -79.854095
15060000000 -18.538141 -22.224377 -200 45 -18.198809 145.21411 -24.575911 -123.62919
15070000000 -19.416353 -8.2648726 -200 45 -18.18215 81.119942 -23.437317 -153.95502
15080000000 -18.033972 0.60405058 -200 45 -18.169544 17.118967 -22.531313 176.85698
15090000000 -16.668207 -1.5792245 -200 45 -18.192192 -47.009075 -22.90156 143.18387
15100000000 -16.110046 -6.4785886 -200 45 -18.149899 -110.60182 -25.175432 106.18458
15110000000 -16.047022 -11.676237 -200 45 -18.146172 -174.92313 -28.616219 65.767609
15120000000 -16.463907 -14.620968 -200 45 -18.221348 121.16364 -30.675117 11.712352
15130000000 -16.255938 -16.144186 -200 45 -18.20339 57.295902 -29.449074 -44.730839
15140000000 -16.275564 -21.300552 -200 45 -18.246756 -6.7572823 -28.248911 -83.353653
15150000000 -16.547523 -27.23851 -200 45 -18.27952 -70.501862 -29.038889 -100.05371
15160000000 -17.227499 -32.586964 -200 45 -18.336863 -134.21877 -27.883366 -89.993805
15170000000 -18.352106 -37.606178 -200 45 -18.371447 162.05731 -23.707737 -95.808144
15180000000 -20.358109 -33.453903 -200 45 -18.373674 98.4729 -21.060743 -116.56512
15190000000 -20.697174 -21.084339 -200 45 -18.387859 34.880341 -20.094643 -141.37141
15200000000 -19.460693 -17.467049 -200 45 -18.381615 -28.769812 -20.765728 -167.90433
15210000000 -18.663496 -19.026361 -200 45 -18.404291 -92.554916 -23.479248 165.36615
15220000000 -18.312963 -23.987312 -200 45 -18.395 -156.32103 -28.975235 139.67479
15230000000 -18.25552 -27.834244 -200 45 -18.366915 140.11751 -39.777073 60.006062
15240000000 -18.43911 -30.393864 -200 45 -18.341711 75.87986 -28.657902 -47.763519
15250000000 -17.92449 -34.283955 -200 45 -18.452848 12.370446 -23.464941 -82.815903
15260000000 -18.064852 -42.165581 -200 45 -18.375078 -51.318329 -22.869898 -108.53561
15270000000 -18.597504 -49.825008 -200 45 -18.417141 -115.39709 -24.403894 -108.41064
15280000000 -19.438725 -58.340569 -200 45 -18.447382 -179.27036 -22.116844 -99.091583
15290000000 -21.71632 -68.851067 -200 45 -18.501547 117.43535 -19.588108 -109.50342
15300000000 -25.448833 -58.415649 -200 45 -18.457735 53.591938 -18.537771 -123.09792
15310000000 -25.701696 -36.626675 -200 45 -18.513201 -10.303997 -17.987907 -138.36023
15320000000 -23.918804 -24.34075 -200 45 -18.544193 -73.991249 -18.905397 -158.92744
15330000000 -21.91497 -23.721746 -200 45 -18.534422 -137.56906 -22.931252 -175.72929
15340000000 -20.34936 -30.698795 -200 45 -18.541843 158.68552 -29.129704 -144.63139
15350000000 -19.961918 -39.261181 -200 45 -18.59936 94.952522 -25.388437 -116.41628
15360000000 -19.518917 -48.263077 -200 45 -18.626808 31.584213 -23.905096 -112.07979
