!Keysight Technologies,P9374A,MY57211810,A.19.30.04
!Date: Friday, May 02, 2025 08:59:16
!Correction: S11(Off) 
!S21(Off) 
!S12(Off) 
!S22(Off) 
!S2P File: Measurements: S11, S21, S12, S22:
# Hz S  dB   R 50
13000000000 -11.68651 110.91985 -200 45 -38.477657 -71.409302 -12.977311 -175.38979
13010000000 -12.855432 104.57337 -200 45 -38.759796 -133.40106 -18.584345 -175.99731
13020000000 -14.384075 104.61544 -200 45 -38.230267 159.97824 -19.465706 -118.04456
13030000000 -15.19789 110.55048 -200 45 -37.712189 89.698044 -13.470966 -114.05237
13040000000 -15.337283 115.15194 -200 45 -38.390007 18.102194 -11.033124 -130.26964
13050000000 -15.233254 118.42044 -200 45 -39.049206 -44.316315 -10.832606 -147.20805
13060000000 -15.188814 122.82199 -200 45 -38.9044 -105.81013 -12.236891 -160.71042
13070000000 -14.536269 129.29265 -200 45 -37.939125 -174.45432 -15.360356 -160.08882
13080000000 -12.87021 129.79427 -200 45 -38.199291 115.4288 -15.67547 -136.01628
13090000000 -11.748512 122.62754 -200 45 -38.568779 45.78862 -12.669657 -132.12262
13100000000 -11.435154 113.09856 -200 45 -39.242531 -18.618036 -10.975031 -144.5432
13110000000 -12.018022 104.85138 -200 45 -39.296589 -80.666679 -11.14981 -161.39235
13120000000 -13.013569 101.47185 -200 45 -38.488174 -145.54756 -13.345272 -176.17149
13130000000 -13.706923 103.18867 -200 45 -38.480175 142.34462 -18.877447 -173.80252
13140000000 -13.829815 102.35713 -200 45 -39.026749 75.366829 -18.257101 -118.9868
13150000000 -14.385221 99.5849 -200 45 -39.358173 13.715008 -12.994201 -118.77274
13160000000 -15.909184 101.2879 -200 45 -38.776752 -52.754501 -10.623819 -133.95102
13170000000 -16.861177 114.52711 -200 45 -38.812927 -119.29816 -10.284416 -152.20157
13180000000 -15.02412 127.80037 -200 45 -38.650059 172.68109 -11.877213 -166.23036
13190000000 -12.93139 124.90526 -200 45 -39.154686 104.22782 -14.900854 -165.46413
13200000000 -11.987559 116.60234 -200 45 -39.302338 40.722958 -15.27182 -143.1926
13210000000 -12.067721 108.22113 -200 45 -38.860977 -23.695763 -12.442593 -139.53357
13220000000 -12.61826 104.4155 -200 45 -38.834602 -93.492317 -10.817435 -151.995
13230000000 -12.886189 104.24884 -200 45 -39.123619 -161.14378 -10.981382 -169.51947
13240000000 -12.662973 101.36467 -200 45 -39.460175 136.5829 -13.542971 174.1498
13250000000 -13.161724 94.810707 -200 45 -38.983883 72.187317 -19.469948 -178.5743
13260000000 -14.761096 91.105179 -200 45 -38.775234 4.7350883 -18.038141 -125.44331
13270000000 -17.044535 99.701233 -200 45 -38.402393 -63.25663 -12.848833 -126.72885
13280000000 -16.676842 122.19505 -200 45 -38.762154 -132.85701 -10.665333 -143.09497
13290000000 -14.075133 128.08888 -200 45 -39.088402 160.2175 -10.562612 -160.80469
13300000000 -12.533965 121.78226 -200 45 -39.620342 100.25655 -12.326499 -172.56569
13310000000 -12.071593 115.25869 -200 45 -38.392372 34.094582 -14.580782 -167.62743
13320000000 -12.198951 111.80389 -200 45 -38.246803 -36.624454 -14.14976 -153.39165
13330000000 -12.06112 110.15223 -200 45 -38.570461 -107.52598 -11.895681 -153.85719
13340000000 -11.688312 106.50596 -200 45 -39.481014 -171.42355 -10.754848 -167.96945
13350000000 -11.859746 99.308098 -200 45 -39.457844 126.88493 -11.663854 175.30209
13360000000 -12.993471 92.94709 -200 45 -38.719437 63.641735 -14.730275 165.38913
13370000000 -15.000727 94.695938 -200 45 -38.194473 -6.4864717 -19.218809 -175.26227
13380000000 -16.138002 109.12569 -200 45 -38.162369 -77.042938 -16.160788 -140.8959
13390000000 -14.758192 121.74568 -200 45 -38.767693 -144.9734 -12.316018 -146.72382
13400000000 -13.256244 121.47173 -200 45 -39.327957 151.13803 -10.832622 -162.14804
13410000000 -12.388446 118.119 -200 45 -38.888882 90.322937 -11.372991 -177.12486
13420000000 -12.171987 114.82345 -200 45 -38.172398 19.585468 -13.065423 177.36363
13430000000 -11.837481 112.49339 -200 45 -38.453545 -49.026417 -14.440302 -175.33305
13440000000 -11.532326 108.54755 -200 45 -38.811501 -119.44096 -13.372063 -165.38425
13450000000 -11.54942 102.51665 -200 45 -39.436272 179.06332 -11.452803 -170.50302
13460000000 -12.210569 96.542534 -200 45 -39.118439 115.05335 -10.898721 176.18245
13470000000 -13.52105 94.150177 -200 45 -38.914822 48.736641 -12.052261 161.68256
13480000000 -14.841753 97.792229 -200 45 -38.766834 -18.462252 -14.91555 156.06937
13490000000 -15.364294 107.90749 -200 45 -38.349319 -85.439011 -18.318575 173.26459
13500000000 -14.751462 114.46983 -200 45 -38.805992 -155.62201 -16.162441 -158.92963
13510000000 -13.809571 117.47936 -200 45 -39.308472 139.66142 -12.826176 -161.19897
13520000000 -13.156075 116.74329 -200 45 -39.044315 76.146904 -11.576403 -173.4155
13530000000 -12.57964 114.82411 -200 45 -38.936378 7.1880255 -11.780807 175.4846
13540000000 -12.294735 112.25341 -200 45 -39.11916 -57.742271 -12.850811 170.03767
13550000000 -12.048767 108.57108 -200 45 -39.026867 -124.4726 -13.97952 172.77217
13560000000 -12.171045 104.62241 -200 45 -39.093197 168.27803 -13.527635 -179.88794
13570000000 -12.521257 100.40828 -200 45 -39.570103 103.71697 -12.279529 177.70657
13580000000 -13.259013 99.344879 -200 45 -39.250774 40.922298 -11.900252 168.3745
13590000000 -14.258615 101.36485 -200 45 -38.635994 -27.917416 -12.708871 158.84346
13600000000 -14.429915 107.32996 -200 45 -38.803558 -97.535622 -14.683319 154.29849
13610000000 -14.198803 113.2395 -200 45 -39.388943 -162.99811 -17.19595 164.77843
13620000000 -13.401009 115.15735 -200 45 -39.241398 134.34796 -16.126823 -172.15965
13630000000 -12.831896 115.10567 -200 45 -38.922802 67.766861 -13.4574 -171.63493
13640000000 -12.530215 113.22002 -200 45 -38.735111 0.1380377 -12.149228 -179.44742
13650000000 -12.083529 113.11482 -200 45 -38.608677 -68.943214 -11.758353 171.17392
13660000000 -11.736787 110.94357 -200 45 -39.448708 -137.17088 -12.466188 162.91707
13670000000 -11.410211 106.23674 -200 45 -39.682701 161.52473 -13.485653 163.63939
13680000000 -11.640831 102.00665 -200 45 -39.109749 98.189392 -13.405637 167.53456
13690000000 -12.285359 98.752266 -200 45 -38.810207 29.83152 -12.634212 166.74966
13700000000 -13.008929 100.30636 -200 45 -38.846569 -37.308998 -12.211 159.86208
13710000000 -13.258242 104.03732 -200 45 -38.654533 -103.76533 -12.784948 151.04094
13720000000 -12.915573 105.91274 -200 45 -38.957348 -172.48027 -14.591166 146.31126
13730000000 -12.877399 105.79202 -200 45 -39.001751 123.81629 -16.789846 156.03038
13740000000 -13.023645 107.1854 -200 45 -38.730183 56.598328 -16.082249 176.38326
13750000000 -12.711215 110.2972 -200 45 -38.676647 -11.419203 -13.459056 178.55812
13760000000 -11.883868 111.83082 -200 45 -38.960655 -78.542427 -12.171211 170.48369
13770000000 -11.025034 107.52942 -200 45 -39.028221 -144.3365 -11.88869 162.13853
13780000000 -10.887884 101.13407 -200 45 -39.138645 151.23378 -12.389204 154.68063
13790000000 -11.253501 95.196114 -200 45 -38.893276 83.883606 -13.323423 154.7925
13800000000 -11.97453 94.386345 -200 45 -38.790031 17.372332 -13.092094 157.54128
13810000000 -12.314645 95.080032 -200 45 -39.124454 -51.069626 -12.621902 154.53494
13820000000 -12.165536 94.333939 -200 45 -39.258404 -114.47723 -12.61081 148.49393
13830000000 -12.712088 91.224243 -200 45 -38.90506 179.85591 -13.524155 140.85666
13840000000 -13.531158 92.429268 -200 45 -38.675117 112.56471 -15.592414 140.20622
13850000000 -14.078754 101.09867 -200 45 -38.711277 42.667118 -17.115736 155.13644
13860000000 -12.912963 107.91158 -200 45 -39.24675 -25.999119 -15.68984 169.20894
13870000000 -11.381227 105.79397 -200 45 -39.832539 -88.325989 -13.842857 169.39125
13880000000 -10.855411 98.450233 -200 45 -39.430233 -151.44391 -12.887062 163.69107
13890000000 -11.005074 92.016624 -200 45 -38.987068 140.71298 -12.724215 156.89204
13900000000 -11.523865 89.572853 -200 45 -39.394512 70.893517 -13.222081 153.74971
13910000000 -11.647178 88.945175 -200 45 -39.552902 7.1977968 -13.27565 154.26878
13920000000 -11.458934 86.824966 -200 45 -39.696133 -59.446243 -12.961411 152.24075
13930000000 -11.810746 80.475029 -200 45 -39.728012 -123.00363 -12.955529 147.40341
13940000000 -13.173925 78.057159 -200 45 -39.606052 172.05367 -13.449407 142.257
13950000000 -14.706248 85.844795 -200 45 -39.104637 104.00623 -14.527029 138.50305
13960000000 -14.096703 99.814484 -200 45 -39.276516 36.086002 -16.244696 141.76266
13970000000 -12.257255 103.07468 -200 45 -39.497322 -31.214453 -16.499178 154.17523
13980000000 -11.032228 97.140236 -200 45 -39.603634 -96.36821 -15.614579 159.59512
13990000000 -10.870183 90.900139 -200 45 -39.772778 -163.53569 -14.858521 161.87178
14000000000 -11.061066 87.361 -200 45 -39.971764 132.106 -13.856251 160.87088
14010000000 -11.049184 86.082687 -200 45 -39.955315 68.158714 -13.411081 156.71704
14020000000 -10.784728 83.014511 -200 45 -39.644062 2.0867999 -13.10944 154.26363
14030000000 -10.882481 76.897064 -200 45 -39.685677 -64.918076 -12.645518 149.01663
14040000000 -11.79744 70.719238 -200 45 -39.554203 -128.79597 -12.974393 142.13814
14050000000 -13.795117 71.86972 -200 45 -39.11034 162.62744 -13.646015 138.53378
14060000000 -14.513863 85.889816 -200 45 -39.375076 93.185486 -14.431016 136.72417
14070000000 -13.071351 95.047394 -200 45 -39.889587 29.410795 -15.314329 138.39371
14080000000 -11.673326 93.338692 -200 45 -39.63916 -34.514927 -15.519526 142.48819
14090000000 -10.981525 89.091957 -200 45 -39.267208 -102.33926 -15.573077 143.41687
14100000000 -10.778932 84.936974 -200 45 -39.328022 -170.67784 -16.196552 146.76546
14110000000 -10.57453 82.490768 -200 45 -39.633251 123.94168 -15.683187 154.50073
14120000000 -10.320315 78.370163 -200 45 -39.313225 58.050037 -14.699996 157.76047
14130000000 -10.243229 72.231461 -200 45 -39.652992 -9.2085743 -13.270327 156.0601
14140000000 -10.851711 66.064125 -200 45 -39.551025 -73.005203 -12.290788 147.83664
14150000000 -12.038503 62.666946 -200 45 -39.438587 -141.50136 -12.359436 137.15961
14160000000 -13.322815 66.432747 -200 45 -39.596153 152.59889 -13.348319 129.56505
14170000000 -13.664399 75.85981 -200 45 -39.410851 87.168701 -14.721385 127.64554
14180000000 -12.808589 81.361259 -200 45 -39.417175 19.168337 -15.814162 132.59662
14190000000 -11.739553 82.430145 -200 45 -39.691914 -47.172195 -15.561213 137.66185
14200000000 -10.950547 78.634232 -200 45 -39.725571 -111.45645 -15.287467 135.95805
14210000000 -10.568534 74.220688 -200 45 -39.318378 -177.95584 -16.023485 133.10872
14220000000 -10.470749 69.963135 -200 45 -39.530434 114.06398 -17.221294 138.03564
14230000000 -10.468287 65.811737 -200 45 -39.608086 46.988468 -17.250053 152.29523
14240000000 -10.554466 61.507629 -200 45 -39.807365 -17.380566 -15.002411 158.98123
14250000000 -10.969644 56.402435 -200 45 -39.663342 -85.049431 -13.146086 152.31979
14260000000 -11.795047 52.876778 -200 45 -40.052227 -149.06137 -12.401911 141.53438
14270000000 -13.061402 53.826134 -200 45 -39.719967 145.5238 -12.690421 129.06456
14280000000 -13.700534 61.594093 -200 45 -39.674404 78.915741 -14.248588 121.5041
14290000000 -12.967317 69.414902 -200 45 -39.654137 11.971315 -15.851322 122.75962
14300000000 -11.834485 68.634529 -200 45 -39.526527 -53.982517 -16.611111 131.24963
14310000000 -11.221691 64.796333 -200 45 -39.684692 -121.12188 -15.72944 134.01118
14320000000 -11.195836 60.893055 -200 45 -39.788269 174.02069 -15.659419 129.0215
14330000000 -11.229445 59.143448 -200 45 -39.720036 107.59609 -16.634464 124.01421
14340000000 -10.947357 57.481815 -200 45 -39.490585 41.467899 -18.787342 129.69739
14350000000 -10.67241 52.617798 -200 45 -39.684193 -27.875498 -18.629763 149.58675
14360000000 -10.985922 46.100815 -200 45 -40.215935 -91.428421 -16.096811 157.30161
14370000000 -12.026005 41.340862 -200 45 -39.878223 -154.23232 -13.853409 150.86563
14380000000 -13.307836 44.142029 -200 45 -39.425282 138.77473 -12.924657 137.25409
14390000000 -13.662058 52.473038 -200 45 -39.485142 70.967941 -13.499834 124.1579
14400000000 -12.756957 56.525494 -200 45 -39.359772 3.7369835 -14.858418 116.82096
14410000000 -12.163616 54.257046 -200 45 -39.781521 -63.322823 -16.683283 114.39069
14420000000 -12.167415 51.964546 -200 45 -39.516712 -125.66679 -17.973034 125.12453
14430000000 -12.150741 53.194984 -200 45 -39.350109 167.12772 -16.955322 129.73817
14440000000 -11.528028 53.916542 -200 45 -38.981594 100.06966 -16.776541 123.92435
14450000000 -10.709278 49.876427 -200 45 -38.979408 30.216627 -17.963255 119.06721
14460000000 -10.471875 42.339321 -200 45 -39.378468 -37.510899 -20.033081 125.11578
14470000000 -11.060966 34.756859 -200 45 -39.914799 -101.83302 -20.456322 145.66495
14480000000 -12.173981 32.839893 -200 45 -39.779984 -165.57109 -17.361864 158.80602
14490000000 -12.901981 36.214188 -200 45 -39.271568 132.37741 -14.576737 149.7393
14500000000 -12.713258 39.235157 -200 45 -38.669533 59.747154 -13.653952 134.51073
14510000000 -12.538119 37.812988 -200 45 -38.953072 -8.4410229 -13.95437 120.38112
14520000000 -12.971978 36.883987 -200 45 -39.521805 -75.96283 -15.285873 107.37446
14530000000 -13.249679 41.479214 -200 45 -39.613934 -141.23395 -18.200338 102.7487
14540000000 -12.476973 46.566612 -200 45 -39.817181 154.65332 -19.93495 118.57887
14550000000 -11.143448 44.04351 -200 45 -39.295528 88.512283 -18.80867 125.1512
14560000000 -10.553503 36.27158 -200 45 -39.410629 20.981365 -18.304424 121.52065
14570000000 -10.708037 28.622419 -200 45 -39.453053 -46.423656 -18.847773 112.97638
14580000000 -11.466576 23.837353 -200 45 -39.571526 -112.33205 -22.12352 109.70604
14590000000 -12.105794 23.284878 -200 45 -39.736053 -179.70905 -23.789955 149.66373
14600000000 -12.32089 23.218651 -200 45 -39.852074 116.90227 -18.628681 160.75536
14610000000 -12.511831 20.170559 -200 45 -39.790703 49.675007 -15.597772 148.5672
14620000000 -13.635479 18.209814 -200 45 -39.629021 -16.666637 -14.276568 130.44043
14630000000 -14.72406 24.598864 -200 45 -39.802605 -82.707222 -14.575783 110.43673
14640000000 -14.225136 36.094547 -200 45 -39.477821 -149.41516 -16.618458 92.847984
14650000000 -12.658941 38.621052 -200 45 -39.560879 141.94987 -20.78474 87.970497
14660000000 -11.506094 32.862518 -200 45 -40.29715 74.860382 -22.885799 113.09478
14670000000 -11.236667 25.282143 -200 45 -40.461243 12.887436 -20.635866 123.14241
14680000000 -11.546712 19.450935 -200 45 -40.319294 -53.107708 -19.367836 112.14559
14690000000 -11.851676 16.925789 -200 45 -40.074074 -116.68655 -20.659544 93.93354
14700000000 -12.092694 13.566705 -200 45 -39.753674 173.33153 -27.104624 83.692787
14710000000 -12.453355 9.1179104 -200 45 -39.870316 107.47242 -27.878813 175.89188
14720000000 -13.472609 4.2876992 -200 45 -40.208885 39.283127 -19.462507 168.27228
14730000000 -15.199241 6.0538292 -200 45 -40.2953 -24.804546 -16.213707 146.48044
14740000000 -16.185041 18.953035 -200 45 -40.332718 -89.933151 -15.210217 121.26848
14750000000 -14.979512 29.28887 -200 45 -40.001678 -155.28253 -16.108879 97.502777
14760000000 -13.354731 29.548458 -200 45 -39.929657 136.36536 -19.083029 75.653404
14770000000 -12.475951 24.563257 -200 45 -40.309216 68.60807 -25.392958 76.050102
14780000000 -12.076859 18.219301 -200 45 -40.513683 5.4387412 -25.735298 119.82261
14790000000 -12.209346 12.893324 -200 45 -40.346821 -60.709679 -21.922409 117.74085
14800000000 -12.33893 8.4030218 -200 45 -40.240726 -126.07538 -21.238331 95.846397
14810000000 -12.667035 3.5216098 -200 45 -40.129364 166.36945 -24.376135 67.75528
14820000000 -13.374254 -1.8847433 -200 45 -40.073246 100.39353 -39.107204 17.642097
14830000000 -14.670737 -5.0167775 -200 45 -40.20105 32.086346 -25.142017 -159.07915
14840000000 -16.533457 -1.6695486 -200 45 -40.633877 -32.740623 -19.156042 166.08275
14850000000 -17.329649 12.898569 -200 45 -40.34103 -96.405823 -17.05155 136.66496
14860000000 -15.898527 25.385578 -200 45 -39.866741 -166.13887 -16.784883 107.91892
14870000000 -14.143772 24.569288 -200 45 -40.758831 125.93752 -18.408369 80.024864
14880000000 -12.939209 19.202721 -200 45 -40.683582 65.207039 -22.496109 55.289425
14890000000 -12.594493 11.254507 -200 45 -40.197529 -2.1009178 -31.06189 61.56665
14900000000 -12.698554 5.1451936 -200 45 -40.24332 -70.438454 -29.015743 109.67613
14910000000 -13.028882 0.91995275 -200 45 -40.70882 -136.65773 -26.282671 99.293121
14920000000 -13.200012 -3.912714 -200 45 -40.666534 158.19688 -26.172264 70.486252
14930000000 -13.790602 -10.193238 -200 45 -40.896229 93.957825 -30.754976 13.405379
14940000000 -15.080975 -15.381234 -200 45 -40.411697 29.502264 -30.481339 -101.62604
14950000000 -17.151533 -13.530912 -200 45 -40.048531 -37.656185 -23.628414 -159.79332
14960000000 -18.454737 3.3445284 -200 45 -40.055607 -109.17946 -20.774481 160.65585
14970000000 -16.722633 15.407345 -200 45 -40.989559 -175.67871 -19.947325 130.55969
14980000000 -14.723279 13.786485 -200 45 -40.983459 122.8452 -20.125957 98.995964
14990000000 -13.958408 4.9328923 -200 45 -40.744484 57.506977 -22.430731 66.715225
15000000000 -14.061367 -1.7463707 -200 45 -40.672993 -7.0016589 -26.705227 38.239651
15010000000 -14.547683 -5.2318153 -200 45 -40.30682 -75.507828 -34.004673 24.033987
15020000000 -14.470457 -6.8011365 -200 45 -40.667484 -142.10217 -38.091873 26.094084
15030000000 -14.286887 -12.043279 -200 45 -40.446869 153.16148 -40.936924 16.901386
15040000000 -14.757325 -21.087553 -200 45 -40.66959 86.657585 -33.803646 -25.968401
15050000000 -16.423635 -28.375513 -200 45 -40.35947 20.5506 -28.237179 -81.213089
15060000000 -19.203285 -24.796375 -200 45 -40.560379 -44.875954 -25.049292 -119.34642
15070000000 -19.577923 -3.7821147 -200 45 -40.411568 -110.77385 -22.969772 -151.84866
15080000000 -17.482454 3.4344668 -200 45 -40.000179 -175.16386 -22.384035 175.6561
15090000000 -16.105461 -3.7917261 -200 45 -39.912991 114.78055 -22.933344 143.86975
15100000000 -16.277225 -11.428187 -200 45 -40.020298 48.775757 -24.776312 106.98285
15110000000 -16.994705 -12.708995 -200 45 -40.301254 -16.622927 -28.116735 63.000114
15120000000 -16.737268 -8.7442532 -200 45 -39.684708 -81.273026 -30.812782 4.3940067
15130000000 -15.750502 -12.08163 -200 45 -39.563942 -151.83752 -30.333302 -48.649872
15140000000 -15.259621 -21.996067 -200 45 -39.844318 141.41707 -29.177454 -82.744606
15150000000 -16.06143 -34.014996 -200 45 -39.987225 76.240387 -29.14798 -92.920746
15160000000 -18.169184 -41.114845 -200 45 -39.682453 8.9475441 -27.059021 -91.205109
15170000000 -20.386951 -30.572477 -200 45 -39.804031 -58.979881 -23.753269 -99.289864
15180000000 -19.631819 -19.866524 -200 45 -40.038338 -125.70061 -21.456444 -117.88035
15190000000 -18.502695 -21.910938 -200 45 -40.201843 169.22296 -20.420683 -139.71005
15200000000 -18.694536 -28.98242 -200 45 -40.196625 104.24706 -20.605171 -164.75769
15210000000 -20.016161 -28.905037 -200 45 -39.489265 37.331894 -22.646217 165.54234
15220000000 -20.152592 -18.933331 -200 45 -39.775894 -34.509796 -28.294014 129.80629
15230000000 -18.2931 -15.666815 -200 45 -40.394627 -99.41127 -37.868916 25.043669
15240000000 -16.784443 -25.535574 -200 45 -40.515644 -164.85529 -28.121983 -59.141682
15250000000 -16.773703 -39.515842 -200 45 -40.404243 131.22075 -24.437851 -87.130112
15260000000 -17.88101 -52.522774 -200 45 -40.234497 62.197365 -23.49645 -102.69062
15270000000 -20.028296 -57.121033 -200 45 -40.57597 -3.94116 -23.46224 -107.67533
15280000000 -21.354597 -52.889462 -200 45 -40.605682 -71.42012 -22.35984 -102.50517
15290000000 -21.553192 -49.669025 -200 45 -41.005138 -135.93614 -19.797247 -107.97695
15300000000 -22.116682 -56.157845 -200 45 -40.800438 158.81198 -18.372839 -122.86295
15310000000 -24.616505 -58.14769 -200 45 -40.786674 92.021431 -18.052979 -139.71368
15320000000 -26.651325 -32.038643 -200 45 -40.688103 25.393629 -19.239717 -158.77188
15330000000 -23.429094 -14.393496 -200 45 -41.073311 -44.096672 -22.656109 -170.94171
15340000000 -20.123182 -20.264427 -200 45 -41.711132 -105.86812 -28.286196 -157.94801
15350000000 -18.595163 -36.586349 -200 45 -41.243923 -169.56444 -26.865076 -109.42822
15360000000 -18.401388 -54.0121 -200 45 -40.954357 121.94209 -22.842798 -107.56824
