!Keysight Technologies,P9374A,MY57211810,A.19.30.04
!Date: Friday, May 02, 2025 09:03:39
!Correction: S11(Off) 
!S21(Off) 
!S12(Off) 
!S22(Off) 
!S2P File: Measurements: S11, S21, S12, S22:
# Hz S  dB   R 50
13000000000 -11.72498 110.29389 -200 45 -50.200432 74.727875 -12.598478 -176.43098
13010000000 -12.932014 104.99134 -200 45 -50.478092 15.038007 -18.790134 178.92094
13020000000 -14.263024 105.03979 -200 45 -51.290386 -57.052429 -19.617666 -113.23938
13030000000 -15.120984 109.83591 -200 45 -51.369663 -117.26301 -13.155068 -113.64687
13040000000 -15.367934 114.37847 -200 45 -51.335072 -177.76468 -10.923474 -131.48976
13050000000 -15.453246 118.80924 -200 45 -50.251003 122.99464 -10.966184 -148.69072
13060000000 -15.177581 124.39119 -200 45 -49.231911 51.770046 -12.605173 -159.70087
13070000000 -14.184267 129.34117 -200 45 -48.799957 -18.033705 -15.031024 -156.79163
13080000000 -12.865988 127.65466 -200 45 -48.666912 -88.344688 -15.340546 -139.3813
13090000000 -11.978858 121.86017 -200 45 -49.157047 -156.58231 -13.038743 -133.60483
13100000000 -11.651408 113.93537 -200 45 -48.232449 137.32191 -11.242186 -142.95224
13110000000 -12.011044 107.03941 -200 45 -48.372448 65.507698 -11.008239 -159.21028
13120000000 -12.639887 102.56657 -200 45 -48.252346 -4.2652335 -12.950509 -176.3622
13130000000 -13.419879 100.27578 -200 45 -48.508953 -73.40126 -18.686291 -178.36676
13140000000 -14.132627 99.781479 -200 45 -48.745075 -145.12015 -18.930212 -115.99231
13150000000 -15.041426 100.69733 -200 45 -49.525482 142.71329 -12.720069 -116.69049
13160000000 -15.808225 105.44032 -200 45 -50.82349 75.454788 -10.3992 -135.02267
13170000000 -16.005064 115.00101 -200 45 -51.939529 19.45204 -10.362687 -153.51173
13180000000 -14.978413 123.16159 -200 45 -50.934292 -40.141903 -12.142888 -166.20976
13190000000 -13.354379 123.25307 -200 45 -51.008816 -111.16355 -14.852921 -162.74847
13200000000 -12.435979 118.27086 -200 45 -52.006432 -170.96606 -14.912379 -144.3013
13210000000 -11.990089 111.50446 -200 45 -51.131771 129.82205 -12.567852 -141.29169
13220000000 -12.084556 105.5629 -200 45 -49.35051 64.486893 -11.073602 -151.91191
13230000000 -12.537204 100.94322 -200 45 -48.792358 -4.1550441 -11.093913 -167.71538
13240000000 -12.982848 98.259659 -200 45 -47.531597 -76.316551 -13.186623 176.36023
13250000000 -13.781166 95.394394 -200 45 -47.92189 -149.10692 -18.82181 175.95638
13260000000 -14.910957 95.82148 -200 45 -47.690178 140.63467 -18.879084 -123.21157
13270000000 -16.178816 102.45862 -200 45 -47.894802 64.736572 -12.702199 -124.35471
13280000000 -16.331501 115.93704 -200 45 -49.016953 0.19261867 -10.432262 -143.17796
13290000000 -14.671042 125.38401 -200 45 -48.215179 -74.298615 -10.510414 -161.92844
13300000000 -12.935667 124.35248 -200 45 -50.435623 -144.28818 -12.469249 -173.55141
13310000000 -11.990258 118.29973 -200 45 -51.200722 150.95087 -14.877526 -166.04997
13320000000 -11.712239 112.50442 -200 45 -52.705334 92.382751 -13.748936 -151.78799
13330000000 -11.756088 107.67223 -200 45 -52.091812 33.242603 -11.743515 -156.35341
13340000000 -11.969386 103.77091 -200 45 -52.56776 -25.337072 -11.09798 -169.02919
13350000000 -12.30666 99.862671 -200 45 -51.149582 -76.75769 -11.872681 177.38487
13360000000 -13.152584 96.230255 -200 45 -49.290932 -153.75992 -14.400464 167.53265
13370000000 -14.470884 96.839851 -200 45 -48.622414 138.05769 -18.721304 -179.20303
13380000000 -15.656097 105.92903 -200 45 -49.142101 70.22319 -16.71027 -141.64268
13390000000 -15.125374 118.32476 -200 45 -48.219196 1.147822 -12.41215 -144.54164
13400000000 -13.64899 123.3249 -200 45 -47.936714 -69.140015 -10.684678 -161.1221
13410000000 -12.377896 120.22902 -200 45 -47.566006 -135.47839 -11.081655 -177.60571
13420000000 -11.835474 115.79456 -200 45 -46.617508 148.65175 -13.218581 174.61186
13430000000 -11.601533 110.874 -200 45 -47.257641 69.862091 -14.866074 -173.22441
13440000000 -11.634439 106.53893 -200 45 -48.747681 -0.33484209 -13.015479 -163.66058
13450000000 -11.850149 102.22342 -200 45 -49.696125 -67.259659 -11.255655 -171.94061
13460000000 -12.373229 98.130257 -200 45 -50.880322 -135.74028 -11.068633 174.64661
13470000000 -13.270323 95.727722 -200 45 -52.881802 163.31607 -12.293274 162.76436
13480000000 -14.519454 97.099228 -200 45 -52.567581 107.46968 -14.837042 158.0838
13490000000 -15.355889 104.94205 -200 45 -52.84568 48.015095 -17.742817 172.24815
13500000000 -15.097507 114.75269 -200 45 -51.160927 -12.535418 -16.466137 -161.93593
13510000000 -13.933561 119.03152 -200 45 -51.674274 -81.5541 -13.211759 -159.72707
13520000000 -12.992526 118.08739 -200 45 -50.913326 -139.15584 -11.440893 -171.08434
13530000000 -12.39482 114.47438 -200 45 -49.811665 155.41252 -11.416795 175.21863
13540000000 -12.202858 110.76779 -200 45 -48.326965 85.211662 -12.894401 167.23557
13550000000 -12.254622 107.68806 -200 45 -47.499001 13.547811 -14.383245 173.60014
13560000000 -12.310569 105.09612 -200 45 -47.067387 -65.037895 -13.421816 -177.75691
13570000000 -12.516027 102.11795 -200 45 -48.106342 -140.96162 -12.013296 177.46393
13580000000 -13.119692 99.822533 -200 45 -49.277924 156.53479 -11.849441 166.74274
13590000000 -13.965804 100.33872 -200 45 -49.021469 88.068382 -12.99433 158.02802
13600000000 -14.680863 106.10445 -200 45 -49.378395 20.045334 -14.87921 156.85486
13610000000 -14.374801 113.16348 -200 45 -49.988167 -54.822567 -16.515207 166.25507
13620000000 -13.501318 116.69784 -200 45 -51.372856 -118.62991 -16.235912 -177.29451
13630000000 -12.67182 115.72954 -200 45 -52.713474 178.14621 -13.976654 -170.52534
13640000000 -12.272288 113.31894 -200 45 -52.325985 123.17773 -12.076538 -176.94554
13650000000 -12.085532 111.42856 -200 45 -52.422558 59.474316 -11.470048 171.31145
13660000000 -11.893489 109.95406 -200 45 -51.775459 -3.1432073 -12.324946 161.33485
13670000000 -11.613285 107.22344 -200 45 -50.806099 -68.025543 -13.813898 162.11041
13680000000 -11.646954 103.33644 -200 45 -51.028381 -134.79836 -13.593355 170.12656
13690000000 -12.021854 99.833084 -200 45 -49.975899 159.89885 -12.274732 167.9091
13700000000 -12.71993 99.256607 -200 45 -49.621964 94.226563 -11.987948 157.89287
13710000000 -13.247092 101.64913 -200 45 -48.41922 22.958609 -13.071168 149.17029
13720000000 -13.382916 105.59791 -200 45 -48.62249 -47.615597 -14.935572 148.59225
13730000000 -13.107855 108.39687 -200 45 -47.716808 -117.26125 -16.300041 158.35266
13740000000 -12.651382 109.45242 -200 45 -47.283726 164.85045 -15.856103 172.14201
13750000000 -12.213754 109.03561 -200 45 -48.863415 89.579323 -13.991349 177.87134
13760000000 -11.887239 108.09122 -200 45 -50.363338 19.982302 -12.260991 173.08681
13770000000 -11.563229 106.29771 -200 45 -51.110512 -42.94965 -11.61287 162.8399
13780000000 -11.242341 103.7516 -200 45 -51.617447 -108.90204 -12.19654 153.7043
13790000000 -11.068419 99.238297 -200 45 -53.224518 -173.69928 -13.461112 152.58339
13800000000 -11.267611 94.262177 -200 45 -53.051464 130.38472 -13.480759 158.79953
13810000000 -11.943147 90.454163 -200 45 -53.242584 65.663231 -12.411198 157.09634
13820000000 -12.865252 90.202263 -200 45 -53.707085 4.6638885 -12.221424 147.2532
13830000000 -13.483246 94.390213 -200 45 -52.700039 -54.464516 -13.634452 138.14374
13840000000 -13.351376 99.141739 -200 45 -51.859924 -124.29359 -16.087523 141.16325
13850000000 -12.930106 100.86883 -200 45 -52.161442 168.33949 -16.782001 157.90105
13860000000 -12.633611 101.13058 -200 45 -52.453381 104.78745 -15.387536 166.93098
13870000000 -12.224551 102.08366 -200 45 -51.476189 41.269588 -14.109483 167.61096
13880000000 -11.616158 101.69948 -200 45 -50.57391 -28.076651 -13.17503 164.70778
13890000000 -10.866753 97.922737 -200 45 -50.524242 -100.92142 -12.650162 159.15143
13900000000 -10.652726 90.961533 -200 45 -50.87846 -166.38638 -12.815156 153.2971
13910000000 -11.003819 84.320602 -200 45 -50.909756 124.10521 -13.358474 151.41826
13920000000 -11.962204 80.313515 -200 45 -50.581291 56.805489 -13.394294 152.87666
13930000000 -12.978972 81.687408 -200 45 -51.113617 -13.794202 -12.895395 150.02948
13940000000 -13.413642 86.514297 -200 45 -51.583675 -77.734909 -13.051974 142.20064
13950000000 -13.38631 89.456612 -200 45 -50.77438 -148.91432 -14.50063 135.91296
13960000000 -13.372566 92.439171 -200 45 -52.252056 140.10147 -16.585052 141.36685
13970000000 -13.055521 97.098022 -200 45 -52.627861 73.672874 -16.571144 156.35684
13980000000 -12.040676 99.812981 -200 45 -54.330959 11.473617 -15.276009 160.24254
13990000000 -10.883554 96.933868 -200 45 -54.419559 -50.66013 -14.700766 159.14606
14000000000 -10.297378 90.066681 -200 45 -54.557125 -108.10825 -14.379091 160.02544
14010000000 -10.374026 82.599937 -200 45 -54.518234 -170.33882 -13.499524 160.03954
14020000000 -11.000374 77.793564 -200 45 -53.576405 127.62936 -12.647693 154.49797
14030000000 -11.670932 75.734367 -200 45 -53.523758 62.965977 -12.625372 146.45717
14040000000 -12.389152 75.855484 -200 45 -53.266994 -1.2319362 -13.286357 141.59096
14050000000 -12.952148 77.011673 -200 45 -51.869247 -60.070866 -13.809344 140.39949
14060000000 -13.617934 81.502296 -200 45 -50.890812 -133.94064 -14.155059 138.45679
14070000000 -13.458775 89.474503 -200 45 -50.720871 159.99126 -14.909746 136.4201
14080000000 -12.414741 94.099541 -200 45 -49.589508 91.010132 -15.914152 139.53563
14090000000 -11.175378 92.797646 -200 45 -49.350056 16.09284 -16.036083 146.41605
14100000000 -10.393356 87.647568 -200 45 -49.601128 -55.762989 -15.579356 148.89055
14110000000 -10.105591 81.38311 -200 45 -49.260139 -126.72794 -15.631171 150.92123
14120000000 -10.235268 75.561562 -200 45 -50.162132 161.76811 -15.058901 157.20352
14130000000 -10.550366 70.715553 -200 45 -50.91267 95.806541 -13.431593 157.80034
14140000000 -11.195148 66.956017 -200 45 -50.570343 28.219955 -12.124764 149.23981
14150000000 -12.044908 65.496269 -200 45 -50.990433 -40.016525 -12.077511 136.38332
14160000000 -12.996655 67.632996 -200 45 -52.055695 -113.25476 -13.451721 127.0657
14170000000 -13.281996 74.040619 -200 45 -52.294266 -178.02826 -15.213539 128.66475
14180000000 -12.894806 79.166267 -200 45 -53.284084 109.22913 -15.540007 135.94449
14190000000 -12.057835 81.670364 -200 45 -55.680023 53.247875 -15.092608 135.94528
14200000000 -11.176851 80.268585 -200 45 -56.021915 -5.5782108 -15.517821 132.5692
14210000000 -10.486672 76.219696 -200 45 -55.869915 -59.391575 -16.542404 134.61404
14220000000 -10.130589 70.473763 -200 45 -54.548168 -116.7114 -16.981873 141.53857
14230000000 -10.178313 63.77393 -200 45 -54.455288 175.31715 -16.74452 149.88066
14240000000 -10.732862 58.500114 -200 45 -52.89394 114.59782 -15.375699 156.48979
14250000000 -11.467927 56.494736 -200 45 -52.48196 45.16151 -13.453566 154.08099
14260000000 -12.088681 56.452171 -200 45 -51.867775 -20.044195 -12.282746 143.23526
14270000000 -12.467913 56.889244 -200 45 -50.507534 -88.839943 -12.425032 129.45164
14280000000 -13.09382 58.569405 -200 45 -49.80764 -163.86891 -14.082265 118.87764
14290000000 -13.26123 64.23333 -200 45 -49.625786 123.3011 -16.474899 122.1643
14300000000 -12.56727 69.779793 -200 45 -50.00375 48.224144 -16.490036 134.93369
14310000000 -11.385136 69.082474 -200 45 -51.069088 -27.198311 -15.287892 133.97606
14320000000 -10.690217 63.321381 -200 45 -52.663792 -84.713104 -15.527547 125.62968
14330000000 -10.647273 57.112103 -200 45 -51.593685 -154.62196 -17.288097 122.98675
14340000000 -11.097617 52.810268 -200 45 -52.497318 134.74353 -18.783138 134.45042
14350000000 -11.333064 52.12051 -200 45 -52.939018 63.566521 -18.052593 148.73502
14360000000 -11.34877 49.545986 -200 45 -54.825386 -2.9722621 -16.175751 154.21428
14370000000 -11.629918 45.724216 -200 45 -55.273457 -63.909985 -14.302968 150.63406
14380000000 -12.544762 42.667503 -200 45 -55.641743 -119.9964 -13.067524 140.15318
14390000000 -13.667922 46.354198 -200 45 -56.090919 172.6185 -13.055695 125.77518
14400000000 -13.620035 55.601425 -200 45 -56.838821 121.46318 -14.562626 113.4048
14410000000 -12.545086 58.719528 -200 45 -54.001556 56.905827 -17.27762 113.01755
14420000000 -11.656672 55.712589 -200 45 -53.998535 -22.351336 -18.064861 128.64825
14430000000 -11.488825 51.377972 -200 45 -55.692101 -81.22966 -16.548347 130.85698
14440000000 -11.547603 49.388577 -200 45 -54.157757 -139.90057 -16.456224 121.54099
14450000000 -11.319635 48.6077 -200 45 -53.280495 149.22839 -18.319822 115.90107
14460000000 -10.919954 44.938072 -200 45 -53.062649 74.2939 -20.66641 128.21956
14470000000 -10.882296 38.961788 -200 45 -53.708092 7.0150352 -19.66362 148.90849
14480000000 -11.512303 33.224995 -200 45 -54.6213 -65.47654 -17.187454 153.78334
14490000000 -12.546097 31.831766 -200 45 -57.269554 -126.73041 -15.167577 148.8414
14500000000 -13.291447 35.681217 -200 45 -57.193176 -173.23878 -13.858305 137.56163
14510000000 -13.212027 40.287193 -200 45 -55.993004 122.62179 -13.622204 122.1442
14520000000 -12.877729 42.180355 -200 45 -54.990028 56.532894 -14.953296 106.25734
14530000000 -12.464227 42.425644 -200 45 -54.268646 0.022847947 -18.192135 99.32103
14540000000 -12.076948 42.075806 -200 45 -52.031487 -66.359344 -20.751499 119.32195
14550000000 -11.574033 40.609177 -200 45 -52.019413 -144.70436 -18.477665 130.55788
14560000000 -11.177679 37.258198 -200 45 -52.017254 155.46693 -17.4571 119.12849
14570000000 -10.893192 32.740166 -200 45 -50.508709 82.5383 -19.203257 106.70548
14580000000 -10.93458 26.903976 -200 45 -50.090042 11.547662 -23.251387 114.3941
14590000000 -11.368903 21.31049 -200 45 -49.535336 -65.503044 -22.702419 151.09879
14600000000 -12.319822 17.257074 -200 45 -50.080261 -143.3069 -18.529661 157.38234
14610000000 -13.478303 18.155388 -200 45 -51.820545 144.13354 -15.922942 146.9442
14620000000 -14.226767 23.889154 -200 45 -52.623867 77.362869 -14.641455 131.52809
14630000000 -13.965317 30.526814 -200 45 -53.921684 12.135658 -14.601799 113.36401
14640000000 -13.351948 32.432407 -200 45 -55.08757 -52.869778 -16.102968 94.6632
14650000000 -12.756112 32.291176 -200 45 -54.71278 -116.10531 -20.087914 82.709038
14660000000 -12.361808 31.275349 -200 45 -55.015823 167.77817 -24.476738 111.74298
14670000000 -11.737965 29.466125 -200 45 -61.681038 92.32357 -20.422176 129.81367
14680000000 -11.193304 24.660315 -200 45 -61.523483 72.945587 -18.514114 112.05878
14690000000 -11.035542 16.75843 -200 45 -58.510132 33.095436 -20.355042 88.027145
14700000000 -11.71573 8.4254341 -200 45 -55.105461 -38.705181 -28.640442 76.952454
14710000000 -13.044724 4.127986 -200 45 -54.368721 -106.02386 -26.5924 -179.73784
14720000000 -14.574117 6.1842651 -200 45 -53.227062 -175.70213 -19.047199 165.88008
14730000000 -15.13039 14.606981 -200 45 -52.653877 111.11316 -16.366245 143.0654
14740000000 -14.902946 19.740299 -200 45 -52.102596 45.498627 -15.759629 121.28873
14750000000 -14.517339 22.56217 -200 45 -51.618668 -28.022909 -16.415474 100.60773
14760000000 -14.173615 25.50029 -200 45 -51.196938 -100.55639 -18.640875 80.715736
14770000000 -13.173038 27.115753 -200 45 -52.089123 -170.66913 -23.741385 70.198463
14780000000 -12.124827 22.899511 -200 45 -51.941555 124.43259 -27.973043 115.66565
14790000000 -11.576144 15.148643 -200 45 -52.137768 52.991386 -22.151094 125.38612
14800000000 -11.790157 5.8739791 -200 45 -52.85907 -8.534111 -20.460344 99.792595
14810000000 -12.721767 -0.85614461 -200 45 -52.43774 -76.503006 -23.018881 64.756729
14820000000 -14.038549 -3.8459651 -200 45 -52.640945 -143.31032 -34.717331 -10.699587
14830000000 -15.309211 -1.7772702 -200 45 -52.501575 152.79712 -24.1565 -154.8007
14840000000 -16.253588 4.3131843 -200 45 -51.745491 91.632019 -18.558321 165.62407
14850000000 -16.364353 12.474948 -200 45 -50.753155 18.498684 -16.869802 132.99001
14860000000 -15.74484 19.812159 -200 45 -50.762745 -54.337345 -17.268137 105.00114
14870000000 -14.651366 21.878286 -200 45 -50.909615 -127.47895 -19.225004 81.76519
14880000000 -13.567652 20.785889 -200 45 -52.353138 161.72568 -22.54734 65.094513
14890000000 -12.659315 15.440153 -200 45 -52.808163 96.898743 -27.645662 59.898193
14900000000 -12.255223 7.7719846 -200 45 -53.33353 32.596966 -31.796566 96.151283
14910000000 -12.3688 -0.60544562 -200 45 -54.043385 -35.341824 -27.370071 108.81055
14920000000 -13.091141 -8.7621059 -200 45 -54.83952 -100.11516 -25.933706 80.334137
14930000000 -14.441867 -13.639964 -200 45 -55.920364 -161.08626 -28.969641 26.962433
14940000000 -16.105185 -12.308244 -200 45 -57.619415 149.0455 -29.55097 -83.500824
14950000000 -17.001585 -4.3743124 -200 45 -54.399231 109.5574 -23.009531 -153.10724
14960000000 -16.861925 3.3926334 -200 45 -52.064651 31.062038 -19.857565 162.94745
14970000000 -16.318508 6.5591044 -200 45 -51.529598 -36.643719 -19.244661 125.50131
14980000000 -15.748449 8.8680992 -200 45 -50.677155 -106.96449 -20.638281 92.669189
14990000000 -14.998516 8.6773262 -200 45 -50.543343 -177.69028 -23.77079 66.420067
15000000000 -14.048743 5.7255926 -200 45 -50.007973 115.84247 -27.828442 51.217976
15010000000 -13.406137 -2.1395123 -200 45 -49.282162 48.348408 -31.025776 38.893723
15020000000 -13.556972 -12.192595 -200 45 -48.327045 -21.069971 -34.373734 12.858107
15030000000 -14.588889 -20.613796 -200 45 -47.647675 -97.678238 -38.389282 -29.401754
15040000000 -16.301783 -23.26129 -200 45 -48.012413 -175.53117 -37.86198 -57.437027
15050000000 -17.501341 -17.962687 -200 45 -49.57383 114.70862 -31.325008 -76.235985
15060000000 -17.68125 -12.822287 -200 45 -50.02227 45.521545 -25.655018 -108.34937
15070000000 -17.581945 -12.105693 -200 45 -50.819492 -16.892975 -22.427891 -144.75853
15080000000 -18.078146 -11.013567 -200 45 -50.714371 -85.3759 -21.262424 177.58818
15090000000 -18.149343 -4.2465043 -200 45 -51.649418 -154.96436 -22.057873 138.69879
15100000000 -17.042509 0.29561836 -200 45 -52.374599 139.65724 -24.923607 97.693382
15110000000 -15.66439 -3.9658778 -200 45 -53.685177 76.722931 -29.835522 52.56263
15120000000 -15.164282 -13.331664 -200 45 -53.700413 16.975368 -34.531063 -0.42606807
15130000000 -15.617292 -23.058548 -200 45 -53.08897 -40.706249 -33.703957 -38.819229
15140000000 -16.747658 -28.270554 -200 45 -51.560215 -111.14017 -29.505306 -62.43605
15150000000 -17.680004 -27.351273 -200 45 -52.150166 177.0656 -26.743813 -87.285637
15160000000 -17.8636 -26.445503 -200 45 -52.438129 114.73634 -26.104694 -103.45663
15170000000 -17.911098 -29.159754 -200 45 -52.018929 45.007351 -25.174267 -105.03083
15180000000 -18.689365 -34.22448 -200 45 -52.937126 -16.679646 -22.290491 -111.90761
15190000000 -20.346455 -32.74305 -200 45 -52.298904 -74.490662 -20.059111 -133.89966
15200000000 -20.955784 -20.64422 -200 45 -51.16666 -147.06708 -19.774981 -163.56815
15210000000 -19.321959 -13.243286 -200 45 -52.060566 144.26643 -21.837757 162.36143
15220000000 -17.960754 -18.557117 -200 45 -52.280621 81.323685 -27.681316 117.74174
15230000000 -17.48889 -27.075956 -200 45 -51.703934 21.543772 -34.452026 -3.2971478
15240000000 -17.907665 -34.459152 -200 45 -50.047352 -43.588821 -27.348864 -72.435577
15250000000 -18.407629 -38.259212 -200 45 -49.086731 -117.88154 -25.539312 -95.428246
15260000000 -18.591919 -41.313316 -200 45 -49.034458 167.00449 -24.916054 -98.146935
15270000000 -18.662035 -47.547733 -200 45 -49.479969 97.249611 -22.920683 -98.198982
15280000000 -19.435671 -57.099812 -200 45 -49.260063 31.958193 -21.190292 -106.09868
15290000000 -21.392307 -65.317017 -200 45 -48.699291 -42.283871 -20.194529 -113.85351
15300000000 -24.675043 -63.895596 -200 45 -49.008045 -111.66322 -19.0786 -121.80579
15310000000 -26.600965 -39.827385 -200 45 -48.675293 175.00948 -18.20545 -135.83025
15320000000 -24.259024 -20.473 -200 45 -48.667625 97.97821 -18.702919 -154.9857
15330000000 -21.493395 -21.518841 -200 45 -50.151611 18.960432 -21.643549 -174.55014
15340000000 -20.089346 -31.728664 -200 45 -53.295689 -50.579613 -29.596895 -170.04198
15350000000 -19.861418 -42.123119 -200 45 -56.171669 -108.60175 -26.847429 -98.668678
15360000000 -20.007164 -49.989017 -200 45 -57.308441 -153.17882 -21.74934 -106.25787
