!Keysight Technologies,P9374A,MY57211810,A.19.30.04
!Date: Friday, May 02, 2025 09:02:40
!Correction: S11(Off) 
!S21(Off) 
!S12(Off) 
!S22(Off) 
!S2P File: Measurements: S11, S21, S12, S22:
# Hz S  dB   R 50
13000000000 -12.082767 115.0061 -200 45 -42.70166 -133.07904 -12.955218 -175.03401
13010000000 -12.347316 109.62151 -200 45 -43.266048 161.26196 -18.437878 -176.24232
13020000000 -13.345434 102.91504 -200 45 -43.165646 97.870689 -19.624592 -118.54903
13030000000 -15.12217 102.40008 -200 45 -42.710331 31.014244 -13.584599 -113.59354
13040000000 -16.56419 112.24645 -200 45 -43.006062 -36.774315 -11.066975 -129.80188
13050000000 -16.044363 125.90456 -200 45 -43.177139 -103.03996 -10.758617 -147.26059
13060000000 -14.334619 130.05702 -200 45 -42.994328 -165.84222 -12.255047 -160.66223
13070000000 -13.277189 125.88405 -200 45 -42.968468 127.20833 -15.248817 -159.73544
13080000000 -12.98249 121.97908 -200 45 -42.323967 59.88464 -15.696673 -136.8871
13090000000 -12.734602 120.21423 -200 45 -42.658447 -11.58211 -12.742776 -132.04216
13100000000 -12.207292 117.44845 -200 45 -43.023788 -77.929832 -11.018682 -144.0139
13110000000 -11.781164 111.54896 -200 45 -43.515118 -141.69859 -11.098607 -160.8553
13120000000 -11.914044 103.63987 -200 45 -43.303749 154.57111 -13.325562 -176.4487
13130000000 -12.834158 96.055023 -200 45 -42.74041 88.419739 -18.724607 -173.74986
13140000000 -14.657761 93.734543 -200 45 -42.681675 17.514313 -18.529964 -120.20712
13150000000 -16.161345 102.49065 -200 45 -42.910667 -51.117607 -13.038093 -118.17171
13160000000 -15.794757 113.74429 -200 45 -43.63261 -118.64884 -10.618482 -133.88364
13170000000 -14.895039 116.66125 -200 45 -44.053078 -179.78949 -10.278012 -151.60963
13180000000 -14.39946 117.44217 -200 45 -44.229511 116.23146 -11.781644 -166.1114
13190000000 -13.979349 118.33846 -200 45 -43.574268 51.675259 -14.931653 -166.00551
13200000000 -13.221994 119.64937 -200 45 -43.353394 -14.14245 -15.339659 -143.04149
13210000000 -12.160696 116.58823 -200 45 -43.446953 -83.815697 -12.425879 -139.67944
13220000000 -11.534531 108.80611 -200 45 -43.524406 -151.42929 -10.847611 -152.20532
13230000000 -11.746579 99.473289 -200 45 -43.809361 145.8306 -11.036079 -168.9351
13240000000 -12.865526 92.110512 -200 45 -43.543041 80.76651 -13.395771 175.23558
13250000000 -14.707112 91.660385 -200 45 -43.214756 13.849496 -19.284502 179.24922
13260000000 -15.877262 101.68092 -200 45 -42.981533 -53.415016 -18.293112 -124.47696
13270000000 -15.461285 109.90858 -200 45 -43.36697 -120.12331 -12.834298 -126.483
13280000000 -15.081713 113.47595 -200 45 -43.338696 174.59966 -10.697041 -143.31248
13290000000 -14.720476 117.45428 -200 45 -42.969135 109.7019 -10.615698 -160.35489
13300000000 -14.024965 122.13383 -200 45 -42.555202 41.93906 -12.176105 -172.07848
13310000000 -12.599465 123.46918 -200 45 -42.649437 -28.002748 -14.577633 -168.89131
13320000000 -11.326986 117.53775 -200 45 -42.724258 -94.904198 -14.22143 -152.68703
13330000000 -10.945625 107.93801 -200 45 -42.639778 -162.10925 -11.826639 -153.90387
13340000000 -11.512515 98.77317 -200 45 -42.775665 130.67055 -10.81664 -167.95091
13350000000 -12.816269 94.80291 -200 45 -42.805279 65.462196 -11.649256 175.76306
13360000000 -14.224628 97.397491 -200 45 -42.860291 -3.8151276 -14.699873 165.14236
13370000000 -14.625908 104.7895 -200 45 -42.931515 -69.186356 -19.189781 -175.62599
13380000000 -14.517869 108.75269 -200 45 -42.993359 -136.34866 -16.225746 -141.87628
13390000000 -14.489977 111.68636 -200 45 -43.353756 154.85478 -12.420358 -146.69652
13400000000 -14.382549 117.88274 -200 45 -43.633259 89.50985 -10.891342 -161.73058
13410000000 -13.239799 122.63693 -200 45 -43.67926 28.506227 -11.223255 -176.43605
13420000000 -11.895055 121.01073 -200 45 -43.280731 -36.86628 -13.038157 176.39413
13430000000 -10.978507 113.40261 -200 45 -43.062119 -106.98134 -14.568662 -174.68636
13440000000 -11.040037 104.33453 -200 45 -43.260406 -175.48094 -13.262117 -165.14574
13450000000 -11.875116 97.382492 -200 45 -43.448875 121.56346 -11.520514 -170.74437
13460000000 -13.120114 96.198555 -200 45 -43.296158 55.990921 -10.988544 176.4207
13470000000 -13.882463 99.970901 -200 45 -42.687607 -13.142946 -11.947778 162.53986
13480000000 -14.098809 102.71291 -200 45 -43.296837 -79.375412 -14.809187 154.64063
13490000000 -14.401615 104.01933 -200 45 -43.284801 -146.8044 -18.445597 173.57275
13500000000 -15.016362 108.27666 -200 45 -43.196899 146.69717 -15.989008 -159.46225
13510000000 -14.763633 117.06063 -200 45 -43.157291 80.164108 -12.954024 -161.86113
13520000000 -13.454341 121.59978 -200 45 -43.292027 11.736933 -11.6408 -172.40144
13530000000 -12.14663 118.61369 -200 45 -43.594643 -54.096226 -11.646611 176.29958
13540000000 -11.554237 111.0427 -200 45 -43.461933 -120.46259 -12.838 169.20839
13550000000 -11.96043 104.10353 -200 45 -43.602665 172.88438 -14.104076 173.14027
13560000000 -12.682825 101.63859 -200 45 -43.994617 105.72443 -13.527575 -179.93338
13570000000 -13.198214 103.09825 -200 45 -44.401871 39.599472 -12.325767 177.46495
13580000000 -13.202755 104.12495 -200 45 -44.461514 -21.279104 -11.922804 168.59764
13590000000 -13.372887 103.0289 -200 45 -43.939991 -86.2201 -12.615814 158.93065
13600000000 -14.040535 102.41495 -200 45 -43.672401 -152.37155 -14.619425 153.78043
13610000000 -14.737917 108.9468 -200 45 -43.588905 140.44518 -17.134207 165.54907
13620000000 -14.193896 117.31149 -200 45 -43.093597 72.871674 -16.12258 -173.17233
13630000000 -12.804682 119.83353 -200 45 -43.400337 3.4144347 -13.554411 -171.00482
13640000000 -11.799937 115.23342 -200 45 -43.903503 -64.824524 -12.080834 -179.19058
13650000000 -11.674649 109.51315 -200 45 -44.056366 -128.01454 -11.841115 170.90204
13660000000 -11.946198 106.82154 -200 45 -44.010555 166.92873 -12.470823 163.79074
13670000000 -12.089741 106.44638 -200 45 -43.300678 100.84759 -13.380634 162.86969
13680000000 -11.943428 105.50327 -200 45 -43.532925 30.144539 -13.51448 167.04233
13690000000 -11.87294 102.8627 -200 45 -43.928383 -36.793152 -12.66008 167.27025
13700000000 -12.214888 98.912994 -200 45 -44.091675 -102.09122 -12.103868 159.98834
13710000000 -13.151608 98.258911 -200 45 -44.264774 -167.2281 -12.757602 150.47955
13720000000 -13.857663 103.89776 -200 45 -44.292568 126.93142 -14.618948 146.33742
13730000000 -13.396349 110.34306 -200 45 -44.311581 61.180328 -16.711044 156.55862
13740000000 -12.513729 112.17772 -200 45 -44.073307 -3.9435327 -16.039766 175.43448
13750000000 -11.871065 108.9144 -200 45 -44.075798 -70.20668 -13.617377 178.74948
13760000000 -11.782424 106.38073 -200 45 -43.85783 -138.27769 -12.112746 171.01521
13770000000 -11.751501 104.89621 -200 45 -44.003284 153.07277 -11.87183 161.53784
13780000000 -11.477877 103.90418 -200 45 -44.452744 87.837433 -12.478306 155.39058
13790000000 -11.191943 100.7637 -200 45 -44.565517 23.315809 -13.180299 154.68268
13800000000 -11.083091 95.764931 -200 45 -44.454681 -42.980217 -13.187631 156.56833
13810000000 -11.658907 89.672188 -200 45 -44.443417 -109.77912 -12.678449 155.30891
13820000000 -12.899172 88.017097 -200 45 -44.288502 -175.85248 -12.529834 148.5479
13830000000 -13.803554 93.933655 -200 45 -44.00658 117.95057 -13.473258 140.61288
13840000000 -13.514661 100.96329 -200 45 -44.178684 49.459164 -15.581691 140.02867
13850000000 -12.791783 102.27905 -200 45 -44.345917 -18.778885 -17.076677 154.89267
13860000000 -12.357637 101.16145 -200 45 -44.649311 -85.014565 -15.747822 169.20789
13870000000 -12.160191 100.51129 -200 45 -45.355095 -152.1347 -13.881349 169.63396
13880000000 -11.770511 100.61133 -200 45 -45.387272 144.37338 -12.885051 163.56209
13890000000 -11.120549 98.359238 -200 45 -45.327793 81.106323 -12.790971 157.09889
13900000000 -10.661315 92.678864 -200 45 -45.245113 14.615801 -13.160923 153.95859
13910000000 -10.79261 85.353737 -200 45 -45.44455 -50.070282 -13.278764 153.67838
13920000000 -11.701001 79.339424 -200 45 -45.212471 -114.55817 -13.041724 152.25504
13930000000 -13.023915 79.616997 -200 45 -44.763126 178.72755 -12.90741 147.74248
13940000000 -13.808456 85.83345 -200 45 -44.583252 110.33504 -13.373549 142.01245
13950000000 -13.567487 91.958069 -200 45 -45.110703 44.567219 -14.562668 138.78676
13960000000 -13.069174 94.577156 -200 45 -45.161652 -23.305098 -16.051718 142.43462
13970000000 -12.605478 95.571236 -200 45 -44.751484 -88.598701 -16.619009 153.03868
13980000000 -12.139773 96.618927 -200 45 -45.10519 -156.65881 -15.807055 160.80058
13990000000 -11.338481 96.764763 -200 45 -45.282387 135.53093 -14.740984 162.07628
14000000000 -10.470504 92.474632 -200 45 -45.677261 72.889069 -13.968788 159.74529
14010000000 -10.104598 84.859917 -200 45 -45.570553 8.5835609 -13.49574 156.93178
14020000000 -10.578258 76.669434 -200 45 -45.367996 -58.323879 -12.994745 154.18364
14030000000 -11.643693 72.75486 -200 45 -45.585415 -126.68422 -12.64907 148.7054
14040000000 -12.8705 74.128784 -200 45 -45.413555 169.63573 -12.931721 142.58319
14050000000 -13.327775 80.344116 -200 45 -45.489521 106.56806 -13.635374 138.74422
14060000000 -13.216426 84.62616 -200 45 -45.115032 37.951214 -14.461344 137.13138
14070000000 -12.91367 87.23307 -200 45 -44.960381 -29.738411 -15.265538 138.51862
14080000000 -12.596993 90.510468 -200 45 -45.243225 -95.539307 -15.581157 141.95728
14090000000 -11.671232 92.732491 -200 45 -45.409111 -161.2005 -15.717568 143.45212
14100000000 -10.557261 90.28569 -200 45 -45.334267 131.09946 -16.091623 146.58694
14110000000 -9.8358936 83.155357 -200 45 -45.408382 64.22319 -15.85423 153.9053
14120000000 -9.8576946 74.586655 -200 45 -45.130184 0.96784145 -14.634267 158.11829
14130000000 -10.580095 68.058372 -200 45 -45.539482 -67.662796 -13.249653 155.51694
14140000000 -11.603742 65.865623 -200 45 -45.615589 -135.85432 -12.374771 147.90021
14150000000 -12.349801 67.71022 -200 45 -45.688488 162.69069 -12.311934 137.98218
14160000000 -12.677373 70.440308 -200 45 -45.766205 97.070679 -13.270663 129.45267
14170000000 -12.902011 72.419624 -200 45 -45.246147 32.900436 -14.849689 127.51876
14180000000 -12.995176 76.425812 -200 45 -45.049572 -36.120407 -15.76871 132.93953
14190000000 -12.52037 81.807526 -200 45 -44.878143 -105.11732 -15.57274 137.16685
14200000000 -11.236711 82.589035 -200 45 -45.314548 -172.39232 -15.327599 135.94109
14210000000 -10.254105 77.390495 -200 45 -45.945648 120.37767 -15.957903 133.15575
14220000000 -9.9062176 69.419624 -200 45 -45.745354 58.761581 -17.292271 137.69093
14230000000 -10.249738 62.5214 -200 45 -45.193459 -8.3099661 -17.208971 152.11794
14240000000 -10.931626 58.174141 -200 45 -45.205856 -79.124352 -15.084276 158.91397
14250000000 -11.624909 57.753464 -200 45 -46.049778 -145.5553 -13.12577 152.96753
14260000000 -11.871768 57.559467 -200 45 -46.276497 152.21803 -12.363203 141.0497
14270000000 -12.358858 56.070347 -200 45 -46.174206 87.796219 -12.829891 129.45876
14280000000 -13.115585 57.62302 -200 45 -45.871834 20.725292 -14.156077 122.16891
14290000000 -13.401355 64.684631 -200 45 -46.162693 -45.917728 -15.848783 122.56383
14300000000 -12.533533 69.9618 -200 45 -46.337997 -108.16844 -16.618868 130.55661
14310000000 -11.354885 69.17511 -200 45 -45.783489 -172.67604 -15.890165 134.44966
14320000000 -10.689658 62.999588 -200 45 -45.381302 118.60458 -15.471696 129.14984
14330000000 -10.715695 57.379288 -200 45 -45.165974 49.102741 -16.623114 123.2523
14340000000 -10.969514 53.350784 -200 45 -45.526146 -18.365248 -18.841766 129.69691
14350000000 -11.261848 51.014748 -200 45 -45.750469 -83.5541 -18.652237 150.11629
14360000000 -11.500277 49.039127 -200 45 -45.43063 -151.69577 -16.022923 156.96535
14370000000 -11.75997 46.152748 -200 45 -45.921612 141.78798 -13.940265 150.47374
14380000000 -12.524529 44.189766 -200 45 -46.243446 77.371254 -13.001988 138.09955
14390000000 -13.343396 46.670078 -200 45 -46.562912 10.624564 -13.356624 124.54848
14400000000 -13.545868 53.213387 -200 45 -46.309986 -54.739285 -14.912577 115.5071
14410000000 -12.86702 57.637173 -200 45 -46.298782 -118.32569 -16.811218 116.1891
14420000000 -11.916965 57.596447 -200 45 -46.22588 174.21088 -17.614361 124.12284
14430000000 -11.28251 53.43885 -200 45 -46.423676 108.5213 -17.18734 128.76302
14440000000 -11.167566 48.797047 -200 45 -46.589783 47.710831 -16.798328 125.55074
14450000000 -11.303564 45.792236 -200 45 -45.735107 -19.63084 -17.754509 119.10548
14460000000 -11.256721 44.246704 -200 45 -45.822746 -88.297638 -20.190664 123.28627
14470000000 -11.127672 40.453793 -200 45 -46.048702 -154.17172 -20.563915 147.37714
14480000000 -11.354715 35.759842 -200 45 -45.768002 143.66571 -17.341906 157.73291
14490000000 -12.084209 31.363422 -200 45 -45.337105 77.249619 -14.722081 149.73616
14500000000 -13.243481 32.178162 -200 45 -45.151737 6.5453229 -13.618829 135.16035
14510000000 -13.75885 39.38673 -200 45 -45.044647 -60.003757 -13.872062 120.04866
14520000000 -13.024826 44.73196 -200 45 -45.577442 -128.10905 -15.366214 107.71783
14530000000 -12.21383 44.089874 -200 45 -45.827633 167.27428 -17.988884 103.83205
14540000000 -11.778116 41.125404 -200 45 -45.717663 102.71326 -20.023291 116.65937
14550000000 -11.59984 38.506805 -200 45 -45.639694 36.527901 -18.966665 126.99755
14560000000 -11.494121 36.733231 -200 45 -45.50713 -28.413637 -18.074373 121.2298
14570000000 -11.049948 34.213257 -200 45 -45.044357 -96.07811 -19.05278 111.64215
14580000000 -10.831224 28.408298 -200 45 -45.246166 -164.4106 -22.096403 112.13161
14590000000 -11.128653 21.214567 -200 45 -45.585571 130.25256 -23.645037 144.97777
14600000000 -12.214684 15.693089 -200 45 -45.547192 66.167763 -18.995232 161.3168
14610000000 -13.757267 16.507048 -200 45 -45.137592 -0.31411651 -15.514524 149.66214
14620000000 -14.468601 25.93231 -200 45 -44.908298 -69.285538 -14.173656 130.33078
14630000000 -13.755512 31.969418 -200 45 -45.760223 -136.81381 -14.63764 110.37681
14640000000 -13.118914 31.904308 -200 45 -45.774403 158.13486 -16.724615 93.770462
14650000000 -12.790055 31.353317 -200 45 -45.738506 96.086899 -20.454494 88.194969
14660000000 -12.465497 30.746233 -200 45 -44.944504 27.819647 -23.257751 110.56252
14670000000 -11.877372 30.184902 -200 45 -45.674934 -42.015907 -20.700409 124.08757
14680000000 -11.161661 25.156223 -200 45 -46.113976 -109.61499 -19.146772 111.57529
14690000000 -10.968725 17.081251 -200 45 -46.485435 -169.62474 -20.651255 93.045021
14700000000 -11.603459 8.1549835 -200 45 -46.56271 128.3947 -27.017422 86.742409
14710000000 -13.038557 3.4398251 -200 45 -45.909565 61.037228 -27.893238 173.19661
14720000000 -14.63288 5.9672127 -200 45 -45.862522 -6.709321 -19.652639 169.4935
14730000000 -15.306331 14.722744 -200 45 -45.907856 -71.091255 -16.295135 147.04234
14740000000 -14.8462 21.006067 -200 45 -46.010582 -136.22614 -15.263551 121.98618
14750000000 -14.359868 22.743929 -200 45 -45.220726 154.12411 -16.066069 97.163284
14760000000 -14.050559 24.302887 -200 45 -45.284798 86.39695 -18.987514 75.886887
14770000000 -13.31418 25.984901 -200 45 -45.7696 18.780098 -25.033033 74.027733
14780000000 -12.305817 23.422417 -200 45 -45.88306 -50.824699 -25.80588 120.99031
14790000000 -11.595043 16.630697 -200 45 -45.761684 -113.93685 -21.674459 117.93868
14800000000 -11.541037 6.7379217 -200 45 -45.901855 177.76387 -21.265095 95.473976
14810000000 -12.501469 -2.4718091 -200 45 -46.121922 106.84818 -24.572124 68.074333
14820000000 -14.1995 -5.9517384 -200 45 -46.751965 39.031998 -40.341557 16.831278
14830000000 -15.725657 -1.1265556 -200 45 -47.190701 -23.976595 -25.688572 -159.75706
14840000000 -16.145016 7.3087173 -200 45 -48.163681 -85.463577 -19.420046 167.87593
14850000000 -15.895836 12.370408 -200 45 -47.87841 -147.24571 -17.024708 136.9897
14860000000 -15.704072 16.127714 -200 45 -46.476875 147.6617 -16.756578 107.50838
14870000000 -15.131036 21.412615 -200 45 -46.762192 80.572235 -18.424652 80.345634
14880000000 -13.730543 22.724754 -200 45 -46.936749 15.608408 -22.436646 58.242535
14890000000 -12.492126 17.19562 -200 45 -46.019039 -50.780533 -30.283501 58.753117
14900000000 -11.889255 7.5329714 -200 45 -45.726715 -118.50322 -30.0937 114.93674
14910000000 -12.274829 -3.0023515 -200 45 -45.773117 173.64445 -25.905005 101.52058
14920000000 -13.351838 -10.490619 -200 45 -45.984024 104.34443 -26.109154 66.916107
14930000000 -14.951343 -12.644534 -200 45 -46.086121 38.90086 -30.637039 9.9718704
14940000000 -16.015917 -7.9658322 -200 45 -46.340153 -23.891788 -30.560131 -102.99264
14950000000 -16.262777 -4.2389302 -200 45 -46.038616 -90.471962 -24.215313 -161.21178
14960000000 -16.681807 -2.0912974 -200 45 -45.391983 -159.0202 -20.946976 163.20343
14970000000 -17.086456 4.5142303 -200 45 -45.328259 132.64549 -19.644497 131.00327
14980000000 -16.220482 12.415146 -200 45 -45.833817 63.279156 -20.170599 98.828545
14990000000 -14.677414 12.658051 -200 45 -46.673927 -3.0573671 -22.571331 67.522972
15000000000 -13.404803 5.497283 -200 45 -46.766254 -64.364189 -26.855429 40.200211
15010000000 -13.180149 -5.7908006 -200 45 -46.476181 -124.18386 -33.045742 20.121172
15020000000 -13.998813 -15.467874 -200 45 -46.283405 167.81346 -39.455936 22.959879
15030000000 -15.303438 -18.913649 -200 45 -45.82621 101.86457 -38.676167 18.698566
15040000000 -16.282295 -17.772665 -200 45 -45.524239 36.014904 -34.23111 -30.383404
15050000000 -16.651928 -16.292072 -200 45 -45.580891 -30.889206 -28.940578 -78.305771
15060000000 -17.027485 -17.772726 -200 45 -45.629677 -99.477768 -24.984818 -116.98106
15070000000 -18.188343 -18.40556 -200 45 -45.624504 -167.45125 -22.675146 -151.62746
15080000000 -19.264252 -8.0161324 -200 45 -46.028084 128.10419 -22.170452 175.44431
15090000000 -17.962849 3.1823452 -200 45 -45.873058 61.295124 -23.212681 142.93683
15100000000 -16.136522 1.1775768 -200 45 -45.750347 -7.3537564 -25.253323 109.20448
15110000000 -15.217531 -8.0089025 -200 45 -45.938641 -72.832039 -27.861563 67.015755
15120000000 -15.396696 -18.086149 -200 45 -46.094624 -142.28438 -30.042988 7.6559806
15130000000 -16.461205 -24.046335 -200 45 -46.011345 149.98203 -29.990675 -50.974964
15140000000 -17.267818 -22.553486 -200 45 -46.789146 80.336388 -29.653547 -84.664253
15150000000 -17.000635 -21.77512 -200 45 -47.661259 16.218752 -29.267326 -91.57325
15160000000 -16.777933 -28.274147 -200 45 -47.777782 -43.018452 -26.809427 -91.004707
15170000000 -17.717033 -36.849194 -200 45 -46.830643 -109.65678 -23.855907 -100.46709
15180000000 -19.783813 -39.611214 -200 45 -46.612942 -175.15199 -21.562311 -116.75739
15190000000 -21.611631 -25.232307 -200 45 -46.855442 116.53156 -20.257694 -138.67592
15200000000 -19.908836 -11.751818 -200 45 -46.36853 49.133041 -20.51688 -164.95288
15210000000 -18.122028 -16.515703 -200 45 -46.356316 -18.682669 -22.794535 165.65768
15220000000 -17.800037 -25.444738 -200 45 -46.516579 -85.961067 -28.191339 131.63414
15230000000 -18.339542 -31.126705 -200 45 -46.593834 -152.92819 -38.004185 30.995884
15240000000 -18.725418 -31.365232 -200 45 -46.910347 139.53163 -28.405298 -58.593037
15250000000 -18.449289 -32.04985 -200 45 -47.322727 77.97007 -24.508118 -87.556175
15260000000 -17.560787 -38.932919 -200 45 -46.987228 14.801859 -23.547436 -102.64305
15270000000 -17.882805 -51.736008 -200 45 -46.49688 -53.231777 -23.370676 -105.7936
15280000000 -19.385096 -64.286919 -200 45 -46.391327 -121.5951 -22.189091 -103.92064
15290000000 -22.502245 -71.453125 -200 45 -47.223042 170.43826 -20.085543 -107.92753
15300000000 -26.359436 -55.141705 -200 45 -47.848167 105.0853 -18.345844 -121.28826
15310000000 -25.135389 -27.349407 -200 45 -48.064735 46.510044 -17.924919 -140.19005
15320000000 -22.487747 -26.148972 -200 45 -48.067608 -19.503586 -19.271626 -158.98285
15330000000 -21.625202 -33.270607 -200 45 -47.961357 -83.132874 -22.676573 -170.12378
15340000000 -21.644533 -36.767708 -200 45 -47.809708 -148.22504 -27.848251 -156.62047
15350000000 -21.146563 -35.648125 -200 45 -47.772396 145.99834 -27.113575 -111.48356
15360000000 -19.667042 -40.431858 -200 45 -47.198982 79.371483 -22.878513 -105.58706
