!Keysight Technologies,P9374A,MY57211810,A.19.30.04
!Date: Friday, May 02, 2025 08:58:00
!Correction: S11(Off) 
!S21(Off) 
!S12(Off) 
!S22(Off) 
!S2P File: Measurements: S11, S21, S12, S22:
# Hz S  dB   R 50
13000000000 -11.847287 111.61103 -200 45 -25.753214 2.7352493 -13.153292 -175.57462
13010000000 -12.895896 106.4141 -200 45 -25.641256 -64.960045 -18.55566 -173.32632
13020000000 -13.971313 104.49797 -200 45 -25.78286 -132.7823 -19.543104 -121.21337
13030000000 -15.085991 108.86876 -200 45 -25.956644 160.97658 -13.628618 -113.31179
13040000000 -15.636199 112.98199 -200 45 -26.110703 95.694725 -10.966883 -129.48677
13050000000 -15.591949 120.11555 -200 45 -25.907114 29.716446 -10.752032 -147.87732
13060000000 -15.064283 126.44457 -200 45 -25.891596 -36.631466 -12.359995 -160.67844
13070000000 -13.997633 128.17125 -200 45 -25.761395 -104.41312 -15.262496 -159.35876
13080000000 -12.868546 127.494 -200 45 -25.869358 -171.20573 -15.73315 -137.34457
13090000000 -12.052649 121.10998 -200 45 -26.087671 121.16743 -12.726214 -131.21753
13100000000 -11.729612 114.37213 -200 45 -26.29948 55.932636 -10.905244 -144.47733
13110000000 -12.06595 107.57789 -200 45 -26.332689 -9.2781382 -11.128448 -161.90106
13120000000 -12.446516 102.75711 -200 45 -26.204157 -74.976257 -13.512526 -176.19359
13130000000 -13.42204 100.08651 -200 45 -26.059683 -142.64996 -18.597431 -172.19823
13140000000 -14.169967 98.957771 -200 45 -26.28261 150.49092 -18.520048 -121.04654
13150000000 -15.042533 100.93646 -200 45 -26.318562 86.159569 -13.020809 -117.77204
13160000000 -15.966535 106.3749 -200 45 -26.301105 19.454754 -10.577834 -133.83192
13170000000 -15.791449 115.58723 -200 45 -26.211266 -46.057175 -10.271805 -152.28789
13180000000 -14.906978 122.27006 -200 45 -26.184874 -113.0384 -11.876682 -166.23381
13190000000 -13.536883 122.69691 -200 45 -26.245214 -179.62685 -14.954924 -165.49638
13200000000 -12.415448 119.06565 -200 45 -26.3207 114.48231 -15.218528 -143.15619
13210000000 -12.021457 111.72195 -200 45 -26.292261 48.449272 -12.429354 -139.45952
13220000000 -11.966254 105.93328 -200 45 -26.291462 -17.459223 -10.871411 -152.23991
13230000000 -12.450457 100.53831 -200 45 -26.317116 -83.278946 -10.990512 -169.03976
13240000000 -13.062909 96.979805 -200 45 -26.249418 -148.37216 -13.466315 174.47729
13250000000 -13.961226 96.385605 -200 45 -25.86079 145.84402 -19.486876 179.72469
13260000000 -14.897832 96.654823 -200 45 -25.788929 77.132561 -17.952541 -124.67771
13270000000 -15.960276 102.30966 -200 45 -25.817497 10.041766 -12.892789 -126.90257
13280000000 -16.224209 115.45826 -200 45 -26.064175 -56.524952 -10.695357 -143.06757
13290000000 -14.885715 123.99986 -200 45 -25.928953 -121.95086 -10.53232 -160.24773
13300000000 -13.153714 125.30104 -200 45 -25.828362 172.81343 -12.254805 -173.11774
13310000000 -11.899167 119.70159 -200 45 -25.573147 104.23857 -14.733756 -167.84459
13320000000 -11.511651 112.58988 -200 45 -25.850761 36.663799 -14.037253 -152.46324
13330000000 -11.738009 106.33742 -200 45 -25.960562 -30.173037 -11.879954 -155.08479
13340000000 -12.011698 102.83195 -200 45 -26.106997 -94.888123 -10.886245 -167.49925
13350000000 -12.532101 100.10945 -200 45 -26.005535 -160.33495 -11.62136 175.94955
13360000000 -13.211893 97.298019 -200 45 -25.761217 134.47534 -14.532237 164.68484
13370000000 -14.255959 98.444031 -200 45 -25.459284 66.160843 -19.480572 -174.99387
13380000000 -15.467797 103.89927 -200 45 -25.606174 -2.4120913 -16.1383 -140.76433
13390000000 -15.307222 117.10941 -200 45 -25.748686 -68.97023 -12.23076 -147.00967
13400000000 -13.946888 123.86998 -200 45 -25.879362 -135.47473 -10.972075 -162.09712
13410000000 -12.376583 121.68586 -200 45 -25.830015 158.85349 -11.334339 -176.69577
13420000000 -11.63645 116.8208 -200 45 -25.886398 92.22715 -12.923285 177.35976
13430000000 -11.431193 109.80116 -200 45 -25.764828 25.333015 -14.683345 -175.84059
13440000000 -11.662277 105.47817 -200 45 -26.01613 -42.298878 -13.269286 -164.85318
13450000000 -12.139413 101.89513 -200 45 -25.967136 -107.42346 -11.3634 -170.51321
13460000000 -12.476115 99.441383 -200 45 -26.096256 -174.39989 -11.044479 175.46057
13470000000 -13.196754 97.620102 -200 45 -26.173641 119.29034 -12.017233 162.87306
13480000000 -14.175315 96.451324 -200 45 -26.28863 54.368412 -14.785219 156.20879
13490000000 -15.34566 103.1518 -200 45 -26.023638 -12.436442 -18.544746 170.9496
13500000000 -15.474408 113.83861 -200 45 -26.261189 -78.67054 -16.005112 -157.84961
13510000000 -14.007571 120.98595 -200 45 -26.053478 -145.86415 -12.815672 -161.26561
13520000000 -12.861049 119.15451 -200 45 -26.23752 147.96431 -11.623712 -173.9655
13530000000 -12.129248 113.90234 -200 45 -26.423908 80.834358 -11.768976 176.27248
13540000000 -12.223353 109.69456 -200 45 -26.513811 17.345846 -12.868091 169.71487
13550000000 -12.411624 107.07335 -200 45 -26.237015 -49.691349 -13.975032 172.61269
13560000000 -12.424731 105.66319 -200 45 -26.407347 -115.54292 -13.518828 -179.37741
13570000000 -12.589563 103.03542 -200 45 -26.282017 178.04552 -12.307693 177.32663
13580000000 -12.910333 100.51958 -200 45 -26.224337 111.97163 -11.896185 168.53957
13590000000 -13.878021 99.782852 -200 45 -26.419687 44.641319 -12.701187 159.23734
13600000000 -14.637045 104.24636 -200 45 -26.431101 -19.348715 -14.652553 153.85057
13610000000 -14.604826 113.62104 -200 45 -26.109404 -86.00161 -17.194912 165.51114
13620000000 -13.617423 117.76202 -200 45 -26.115349 -154.38838 -16.192429 -173.17776
13630000000 -12.488029 116.89036 -200 45 -26.417551 138.9453 -13.545746 -170.69199
13640000000 -12.177498 112.42978 -200 45 -26.515547 74.683975 -11.974514 -179.4691
13650000000 -12.060578 110.19156 -200 45 -26.468311 8.6955338 -11.864971 170.11882
13660000000 -12.035867 110.11684 -200 45 -26.3456 -56.76244 -12.555853 164.16006
13670000000 -11.723914 107.55367 -200 45 -26.17532 -124.09409 -13.270849 163.85506
13680000000 -11.57828 104.30335 -200 45 -26.34808 168.8929 -13.468331 166.38019
13690000000 -11.975824 99.964516 -200 45 -26.46364 103.4735 -12.756533 167.48819
13700000000 -12.580775 98.26757 -200 45 -26.378946 38.732796 -12.120569 160.45558
13710000000 -13.466305 101.16468 -200 45 -26.184978 -27.680588 -12.697852 150.26956
13720000000 -13.448676 105.68456 -200 45 -26.091217 -94.287659 -14.755825 146.2227
13730000000 -13.047464 109.63261 -200 45 -25.901871 -162.06145 -16.701605 156.72842
13740000000 -12.607544 109.38256 -200 45 -26.074602 130.58331 -16.025906 175.34344
13750000000 -12.166785 108.44279 -200 45 -26.166409 64.023117 -13.624933 179.13628
13760000000 -12.023574 108.14043 -200 45 -26.363388 -1.8935492 -12.013149 170.70535
13770000000 -11.543873 106.78825 -200 45 -26.259756 -67.87323 -11.936172 161.35637
13780000000 -11.154872 103.76811 -200 45 -26.26808 -134.02747 -12.509754 155.45937
13790000000 -11.102795 98.309738 -200 45 -26.267756 158.77321 -13.079993 155.11682
13800000000 -11.339327 94.64164 -200 45 -26.384844 93.102394 -13.230446 156.1216
13810000000 -12.068086 90.717278 -200 45 -26.373463 26.574024 -12.716083 155.60628
13820000000 -12.727262 91.269897 -200 45 -26.466906 -39.056824 -12.453879 148.85165
13830000000 -13.331702 94.07843 -200 45 -26.416967 -104.83762 -13.491713 139.94066
13840000000 -13.398058 97.245125 -200 45 -26.304527 -171.5076 -15.722505 140.18901
13850000000 -13.174908 101.4491 -200 45 -26.352179 121.39985 -17.0695 155.82774
13860000000 -12.718 102.78625 -200 45 -26.510651 54.770668 -15.601224 168.54083
13870000000 -12.001487 103.08849 -200 45 -26.554813 -10.495246 -13.944484 169.36021
13880000000 -11.374723 101.28334 -200 45 -26.562386 -76.820091 -12.902724 164.01822
13890000000 -10.851925 95.591576 -200 45 -26.608196 -143.21912 -12.659114 156.9583
13900000000 -10.972846 90.519814 -200 45 -26.807648 150.56219 -13.25541 153.65681
13910000000 -11.261166 85.649734 -200 45 -26.77585 86.416512 -13.245565 154.15579
13920000000 -11.783874 83.182053 -200 45 -26.629248 20.277655 -12.974963 152.40205
13930000000 -12.567979 81.246361 -200 45 -26.494549 -46.166641 -13.009921 147.64848
13940000000 -13.204906 83.472221 -200 45 -26.583977 -113.21346 -13.330029 142.16104
13950000000 -13.929549 87.590599 -200 45 -26.56218 -179.23932 -14.590108 138.23438
13960000000 -13.712564 95.198013 -200 45 -26.630804 114.08514 -16.310862 141.89232
13970000000 -12.72285 99.816956 -200 45 -26.596151 48.140671 -16.346315 153.95178
13980000000 -11.639943 98.991066 -200 45 -26.659637 -18.183691 -15.664328 159.9279
13990000000 -10.819463 94.710495 -200 45 -26.671267 -84.349373 -14.857357 161.31845
14000000000 -10.554647 88.699966 -200 45 -26.880159 -151.08362 -13.880654 161.27205
14010000000 -10.66126 83.452164 -200 45 -26.976738 144.51833 -13.427819 157.22264
14020000000 -10.982047 79.803383 -200 45 -26.837925 78.853134 -13.020616 153.48318
14030000000 -11.435472 76.585449 -200 45 -26.865374 13.326015 -12.762464 149.09177
14040000000 -12.126648 74.32534 -200 45 -26.669765 -51.66246 -12.96797 142.6953
14050000000 -13.063675 75.743782 -200 45 -26.411833 -118.14526 -13.501812 138.15358
14060000000 -13.827899 80.914612 -200 45 -26.450481 173.29907 -14.56116 136.56937
14070000000 -13.595803 90.839745 -200 45 -26.50058 107.52618 -15.309844 138.65955
14080000000 -12.358387 95.256363 -200 45 -26.443476 41.452282 -15.436946 142.83664
14090000000 -10.946465 92.812004 -200 45 -26.509903 -25.007885 -15.692852 142.69238
14100000000 -10.304449 86.653534 -200 45 -26.400845 -90.696442 -16.139088 147.00772
14110000000 -10.164065 79.992584 -200 45 -26.314713 -157.81621 -15.665098 154.57677
14120000000 -10.485752 75.352531 -200 45 -26.381027 134.66887 -14.79794 157.27536
14130000000 -10.733054 71.736069 -200 45 -26.62171 68.963715 -13.230338 156.59738
14140000000 -11.068734 69.165474 -200 45 -26.497494 3.564271 -12.266531 147.88808
14150000000 -11.722086 65.028099 -200 45 -26.478777 -62.52998 -12.387175 136.41293
14160000000 -12.7954 65.258385 -200 45 -26.423105 -128.95163 -13.410394 130.50424
14170000000 -13.825302 72.50576 -200 45 -26.347082 164.56432 -14.638905 127.71336
14180000000 -13.166817 81.133224 -200 45 -26.340759 97.387383 -15.787022 131.28725
14190000000 -11.887612 84.656197 -200 45 -26.354746 31.00922 -15.665931 138.72159
14200000000 -10.783265 79.571404 -200 45 -26.484222 -36.326801 -15.204392 136.36293
14210000000 -10.354981 74.346207 -200 45 -26.555285 -101.43314 -15.964317 131.80815
14220000000 -10.423153 68.421448 -200 45 -26.65402 -167.80559 -17.432281 139.30623
14230000000 -10.538898 65.234772 -200 45 -26.473728 126.64235 -17.086279 151.85649
14240000000 -10.728589 61.497036 -200 45 -26.537056 58.989742 -15.127296 158.56078
14250000000 -10.998409 57.204403 -200 45 -26.621859 -6.4872403 -13.159829 153.22427
14260000000 -11.770896 53.690323 -200 45 -26.69058 -72.574066 -12.317741 141.07236
14270000000 -12.904496 53.794201 -200 45 -26.724178 -138.21327 -12.755739 128.9043
14280000000 -13.536612 60.995659 -200 45 -26.603931 156.29475 -14.281277 121.9829
14290000000 -13.061711 68.033752 -200 45 -26.621174 87.99633 -15.77942 122.95749
14300000000 -12.040336 68.71077 -200 45 -26.80587 23.311972 -16.579123 130.67252
14310000000 -11.295751 66.280792 -200 45 -26.681471 -42.672108 -15.905807 133.88011
14320000000 -11.094701 62.037579 -200 45 -26.567488 -109.06025 -15.604862 130.2852
14330000000 -10.923257 58.893948 -200 45 -26.675341 -176.23224 -16.492634 123.07848
14340000000 -10.932466 55.615433 -200 45 -26.676044 117.41634 -18.884029 129.13721
14350000000 -10.902442 51.197601 -200 45 -26.991741 50.757435 -18.809839 150.82907
14360000000 -11.29966 47.393867 -200 45 -27.04937 -13.546536 -15.857116 157.17729
14370000000 -12.031287 44.250175 -200 45 -27.01712 -78.641541 -13.952559 149.75824
14380000000 -12.710011 45.116562 -200 45 -26.789322 -144.61464 -13.097182 138.08678
14390000000 -13.468545 48.619225 -200 45 -26.774115 148.62979 -13.277299 124.89121
14400000000 -13.231301 53.973301 -200 45 -26.864841 81.854225 -14.879223 115.36066
14410000000 -12.643347 56.931835 -200 45 -26.914593 17.65991 -16.856682 115.37199
14420000000 -11.998604 55.3922 -200 45 -26.589243 -49.313423 -17.663036 124.90143
14430000000 -11.533943 53.537354 -200 45 -26.70746 -116.10892 -17.242472 128.86482
14440000000 -11.342985 50.217304 -200 45 -26.73514 177.50668 -16.706495 125.70261
14450000000 -11.115905 47.613586 -200 45 -26.793201 112.08625 -17.668591 118.25439
14460000000 -10.97078 43.826862 -200 45 -26.695263 45.8405 -20.445683 123.08218
14470000000 -11.047647 38.389828 -200 45 -26.59465 -20.612724 -20.277058 148.47253
14480000000 -11.645163 34.558964 -200 45 -26.685354 -87.205513 -17.192007 157.39169
14490000000 -12.398027 32.61652 -200 45 -26.664131 -152.918 -14.826465 149.11096
14500000000 -13.111334 35.347694 -200 45 -26.780443 140.5692 -13.647826 135.94707
14510000000 -13.286892 39.187801 -200 45 -26.66938 75.423523 -13.821706 120.44391
14520000000 -12.903954 41.636826 -200 45 -26.578148 9.6124506 -15.26892 106.63196
14530000000 -12.632226 42.906254 -200 45 -26.448267 -58.208046 -18.219736 102.95343
14540000000 -12.064939 42.623947 -200 45 -26.468525 -123.911 -20.094845 118.49336
14550000000 -11.51373 41.155136 -200 45 -26.458361 168.12013 -18.642586 126.36233
14560000000 -11.098273 37.058891 -200 45 -26.702576 102.31448 -18.19557 120.04133
14570000000 -10.801579 32.235588 -200 45 -26.742998 36.847851 -19.133709 112.27635
14580000000 -11.03273 26.0986 -200 45 -26.569332 -28.480001 -21.928738 113.32365
14590000000 -11.544835 20.962667 -200 45 -26.543158 -95.660233 -23.889288 145.16087
14600000000 -12.485724 18.929783 -200 45 -26.497883 -162.27301 -18.789717 162.08073
14610000000 -13.231575 19.686575 -200 45 -26.69574 131.22955 -15.482347 149.16304
14620000000 -13.868558 23.367422 -200 45 -26.644138 65.567535 -14.325352 129.70154
14630000000 -14.049392 27.344564 -200 45 -26.679401 -0.52098781 -14.591891 111.26189
14640000000 -13.737503 32.16925 -200 45 -26.617254 -66.895004 -16.533627 92.912117
14650000000 -13.00385 35.486389 -200 45 -26.546066 -133.07289 -20.684528 86.067421
14660000000 -11.979459 33.421955 -200 45 -26.628004 159.11635 -23.07464 116.41463
14670000000 -11.344511 28.21306 -200 45 -26.863226 93.618019 -20.382448 122.58927
14680000000 -11.236835 21.378115 -200 45 -26.898163 27.944365 -19.399555 109.81792
14690000000 -11.451535 15.9491 -200 45 -26.95262 -36.99839 -21.087044 96.073555
14700000000 -12.044912 10.556593 -200 45 -26.759579 -102.63699 -26.471411 85.972351
14710000000 -12.871256 7.4772267 -200 45 -26.689209 -169.47238 -28.555492 171.77293
14720000000 -13.9432 6.8064785 -200 45 -26.704544 123.84184 -19.543032 170.55592
14730000000 -14.89142 9.8626776 -200 45 -26.682772 57.485886 -16.092567 146.68477
14740000000 -15.523701 17.536999 -200 45 -26.771893 -8.2031956 -15.134462 120.99504
14750000000 -15.087175 25.346144 -200 45 -26.676403 -75.109657 -16.211632 97.069382
14760000000 -13.84705 29.487099 -200 45 -26.863682 -141.67464 -19.130129 76.447113
14770000000 -12.620787 26.883205 -200 45 -26.899406 153.35753 -25.083218 76.913368
14780000000 -11.859394 19.671547 -200 45 -26.764935 86.885803 -26.092279 118.28448
14790000000 -11.889874 12.433019 -200 45 -26.894127 20.363737 -21.925339 118.44279
14800000000 -12.32972 6.3966718 -200 45 -26.922762 -44.605091 -21.19305 96.504616
14810000000 -12.897552 2.870162 -200 45 -26.791986 -110.63706 -24.190176 66.663422
14820000000 -13.58108 -0.84093934 -200 45 -26.724474 -177.93411 -40.638866 14.262423
14830000000 -14.560477 -3.5564344 -200 45 -26.920599 116.04262 -25.420271 -160.87318
14840000000 -16.271526 -1.7255697 -200 45 -26.841948 50.651909 -19.384684 166.7262
14850000000 -17.395203 10.790845 -200 45 -26.818516 -15.752027 -16.97146 137.98749
14860000000 -16.067844 25.428549 -200 45 -26.80879 -82.425041 -16.665535 107.14121
14870000000 -14.155298 25.671919 -200 45 -26.99221 -148.21217 -18.503483 79.717163
14880000000 -12.849924 19.056524 -200 45 -26.824387 146.64874 -22.614502 55.611362
14890000000 -12.585109 11.30807 -200 45 -26.88146 79.384094 -30.235329 61.978611
14900000000 -12.68173 4.7446842 -200 45 -26.919531 14.601847 -29.668646 110.36875
14910000000 -13.036492 0.93032569 -200 45 -26.839712 -51.308178 -26.12306 100.06525
14920000000 -13.253408 -3.8673792 -200 45 -26.717297 -117.44644 -26.107599 70.23085
14930000000 -13.747059 -9.9516373 -200 45 -26.645645 176.03667 -30.689926 14.226433
14940000000 -15.136779 -15.526112 -200 45 -26.576807 109.73833 -30.344545 -99.105141
14950000000 -17.114714 -13.40189 -200 45 -26.521931 42.193104 -23.529787 -160.7093
14960000000 -18.501867 3.0844526 -200 45 -26.743969 -24.310673 -20.933031 160.5791
14970000000 -16.695169 15.596408 -200 45 -26.664114 -89.584114 -20.000902 131.0822
14980000000 -14.709465 13.804842 -200 45 -26.650375 -155.93469 -20.054541 100.15861
14990000000 -13.965708 4.6411839 -200 45 -26.563866 137.63887 -22.156927 66.254097
15000000000 -14.137578 -1.6650951 -200 45 -26.600983 71.266769 -26.684811 35.083004
15010000000 -14.544635 -4.5892973 -200 45 -26.503651 3.6270504 -35.493614 25.693584
15020000000 -14.369774 -6.572773 -200 45 -26.867849 -63.12064 -36.405834 35.952084
15030000000 -14.181505 -12.621703 -200 45 -26.942497 -128.13374 -38.844391 4.0339994
15040000000 -14.837991 -22.528944 -200 45 -26.873503 167.00618 -34.832218 -37.080421
15050000000 -16.765429 -27.858681 -200 45 -26.730783 100.0456 -29.277136 -76.791077
15060000000 -19.166735 -21.073509 -200 45 -26.749229 34.172012 -24.597364 -115.83553
15070000000 -18.955498 -5.0547566 -200 45 -26.674868 -32.818954 -22.762539 -153.71669
15080000000 -17.60568 0.25569385 -200 45 -26.725718 -99.5849 -22.569555 174.47942
15090000000 -16.565704 -4.3280902 -200 45 -26.878559 -165.78415 -23.12842 145.8929
15100000000 -16.525496 -8.2903996 -200 45 -26.926096 128.66988 -24.509577 107.9573
15110000000 -16.598066 -10.017019 -200 45 -26.834166 63.005505 -27.843218 63.140289
15120000000 -16.260649 -11.03477 -200 45 -26.788818 -3.9450848 -30.274305 0.057287119
15130000000 -15.904155 -14.876929 -200 45 -26.836512 -69.905754 -31.206678 -53.455788
15140000000 -15.672095 -22.798229 -200 45 -26.847044 -136.59766 -29.847841 -78.176384
15150000000 -16.365007 -31.524424 -200 45 -26.876657 157.51022 -28.336283 -88.76461
15160000000 -17.97893 -37.385178 -200 45 -26.978897 91.100655 -26.918205 -97.211632
15170000000 -19.599741 -31.737703 -200 45 -26.959 26.031063 -24.195555 -98.19545
15180000000 -19.682697 -24.008577 -200 45 -26.867035 -40.868248 -21.477839 -115.44819
15190000000 -19.025234 -23.600922 -200 45 -26.935469 -107.07633 -20.109892 -139.87354
15200000000 -19.166229 -26.126568 -200 45 -26.904295 -172.9836 -20.653427 -165.95702
15210000000 -19.773865 -25.015602 -200 45 -26.820118 120.71278 -22.867071 165.60016
15220000000 -19.401707 -18.97471 -200 45 -26.87569 53.290638 -28.084215 132.67261
15230000000 -18.178236 -19.594742 -200 45 -27.021721 -12.616499 -37.447006 26.341587
15240000000 -17.158176 -28.118553 -200 45 -27.022154 -78.722427 -28.451906 -59.233116
15250000000 -17.343212 -38.820461 -200 45 -27.163477 -144.8688 -24.256636 -86.162575
15260000000 -18.021952 -48.441933 -200 45 -27.229004 149.7395 -23.530943 -103.21794
15270000000 -19.386814 -53.724388 -200 45 -27.060688 84.33696 -23.485146 -107.40021
15280000000 -20.68853 -55.991459 -200 45 -27.046371 17.363556 -22.269211 -102.61349
15290000000 -21.685877 -55.749092 -200 45 -27.149954 -49.323196 -20.003513 -108.43755
15300000000 -23.277468 -56.942802 -200 45 -27.159641 -114.60429 -18.350231 -121.66927
15310000000 -24.890989 -50.28833 -200 45 -27.162575 179.43721 -17.948395 -139.89354
15320000000 -25.542454 -29.470678 -200 45 -27.103556 113.54221 -19.196241 -159.55238
15330000000 -23.140678 -19.9104 -200 45 -27.051353 46.716003 -22.789782 -170.47096
15340000000 -20.294701 -22.650812 -200 45 -27.023952 -20.2237 -28.254045 -157.30939
15350000000 -19.132282 -37.362278 -200 45 -27.270178 -87.086136 -26.747152 -111.59474
15360000000 -18.588648 -51.647022 -200 45 -27.404219 -151.68945 -22.951258 -107.05979
