!Keysight Technologies,P9374A,MY57211810,A.19.30.04
!Date: Friday, May 02, 2025 09:01:20
!Correction: S11(Off) 
!S21(Off) 
!S12(Off) 
!S22(Off) 
!S2P File: Measurements: S11, S21, S12, S22:
# Hz S  dB   R 50
13000000000 -11.76671 113.07934 -200 45 -23.489929 13.330218 -12.961446 -176.40892
13010000000 -12.525233 106.67308 -200 45 -23.298269 -53.392704 -18.83223 -175.19331
13020000000 -13.872661 102.8659 -200 45 -23.278387 -120.71633 -19.130234 -119.70785
13030000000 -15.325807 106.08237 -200 45 -23.341339 172.30592 -13.73811 -115.19542
13040000000 -16.03895 114.67323 -200 45 -23.387436 105.94702 -11.188943 -128.83591
13050000000 -15.550193 123.31582 -200 45 -23.523224 39.536537 -10.652014 -146.35448
13060000000 -14.561199 126.25956 -200 45 -23.452421 -25.767466 -12.130302 -161.39368
13070000000 -13.85338 126.11255 -200 45 -23.330133 -92.338394 -15.452271 -160.68214
13080000000 -13.130021 125.54158 -200 45 -23.29372 -159.95357 -15.692616 -135.69196
13090000000 -12.313175 122.14771 -200 45 -23.376663 133.28688 -12.652543 -132.38728
13100000000 -11.827549 115.6403 -200 45 -23.484089 65.700386 -11.051449 -144.65746
13110000000 -11.886906 109.11726 -200 45 -23.745108 -0.29267666 -11.153021 -160.69444
13120000000 -12.209293 103.17866 -200 45 -23.783052 -64.7117 -13.296535 -175.78845
13130000000 -13.10314 97.301384 -200 45 -23.642349 -130.58562 -18.548662 -174.1201
13140000000 -14.556128 96.544586 -200 45 -23.586454 162.03058 -18.661964 -119.8406
13150000000 -15.717418 102.24929 -200 45 -23.746864 95.166382 -12.975443 -117.7823
13160000000 -15.766472 111.41065 -200 45 -23.884855 29.757 -10.610684 -134.08876
13170000000 -15.076596 115.61082 -200 45 -23.821493 -35.036816 -10.312897 -151.65501
13180000000 -14.701874 117.34592 -200 45 -23.632633 -100.96292 -11.785188 -166.06645
13190000000 -14.107449 121.06541 -200 45 -23.432365 -168.27026 -14.861404 -165.80243
13200000000 -12.858392 120.95887 -200 45 -23.542446 124.13321 -15.295764 -143.60657
13210000000 -11.868233 114.9994 -200 45 -23.759407 57.320103 -12.530993 -139.43562
13220000000 -11.612643 106.46879 -200 45 -23.931208 -7.3481975 -10.825973 -151.50653
13230000000 -12.104973 98.58786 -200 45 -23.8034 -71.848907 -10.947193 -169.18332
13240000000 -13.22447 94.341438 -200 45 -23.516476 -137.76411 -13.433791 174.18138
13250000000 -14.39813 95.715797 -200 45 -23.301632 155.16296 -19.57382 -179.34541
13260000000 -15.140084 99.33271 -200 45 -23.234203 87.037231 -17.924801 -125.77789
13270000000 -15.788545 105.65685 -200 45 -23.392288 19.999201 -12.99125 -127.56448
13280000000 -15.58524 114.34052 -200 45 -23.463984 -46.280788 -10.808069 -142.24403
13290000000 -14.819158 120.00282 -200 45 -23.478325 -111.7321 -10.467186 -159.38779
13300000000 -13.718866 123.6562 -200 45 -23.343468 -177.62671 -12.02303 -173.5833
13310000000 -12.302405 122.55108 -200 45 -23.152685 115.43714 -15.025064 -169.25423
13320000000 -11.309515 115.48042 -200 45 -23.121679 47.135387 -13.997814 -150.73535
13330000000 -11.197856 106.79343 -200 45 -23.379192 -19.724506 -11.693204 -155.56801
13340000000 -11.815834 99.941322 -200 45 -23.516748 -85.288528 -11.029335 -168.63882
13350000000 -12.827467 97.125053 -200 45 -23.415583 -150.16336 -11.733914 177.43703
13360000000 -13.718274 98.719719 -200 45 -23.28797 143.6613 -14.296472 165.7971
13370000000 -14.364241 101.46165 -200 45 -23.030001 76.668106 -19.441652 -179.27837
13380000000 -14.941463 106.19639 -200 45 -23.067045 8.6050863 -16.280506 -139.13663
13390000000 -14.927795 114.15028 -200 45 -23.160011 -58.599255 -12.150596 -146.52672
13400000000 -14.158933 120.50701 -200 45 -23.234238 -124.55443 -10.918514 -162.98175
13410000000 -12.87491 122.70284 -200 45 -23.197691 168.72205 -11.433775 -176.09985
13420000000 -11.724847 118.91891 -200 45 -23.245815 102.15553 -12.905036 177.73184
13430000000 -11.203337 111.67703 -200 45 -23.275452 35.286018 -14.438148 -176.72948
13440000000 -11.361038 104.80191 -200 45 -23.297129 -31.308191 -13.5252 -164.76904
13450000000 -11.958957 99.624611 -200 45 -23.441063 -97.993805 -11.377711 -169.64137
13460000000 -12.854029 97.813942 -200 45 -23.519613 -163.98203 -10.843523 175.38635
13470000000 -13.499772 98.948524 -200 45 -23.565899 130.67232 -12.184164 161.83888
13480000000 -14.115461 99.302773 -200 45 -23.476763 64.452965 -14.879433 157.45401
13490000000 -14.984082 103.47968 -200 45 -23.407982 -2.0240393 -17.853197 171.68042
13500000000 -15.179722 111.81718 -200 45 -23.368525 -69.572899 -16.565336 -159.96234
13510000000 -14.339253 118.93202 -200 45 -23.576159 -136.20677 -12.932566 -159.29845
13520000000 -13.089327 119.98285 -200 45 -23.754965 157.89082 -11.376737 -172.82147
13530000000 -12.19596 115.85643 -200 45 -23.694176 92.916382 -11.687738 174.31641
13540000000 -11.998366 110.09361 -200 45 -23.66646 26.473986 -13.150813 169.4545
13550000000 -12.230447 106.73795 -200 45 -23.644096 -40.186195 -13.885682 175.38539
13560000000 -12.404762 104.17321 -200 45 -23.805079 -106.57504 -13.234442 178.26758
13570000000 -12.738953 102.20898 -200 45 -23.826706 -171.88191 -12.591103 176.36284
13580000000 -13.16936 101.19552 -200 45 -23.773584 122.77044 -12.046521 170.65714
13590000000 -13.758083 101.33768 -200 45 -23.685516 56.57402 -12.367453 159.77931
13600000000 -14.471758 104.91319 -200 45 -23.562422 -9.340847 -14.590997 151.78369
13610000000 -14.41797 111.8533 -200 45 -23.473392 -76.810776 -17.510584 165.62007
13620000000 -13.755698 116.29377 -200 45 -23.543369 -143.92592 -15.98832 -172.2032
13630000000 -12.816864 117.49213 -200 45 -23.704775 149.87654 -13.462697 -171.71851
13640000000 -12.024062 114.32204 -200 45 -23.740227 84.07148 -12.136515 -179.69807
13650000000 -11.894566 110.07821 -200 45 -23.805798 18.744541 -11.882819 171.00262
13660000000 -12.058379 108.52557 -200 45 -23.67267 -46.931782 -12.462951 164.34004
13670000000 -11.838413 107.98204 -200 45 -23.523668 -113.79978 -13.256696 163.03795
13680000000 -11.601908 104.73485 -200 45 -23.581615 179.31871 -13.5376 166.2811
13690000000 -11.806298 99.943192 -200 45 -23.672533 112.85081 -12.78056 167.80684
13700000000 -12.67466 97.201881 -200 45 -23.801872 47.566418 -12.033931 160.81569
13710000000 -13.664762 101.30983 -200 45 -23.596619 -17.197006 -12.664986 149.78702
13720000000 -13.374371 108.12215 -200 45 -23.356583 -84.27581 -14.832117 145.97232
13730000000 -12.75574 108.15578 -200 45 -23.244902 -152.10301 -16.628845 157.83742
13740000000 -12.65232 107.59589 -200 45 -23.329184 140.46109 -16.03701 173.98949
13750000000 -12.479826 108.90202 -200 45 -23.503284 73.14827 -13.719098 179.43228
13760000000 -11.995182 109.39265 -200 45 -23.739145 7.6147408 -11.973785 171.35106
13770000000 -11.408754 107.37665 -200 45 -23.746767 -57.478542 -11.90186 160.47099
13780000000 -11.053749 102.73141 -200 45 -23.592356 -123.1647 -12.615256 156.04198
13790000000 -11.175871 98.108971 -200 45 -23.50419 169.71974 -12.994761 155.4384
13800000000 -11.41771 94.730354 -200 45 -23.502642 102.75861 -13.137005 155.37131
13810000000 -11.934965 90.722122 -200 45 -23.661486 36.053978 -12.908627 155.36639
13820000000 -12.918108 90.523468 -200 45 -23.783537 -29.948135 -12.496487 150.32846
13830000000 -13.389261 95.336845 -200 45 -23.832451 -95.130135 -13.169254 139.82675
13840000000 -13.18808 98.486336 -200 45 -23.708815 -160.9948 -15.912574 137.29449
13850000000 -13.030184 99.727196 -200 45 -23.616522 132.5188 -17.294317 159.21854
13860000000 -12.790912 101.30917 -200 45 -23.627308 65.54007 -15.093698 167.83046
13870000000 -12.340322 103.5159 -200 45 -23.630625 -1.2889016 -14.26777 166.60413
13880000000 -11.375787 102.71764 -200 45 -23.8326 -68.548759 -13.157179 166.51071
13890000000 -10.701924 96.766029 -200 45 -24.06068 -134.12654 -12.305722 158.19702
13900000000 -10.72157 89.714249 -200 45 -24.198385 161.25406 -13.137763 150.47733
13910000000 -11.221565 84.160965 -200 45 -24.054811 95.930534 -13.749648 155.22626
13920000000 -12.084921 81.754562 -200 45 -23.969931 30.539423 -12.714725 154.38777
13930000000 -12.821596 83.176659 -200 45 -23.812445 -36.359856 -12.757794 145.60432
13940000000 -13.108409 85.626022 -200 45 -23.879259 -103.1729 -13.77356 141.67342
13950000000 -13.448175 87.297684 -200 45 -23.955841 -169.09154 -14.505875 140.8221
13960000000 -13.703543 92.475174 -200 45 -23.856691 125.28976 -15.869035 140.56291
13970000000 -13.069561 99.118988 -200 45 -23.817152 58.533218 -16.888077 152.61214
13980000000 -11.795243 100.18652 -200 45 -23.837387 -8.1040783 -15.639821 161.69576
13990000000 -10.760053 96.075943 -200 45 -23.901278 -74.44931 -14.613901 161.06363
14000000000 -10.338063 88.900146 -200 45 -23.979342 -140.69431 -14.052947 159.90146
14010000000 -10.574792 82.550896 -200 45 -24.083912 153.59294 -13.487597 157.96478
14020000000 -11.033538 79.02758 -200 45 -24.092474 88.1035 -12.937524 154.27388
14030000000 -11.509057 76.067986 -200 45 -24.049435 22.868328 -12.689009 148.2773
14040000000 -12.308024 74.851959 -200 45 -23.911203 -42.954895 -13.07219 142.24715
14050000000 -13.082386 76.775627 -200 45 -23.795803 -109.06958 -13.635172 139.56796
14060000000 -13.607769 82.225067 -200 45 -23.709328 -175.84602 -14.239208 136.37048
14070000000 -13.410965 88.980072 -200 45 -23.607479 117.42463 -15.412524 136.9917
14080000000 -12.443215 93.651016 -200 45 -23.656908 50.116718 -15.659187 143.7256
14090000000 -11.274626 92.983986 -200 45 -23.778534 -15.994596 -15.399323 143.68866
14100000000 -10.36797 88.369087 -200 45 -23.765306 -81.485329 -16.152626 145.50357
14110000000 -9.9864187 81.184158 -200 45 -23.69968 -147.60475 -15.951399 155.16451
14120000000 -10.218167 74.543427 -200 45 -23.638969 145.87595 -14.537953 158.3452
14130000000 -10.740512 70.302414 -200 45 -23.667017 78.900131 -13.293137 155.14101
14140000000 -11.297724 67.789764 -200 45 -23.72084 12.700068 -12.411075 148.12924
14150000000 -12.017909 66.428108 -200 45 -23.740191 -53.080235 -12.295359 137.87335
14160000000 -12.713387 68.113045 -200 45 -23.712887 -118.84416 -13.275225 129.19031
14170000000 -13.243984 71.46402 -200 45 -23.603477 174.90376 -14.829315 127.52966
14180000000 -13.276703 78.726418 -200 45 -23.525227 108.20943 -15.73462 133.07126
14190000000 -12.240146 83.81514 -200 45 -23.49992 41.183525 -15.554016 137.25381
14200000000 -10.934222 81.949181 -200 45 -23.588467 -25.517717 -15.35345 135.76584
14210000000 -10.17177 75.501312 -200 45 -23.656298 -91.442513 -16.062008 133.47711
14220000000 -10.141846 67.876198 -200 45 -23.646523 -157.54367 -17.146646 138.80499
14230000000 -10.60788 63.372189 -200 45 -23.596567 136.04762 -17.144512 150.42891
14240000000 -10.942945 61.214958 -200 45 -23.612549 69.309937 -15.339622 159.21321
14250000000 -11.11335 58.499226 -200 45 -23.74354 2.6632957 -13.081399 154.25708
14260000000 -11.650096 54.578884 -200 45 -23.844538 -62.824818 -12.16276 140.7948
14270000000 -12.673507 53.766033 -200 45 -23.801426 -128.34775 -12.83712 127.7719
14280000000 -13.587716 59.211609 -200 45 -23.714706 165.49611 -14.477311 122.58015
14290000000 -13.310407 67.859001 -200 45 -23.693974 98.835381 -15.645694 124.94954
14300000000 -12.062041 70.350349 -200 45 -23.719257 32.216732 -16.214922 128.05106
14310000000 -11.190975 66.366562 -200 45 -23.82402 -34.20126 -16.426994 132.9743
14320000000 -10.973635 61.553474 -200 45 -23.858135 -99.895065 -15.640436 133.36201
14330000000 -10.973969 58.067543 -200 45 -23.856386 -165.64742 -15.896271 123.90078
14340000000 -11.017136 55.234238 -200 45 -23.766001 127.88195 -19.065104 122.1502
14350000000 -11.02148 52.35622 -200 45 -23.830015 60.795425 -19.314383 157.05263
14360000000 -11.15744 47.904316 -200 45 -24.000521 -5.6456838 -15.163035 157.78348
14370000000 -11.86569 43.710346 -200 45 -24.142509 -70.586937 -13.982037 145.55798
14380000000 -12.833828 43.950306 -200 45 -24.089384 -135.95374 -13.667173 139.45242
14390000000 -13.562219 48.306545 -200 45 -24.037067 158.79288 -13.044983 128.45215
14400000000 -13.362015 55.463867 -200 45 -23.890184 92.883369 -14.333085 112.46948
14410000000 -12.442611 57.325581 -200 45 -23.764658 26.04175 -17.594522 113.68803
14420000000 -11.835486 54.785011 -200 45 -23.801628 -40.803719 -17.477276 129.19965
14430000000 -11.649533 52.077602 -200 45 -23.794758 -106.55899 -16.726181 125.86543
14440000000 -11.521721 50.44273 -200 45 -23.801067 -172.61656 -17.381042 124.66609
14450000000 -11.18482 48.728657 -200 45 -23.68894 120.89127 -17.489492 122.61977
14460000000 -10.80125 44.514011 -200 45 -23.631407 54.108044 -19.767115 118.8959
14470000000 -10.900763 37.847233 -200 45 -23.7391 -13.204317 -21.298145 150.42659
14480000000 -11.677744 33.177872 -200 45 -23.95447 -79.013023 -16.727535 159.53151
14490000000 -12.587646 32.609047 -200 45 -24.030783 -143.7522 -14.644769 146.54483
14500000000 -13.181125 35.926254 -200 45 -23.864473 151.49324 -14.091413 135.23534
14510000000 -13.241643 40.046341 -200 45 -23.672228 85.040039 -13.872007 123.15136
14520000000 -12.790016 42.29274 -200 45 -23.484787 18.229908 -14.845122 107.49119
14530000000 -12.444235 41.552189 -200 45 -23.425373 -49.125366 -18.070324 98.739334
14540000000 -12.19028 41.510441 -200 45 -23.511681 -116.23972 -20.858629 119.98466
14550000000 -11.773262 41.172512 -200 45 -23.704872 177.11168 -18.286469 130.07143
14560000000 -11.132431 38.87207 -200 45 -23.73354 111.67397 -17.67551 116.97516
14570000000 -10.655493 33.11573 -200 45 -23.661419 46.229786 -19.831898 109.21024
14580000000 -10.752218 25.266478 -200 45 -23.600916 -20.549158 -22.257998 120.15089
14590000000 -11.593475 19.443745 -200 45 -23.557835 -87.121368 -22.533674 140.52158
14600000000 -12.717541 17.997051 -200 45 -23.640282 -153.70512 -19.703869 159.35519
14610000000 -13.519753 21.313379 -200 45 -23.696844 140.12851 -15.689883 152.55052
14620000000 -13.696612 25.132736 -200 45 -23.74139 74.055565 -13.914964 131.37698
14630000000 -13.692092 27.400547 -200 45 -23.703459 8.4779205 -14.413859 108.91502
14640000000 -13.662461 29.933609 -200 45 -23.632332 -57.613922 -16.867384 91.730698
14650000000 -13.297697 33.682526 -200 45 -23.506981 -124.37357 -20.848654 90.308762
14660000000 -12.299699 34.800327 -200 45 -23.554556 168.17456 -22.675848 112.73495
14670000000 -11.309734 30.452457 -200 45 -23.677525 101.2735 -20.602489 121.04478
14680000000 -10.847118 22.47905 -200 45 -23.897453 35.223595 -19.730923 111.50846
14690000000 -11.178693 13.675686 -200 45 -24.024035 -30.116507 -20.73811 97.680275
14700000000 -12.250994 7.7734222 -200 45 -23.992313 -95.066368 -25.824579 84.405907
14710000000 -13.421594 7.9160333 -200 45 -23.922182 -160.87831 -29.214729 177.71829
14720000000 -14.010534 10.518179 -200 45 -23.888168 132.95006 -19.334101 170.62244
14730000000 -14.368462 11.494417 -200 45 -23.835098 66.939575 -16.150059 145.74442
14740000000 -15.154305 13.784224 -200 45 -23.782249 0.77902043 -15.341645 121.92758
14750000000 -15.489005 23.1525 -200 45 -23.777405 -65.706947 -16.007496 97.836021
14760000000 -14.164399 31.155785 -200 45 -23.75568 -132.34322 -19.040529 75.328011
14770000000 -12.554559 28.448282 -200 45 -23.840332 161.05701 -25.38295 75.6539
14780000000 -11.72254 20.281353 -200 45 -23.975405 95.239868 -25.614521 119.44739
14790000000 -11.748292 12.078537 -200 45 -23.976551 30.085369 -22.035316 117.24879
14800000000 -12.222284 5.6905127 -200 45 -23.924902 -35.358913 -21.283417 96.366722
14810000000 -12.969875 1.3966732 -200 45 -23.755804 -101.406 -24.302938 67.52771
14820000000 -13.80404 -1.4256687 -200 45 -23.71216 -168.33499 -40.664864 18.146908
14830000000 -14.896312 -1.9376432 -200 45 -23.719046 124.97335 -25.83099 -162.51552
14840000000 -16.03805 1.4567827 -200 45 -23.777218 58.861668 -19.613323 168.4924
14850000000 -16.704399 10.351526 -200 45 -23.811409 -6.8846636 -16.899401 139.34358
14860000000 -16.161528 20.286503 -200 45 -23.775103 -72.844536 -16.385075 107.68516
14870000000 -14.743571 24.749357 -200 45 -23.721041 -138.73581 -18.398148 76.079826
14880000000 -13.26953 22.539774 -200 45 -23.601524 154.77658 -23.774359 56.538399
14890000000 -12.232623 14.490318 -200 45 -23.601406 87.998032 -28.687511 75.871086
14900000000 -12.137537 4.5411983 -200 45 -23.626963 21.217337 -29.581041 88.921577
14910000000 -12.821538 -3.0541034 -200 45 -23.709446 -45.029678 -28.598186 107.45703
14920000000 -13.69476 -6.8523808 -200 45 -23.788235 -110.79464 -25.467842 85.403465
14930000000 -14.451555 -8.020051 -200 45 -23.784742 -176.2374 -27.158535 22.883493
14940000000 -15.06689 -10.454978 -200 45 -23.659216 118.00387 -26.866716 -91.882339
14950000000 -16.441103 -11.476213 -200 45 -23.535482 51.72773 -22.02186 -165.57918
14960000000 -17.837337 -2.5419993 -200 45 -23.462616 -15.410119 -21.058107 151.86954
14970000000 -17.382866 11.635776 -200 45 -23.504333 -82.398392 -21.38471 130.842
14980000000 -15.398237 15.878788 -200 45 -23.566902 -148.87463 -20.330601 109.04167
14990000000 -13.952413 9.2263327 -200 45 -23.646206 144.72067 -20.804358 70.855576
15000000000 -13.576833 0.078248739 -200 45 -23.753515 78.511292 -25.169619 25.037411
15010000000 -13.98365 -7.1796098 -200 45 -23.811344 12.842524 -39.097393 -16.157505
15020000000 -14.550182 -10.809532 -200 45 -23.790012 -52.514973 -35.289948 82.582489
15030000000 -14.844226 -13.652535 -200 45 -23.707245 -118.41408 -32.128254 13.864549
15040000000 -15.336765 -18.824078 -200 45 -23.57443 175.05159 -31.352972 -58.856575
15050000000 -16.402863 -22.500896 -200 45 -23.575413 108.07909 -30.652493 -96.685837
15060000000 -17.928305 -22.170408 -200 45 -23.628555 41.559017 -26.604055 -110.25856
15070000000 -19.198267 -13.293938 -200 45 -23.713671 -24.759245 -22.273733 -144.24167
15080000000 -18.630737 -0.46824148 -200 45 -23.73369 -90.355003 -21.365932 173.53233
15090000000 -16.928404 1.6335715 -200 45 -23.634163 -156.2598 -23.35289 136.77997
15100000000 -15.936637 -4.5506182 -200 45 -23.574362 137.10533 -26.189976 111.70859
15110000000 -15.79571 -12.047104 -200 45 -23.543373 70.285172 -27.47016 75.87233
15120000000 -16.360153 -16.441896 -200 45 -23.520351 3.5428638 -28.413685 9.0110388
15130000000 -16.591772 -16.428225 -200 45 -23.58289 -63.492912 -28.594563 -60.224407
15140000000 -16.167347 -19.046274 -200 45 -23.712805 -130.37222 -30.926863 -95.788162
15150000000 -16.137976 -27.23193 -200 45 -23.910933 163.55228 -30.054018 -79.116135
15160000000 -17.11817 -36.077957 -200 45 -24.045673 98.054321 -25.558044 -89.714928
15170000000 -19.100985 -38.752197 -200 45 -24.048214 33.033707 -23.825867 -106.44951
15180000000 -20.704159 -28.851109 -200 45 -23.981598 -32.649956 -22.222391 -116.69165
15190000000 -19.963621 -17.12072 -200 45 -23.835087 -98.618469 -20.356905 -135.9409
15200000000 -18.547609 -19.279728 -200 45 -23.729845 -165.59717 -20.223652 -163.80347
15210000000 -18.550364 -26.820381 -200 45 -23.782745 126.84097 -22.308636 164.9846
15220000000 -19.442667 -27.305927 -200 45 -23.99896 60.017105 -27.86977 125.52255
15230000000 -19.202347 -21.050579 -200 45 -24.181471 -5.3579192 -36.271923 9.1027699
15240000000 -17.697727 -22.974859 -200 45 -24.22526 -70.609657 -28.155788 -66.92572
15250000000 -16.856995 -34.28656 -200 45 -24.192732 -135.90619 -25.300999 -88.511597
15260000000 -17.309391 -48.289883 -200 45 -24.066442 158.25595 -23.77803 -98.315979
15270000000 -18.972115 -58.944546 -200 45 -23.988356 91.639847 -22.759186 -105.3802
15280000000 -21.257895 -60.695419 -200 45 -24.012352 25.096634 -22.226919 -107.50315
15290000000 -22.757963 -54.811932 -200 45 -24.020485 -41.372536 -20.42407 -107.64162
15300000000 -23.266554 -48.787991 -200 45 -24.087324 -107.85787 -18.354473 -119.73216
15310000000 -23.69363 -45.986351 -200 45 -24.179632 -173.5426 -17.746927 -139.20802
15320000000 -24.759504 -39.778225 -200 45 -24.150702 120.79997 -19.006727 -160.31793
15330000000 -24.034687 -23.262739 -200 45 -24.071211 54.92762 -23.029526 -174.10321
15340000000 -21.137918 -21.001589 -200 45 -23.984474 -11.627377 -28.563278 -148.98172
15350000000 -19.159777 -32.328819 -200 45 -23.965368 -78.602211 -25.816929 -115.67792
15360000000 -18.314575 -48.012714 -200 45 -24.045252 -145.80733 -23.752754 -110.48866
