!Keysight Technologies,P9374A,MY57211810,A.19.30.04
!Date: Friday, May 02, 2025 08:59:06
!Correction: S11(Off) 
!S21(Off) 
!S12(Off) 
!S22(Off) 
!S2P File: Measurements: S11, S21, S12, S22:
# Hz S  dB   R 50
13000000000 -11.430641 113.15144 -200 45 -37.315079 -49.073547 -12.981211 -175.45839
13010000000 -12.457471 104.1552 -200 45 -37.372509 -110.84104 -18.580095 -175.62573
13020000000 -14.105337 101.28986 -200 45 -36.752583 -177.76244 -19.478731 -118.47124
13030000000 -15.780225 107.64571 -200 45 -36.510254 111.21217 -13.497986 -113.96203
13040000000 -15.796574 117.75473 -200 45 -37.167286 43.945953 -11.006413 -130.11598
13050000000 -15.10285 122.5106 -200 45 -37.2715 -21.365671 -10.832249 -147.3951
13060000000 -14.568198 123.37185 -200 45 -37.063293 -85.738426 -12.254992 -160.62671
13070000000 -14.204358 125.7058 -200 45 -37.097977 -156.06606 -15.32731 -159.92613
13080000000 -13.299487 127.03783 -200 45 -37.457451 140.09264 -15.7079 -136.2924
13090000000 -12.206199 123.59038 -200 45 -37.134338 72.287849 -12.668962 -131.94495
13100000000 -11.592311 116.34998 -200 45 -37.541042 4.3056145 -10.966351 -144.52457
13110000000 -11.648456 107.25838 -200 45 -38.03603 -59.483299 -11.147091 -161.52261
13120000000 -12.402611 100.64981 -200 45 -37.573353 -122.09092 -13.376941 -176.07172
13130000000 -13.62557 98.138268 -200 45 -37.389912 170.30452 -18.7987 -173.62555
13140000000 -14.547576 100.29936 -200 45 -37.308949 102.79768 -18.340038 -119.14252
13150000000 -15.087708 103.41003 -200 45 -37.062767 36.365208 -12.980264 -118.5431
13160000000 -15.428316 107.07486 -200 45 -37.368023 -33.725407 -10.60312 -134.03455
13170000000 -15.695748 113.3811 -200 45 -37.97221 -98.674377 -10.296363 -152.28867
13180000000 -15.130328 120.39352 -200 45 -38.069115 -159.99208 -11.89128 -166.06917
13190000000 -13.807278 123.72736 -200 45 -37.41074 134.7085 -14.849255 -165.40233
13200000000 -12.449332 120.58084 -200 45 -36.964909 64.911751 -15.304314 -143.50465
13210000000 -11.781286 112.43945 -200 45 -37.358845 -3.6578429 -12.449457 -139.21988
13220000000 -11.842246 105.14625 -200 45 -37.679607 -70.026733 -10.785147 -152.06279
13230000000 -12.450377 99.227409 -200 45 -37.960457 -133.87219 -11.001059 -169.65327
13240000000 -13.256762 96.653397 -200 45 -37.588257 162.70802 -13.561646 174.36598
13250000000 -14.135419 97.162392 -200 45 -36.875088 95.679123 -19.395721 -178.57108
13260000000 -14.795626 97.975151 -200 45 -36.973297 23.995255 -18.105936 -125.46174
13270000000 -15.773358 102.69732 -200 45 -37.634785 -42.911217 -12.843568 -126.48689
13280000000 -16.184893 113.15549 -200 45 -37.953053 -104.95014 -10.63878 -143.21768
13290000000 -15.027454 124.22118 -200 45 -37.20229 -169.15727 -10.590152 -160.91901
13300000000 -13.218386 125.84943 -200 45 -36.933121 121.75265 -12.323644 -172.26268
13310000000 -11.875925 120.06193 -200 45 -36.998371 52.098671 -14.537606 -167.97855
13320000000 -11.514168 113.02187 -200 45 -37.423882 -14.770694 -14.207794 -153.16136
13330000000 -11.592274 106.46815 -200 45 -37.728428 -80.869858 -11.860392 -153.8714
13340000000 -12.031857 102.0135 -200 45 -37.676025 -142.46109 -10.764169 -168.07526
13350000000 -12.611735 99.599625 -200 45 -37.288887 148.98885 -11.689655 175.41666
13360000000 -13.232917 98.081909 -200 45 -37.368385 83.538773 -14.685141 165.39307
13370000000 -14.354798 98.344841 -200 45 -37.32457 16.018465 -19.226469 -175.50133
13380000000 -15.302412 104.82935 -200 45 -37.159843 -50.947483 -16.180769 -140.62325
13390000000 -15.282675 116.7555 -200 45 -37.441883 -118.13982 -12.284191 -146.89749
13400000000 -13.928304 122.68842 -200 45 -37.46233 175.32745 -10.859876 -162.1317
13410000000 -12.483084 122.28556 -200 45 -37.556644 111.37823 -11.37236 -177.0399
13420000000 -11.723848 116.42229 -200 45 -37.265587 45.798203 -13.01923 177.36394
13430000000 -11.399255 111.0817 -200 45 -37.16898 -23.023188 -14.495562 -175.46693
13440000000 -11.604371 105.43179 -200 45 -37.55928 -92.628967 -13.361975 -165.18034
13450000000 -12.011716 101.35115 -200 45 -37.806824 -154.30496 -11.421309 -170.66441
13460000000 -12.514895 98.743683 -200 45 -37.68956 140.36365 -10.946866 176.17688
13470000000 -13.342992 97.054581 -200 45 -37.459843 74.586021 -12.023131 161.87636
13480000000 -14.304121 97.896568 -200 45 -37.182121 7.1122994 -14.88954 155.99329
13490000000 -15.213816 104.21664 -200 45 -37.173553 -61.530914 -18.407433 173.15196
13500000000 -15.217989 112.85981 -200 45 -37.717762 -128.31161 -16.090639 -158.89188
13510000000 -14.121194 119.97153 -200 45 -37.695721 169.1143 -12.839507 -161.314
13520000000 -13.012928 118.79507 -200 45 -37.328793 103.77406 -11.605973 -173.34372
13530000000 -12.245573 115.02108 -200 45 -37.0914 33.682537 -11.74115 175.6402
13540000000 -12.108209 110.44611 -200 45 -37.411743 -32.618038 -12.872873 169.86946
13550000000 -12.22998 106.65578 -200 45 -37.554131 -99.424385 -13.997263 172.91177
13560000000 -12.458416 105.13793 -200 45 -37.82428 -164.20479 -13.484517 -179.80893
13570000000 -12.617918 102.37559 -200 45 -37.776245 132.44891 -12.315945 177.55247
13580000000 -13.051525 100.82783 -200 45 -36.911224 66.576439 -11.905531 168.60338
13590000000 -13.87689 100.59753 -200 45 -37.102257 -5.8212419 -12.669379 158.78728
13600000000 -14.485059 104.58064 -200 45 -37.858631 -71.428864 -14.721345 154.12695
13610000000 -14.635328 112.93162 -200 45 -37.82423 -131.88576 -17.17518 165.12312
13620000000 -13.559447 117.29677 -200 45 -36.953789 159.83485 -16.122009 -172.40683
13630000000 -12.612344 116.79581 -200 45 -37.261536 90.641396 -13.486514 -171.51624
13640000000 -12.178734 112.69767 -200 45 -37.602425 24.198822 -12.118342 -179.35828
13650000000 -12.043248 110.91675 -200 45 -37.613644 -39.55838 -11.773677 171.05931
13660000000 -12.070316 109.65212 -200 45 -37.380497 -105.57095 -12.466965 163.02307
13670000000 -11.659195 107.80164 -200 45 -37.464329 -172.85103 -13.468918 163.73347
13680000000 -11.591523 104.06867 -200 45 -37.392834 122.87734 -13.409605 167.39461
13690000000 -11.874586 99.550415 -200 45 -37.050137 55.208549 -12.645127 166.82224
13700000000 -12.75699 97.871864 -200 45 -37.452713 -11.647628 -12.205261 159.96268
13710000000 -13.582011 101.20002 -200 45 -37.056686 -75.678223 -12.767531 150.90425
13720000000 -13.392599 107.68105 -200 45 -37.026569 -144.86282 -14.617394 146.31551
13730000000 -12.786206 109.11209 -200 45 -37.167309 147.45723 -16.764023 156.21783
13740000000 -12.515285 107.65672 -200 45 -37.467083 83.619133 -16.081236 176.10709
13750000000 -12.442547 107.57874 -200 45 -37.020306 19.24855 -13.494441 178.66217
13760000000 -12.246799 109.13902 -200 45 -36.635952 -50.517166 -12.144199 170.57382
13770000000 -11.449577 108.82981 -200 45 -37.061222 -119.05756 -11.898387 161.95978
13780000000 -10.899712 103.83226 -200 45 -37.249908 177.37746 -12.399726 154.76889
13790000000 -10.892527 96.953133 -200 45 -37.182045 109.58078 -13.299557 154.85104
13800000000 -11.522319 92.303383 -200 45 -37.116993 44.545952 -13.112505 157.33542
13810000000 -12.456292 91.047318 -200 45 -36.98967 -22.188318 -12.63378 154.77574
13820000000 -12.832108 94.288139 -200 45 -36.996719 -90.172501 -12.579821 148.40924
13830000000 -12.920921 95.512085 -200 45 -37.315159 -156.1801 -13.553561 140.74991
13840000000 -12.983606 95.098175 -200 45 -37.190727 139.56036 -15.581784 140.50864
13850000000 -13.493018 98.331764 -200 45 -36.841728 71.649391 -17.12534 154.82309
13860000000 -13.166689 103.46954 -200 45 -37.230907 1.910605 -15.699359 169.30084
13870000000 -12.015849 105.98902 -200 45 -37.302864 -60.645687 -13.83233 169.45551
13880000000 -11.081199 102.03299 -200 45 -37.116226 -128.82993 -12.894108 163.64056
13890000000 -10.613877 94.837685 -200 45 -37.488266 162.3524 -12.722898 156.92317
13900000000 -10.950207 88.301346 -200 45 -38.076088 98.722725 -13.222275 153.75113
13910000000 -11.555604 84.664444 -200 45 -37.620708 35.468403 -13.266994 154.26686
13920000000 -12.109856 84.958916 -200 45 -37.502277 -31.925209 -12.973309 152.21759
13930000000 -12.332572 83.561584 -200 45 -37.684376 -98.914185 -12.95501 147.57777
13940000000 -12.903472 83.038033 -200 45 -37.531494 -163.2346 -13.423175 142.03792
13950000000 -13.816493 85.171425 -200 45 -37.375534 128.22661 -14.570512 138.60875
13960000000 -14.017929 94.171165 -200 45 -37.755814 61.210182 -16.209538 141.91634
13970000000 -12.997726 101.39738 -200 45 -37.714985 -4.4627757 -16.498316 153.80045
13980000000 -11.459705 100.42421 -200 45 -37.778683 -70.258842 -15.643042 159.92448
13990000000 -10.63031 94.412399 -200 45 -37.919979 -136.63173 -14.813364 161.74631
14000000000 -10.497658 87.736786 -200 45 -38.021896 158.32944 -13.879231 160.76991
14010000000 -10.764227 82.739006 -200 45 -38.014103 92.123268 -13.414435 156.95679
14020000000 -11.132922 80.018402 -200 45 -38.122669 26.95528 -13.082855 154.07382
14030000000 -11.450121 77.634399 -200 45 -38.023346 -37.707596 -12.66919 149.05704
14040000000 -11.957085 74.814018 -200 45 -37.781868 -103.25531 -12.974335 142.26031
14050000000 -13.040165 74.36821 -200 45 -37.507153 -170.46825 -13.616015 138.37433
14060000000 -13.921155 81.116676 -200 45 -37.854362 120.18281 -14.475838 136.82942
14070000000 -13.621907 91.227966 -200 45 -38.082096 58.430683 -15.284522 138.48373
14080000000 -12.275982 95.059425 -200 45 -37.436913 -7.0517101 -15.522921 142.29813
14090000000 -10.973949 92.572411 -200 45 -37.348457 -77.621803 -15.604441 143.72903
14100000000 -10.405999 86.545006 -200 45 -37.788265 -144.03755 -16.155703 146.53035
14110000000 -10.154119 80.863205 -200 45 -37.902752 151.57855 -15.704518 154.53372
14120000000 -10.353547 75.542145 -200 45 -37.648079 86.696777 -14.714229 157.903
14130000000 -10.678978 70.891388 -200 45 -37.835484 20.014339 -13.244734 155.94853
14140000000 -11.185684 68.286972 -200 45 -37.317142 -44.237579 -12.315585 147.86774
14150000000 -11.885644 65.72541 -200 45 -37.167885 -114.42345 -12.346165 137.2356
14160000000 -12.792884 66.771965 -200 45 -37.661434 178.46802 -13.345157 129.50348
14170000000 -13.495604 72.362923 -200 45 -37.870865 114.93501 -14.731457 127.782
14180000000 -13.14725 79.672325 -200 45 -37.21154 49.354469 -15.819614 132.42105
14190000000 -12.127932 83.589386 -200 45 -37.304092 -19.533175 -15.552629 137.73724
14200000000 -10.943251 81.208656 -200 45 -37.560123 -85.595856 -15.307227 136.08206
14210000000 -10.246821 75.514587 -200 45 -37.258564 -151.9012 -15.996294 132.88545
14220000000 -10.160335 68.393311 -200 45 -37.626274 140.3728 -17.259047 138.20422
14230000000 -10.498796 63.556149 -200 45 -37.670551 77.174103 -17.214588 152.26421
14240000000 -10.911638 60.470501 -200 45 -37.273399 10.672285 -15.02914 158.92348
14250000000 -11.267376 58.197262 -200 45 -37.309792 -59.020718 -13.133348 152.44638
14260000000 -11.718864 55.770927 -200 45 -37.672581 -123.35976 -12.409613 141.4449
14270000000 -12.477641 54.239479 -200 45 -37.527508 169.49359 -12.680652 129.11931
14280000000 -13.449082 57.992023 -200 45 -37.770744 103.33401 -14.269476 121.46351
14290000000 -13.481474 67.203827 -200 45 -37.816357 38.575333 -15.821697 122.87531
14300000000 -12.221592 70.699631 -200 45 -37.522449 -27.007807 -16.637133 131.10019
14310000000 -11.155066 67.938622 -200 45 -37.663029 -95.135201 -15.72826 134.18156
14320000000 -10.746122 61.719242 -200 45 -37.699741 -159.08603 -15.650552 128.95335
14330000000 -10.902096 56.73621 -200 45 -37.397949 132.77574 -16.631174 124.00815
14340000000 -11.216002 54.514568 -200 45 -37.564762 65.157455 -18.800165 129.72678
14350000000 -11.145963 52.886707 -200 45 -38.155819 -1.1238201 -18.635664 149.56358
14360000000 -11.158632 49.327129 -200 45 -38.101986 -63.102467 -16.08433 157.40355
14370000000 -11.635304 43.94558 -200 45 -37.879597 -128.87779 -13.858438 150.71318
14380000000 -12.720667 42.463806 -200 45 -37.575317 165.24115 -12.95468 137.45013
14390000000 -13.864646 47.730366 -200 45 -37.600464 98.306717 -13.455505 124.22408
14400000000 -13.395698 56.507401 -200 45 -37.387287 30.508991 -14.888771 116.54486
14410000000 -12.376576 58.06456 -200 45 -37.969479 -36.74403 -16.694664 114.65362
14420000000 -11.717329 54.530067 -200 45 -37.747295 -98.701622 -17.945736 125.00547
14430000000 -11.631051 51.208065 -200 45 -37.377892 -163.80566 -16.983025 129.59653
14440000000 -11.658412 50.250439 -200 45 -37.029804 126.76736 -16.78966 124.17452
14450000000 -11.207213 49.476055 -200 45 -37.270718 59.130295 -17.90781 118.9213
14460000000 -10.744101 44.977577 -200 45 -37.419014 -7.6982312 -20.125923 125.05389
14470000000 -10.820787 37.686382 -200 45 -37.660927 -71.963554 -20.397255 145.93253
14480000000 -11.626224 32.250885 -200 45 -37.453854 -136.54396 -17.376295 158.57877
14490000000 -12.78117 32.20546 -200 45 -36.892998 157.14365 -14.618596 149.83548
14500000000 -13.307631 37.599648 -200 45 -36.933678 86.913376 -13.625724 134.75528
14510000000 -12.948646 40.807671 -200 45 -37.027916 19.916292 -13.937881 120.08436
14520000000 -12.633754 40.555 -200 45 -37.501621 -46.079166 -15.350511 107.49603
14530000000 -12.656015 40.214405 -200 45 -37.398956 -111.48504 -18.107956 103.04816
14540000000 -12.462294 42.60022 -200 45 -37.248379 -174.98192 -20.020113 117.96582
14550000000 -11.658526 43.216061 -200 45 -36.799164 115.93671 -18.799347 125.80786
14560000000 -10.846302 38.527809 -200 45 -36.926579 47.41016 -18.24872 121.22485
14570000000 -10.536812 31.410204 -200 45 -37.236301 -20.064692 -18.92222 112.62123
14580000000 -11.010087 23.977551 -200 45 -37.307201 -85.243881 -22.104118 110.67992
14590000000 -11.834123 20.305889 -200 45 -37.603802 -152.30682 -23.775015 148.47543
14600000000 -12.737872 20.325127 -200 45 -37.293659 144.51665 -18.705523 161.14717
14610000000 -13.071628 21.932858 -200 45 -37.276974 75.624947 -15.539392 148.81711
14620000000 -13.546682 22.778204 -200 45 -37.437943 8.5349636 -14.273745 130.1348
14630000000 -14.00617 25.208282 -200 45 -37.661873 -56.658463 -14.617735 110.43402
14640000000 -14.031856 31.527327 -200 45 -37.583977 -122.61019 -16.60671 93.281654
14650000000 -13.167356 36.533585 -200 45 -37.385071 171.27823 -20.732761 87.320038
14660000000 -11.909151 34.595688 -200 45 -37.600857 101.99483 -22.937675 113.58907
14670000000 -11.196251 28.540819 -200 45 -37.870331 36.717636 -20.606577 123.32752
14680000000 -11.093067 20.755939 -200 45 -38.225872 -28.836645 -19.361036 111.68614
14690000000 -11.487717 14.686319 -200 45 -38.097874 -91.720062 -20.743073 94.150497
14700000000 -12.242972 10.084825 -200 45 -37.832836 -159.2403 -27.004412 84.66304
14710000000 -13.025279 8.6439695 -200 45 -37.867561 134.8597 -28.123375 175.3869
14720000000 -13.843794 7.8869619 -200 45 -37.889099 66.991928 -19.430916 168.69984
14730000000 -14.676701 10.097725 -200 45 -38.170197 0.40064004 -16.19816 146.48969
14740000000 -15.411883 16.122059 -200 45 -38.636497 -62.849911 -15.197433 121.05212
14750000000 -15.222947 24.163744 -200 45 -38.017262 -126.23751 -16.176302 97.588524
14760000000 -14.03149 29.922642 -200 45 -37.606976 165.08888 -19.02458 76.113701
14770000000 -12.702384 27.704254 -200 45 -38.050629 94.882584 -25.371305 74.957062
14780000000 -11.790287 20.979055 -200 45 -38.451805 31.415705 -25.774914 120.80415
14790000000 -11.683086 12.713699 -200 45 -38.445415 -32.696159 -21.862637 117.3454
14800000000 -12.100337 5.0700598 -200 45 -38.188435 -97.869476 -21.290558 95.829567
14810000000 -13.037066 0.55779803 -200 45 -38.132713 -164.01581 -24.392729 68.114632
14820000000 -14.010288 -1.3161099 -200 45 -37.843063 127.7732 -38.813053 19.542765
14830000000 -14.866479 -0.021690242 -200 45 -38.341908 61.651482 -25.126108 -158.42979
14840000000 -15.725136 1.7037244 -200 45 -38.283257 -2.1790345 -19.145079 165.96185
14850000000 -16.590342 7.7228599 -200 45 -38.05724 -68.410614 -17.059742 136.71663
14860000000 -16.560656 20.302185 -200 45 -37.977066 -136.76984 -16.785145 107.84821
14870000000 -14.833837 26.283817 -200 45 -38.447605 158.34439 -18.441525 80.061958
14880000000 -13.047947 23.274738 -200 45 -37.933327 93.907715 -22.444445 55.72752
14890000000 -12.162755 13.926732 -200 45 -37.823906 25.421814 -31.060301 59.740536
14900000000 -12.076291 4.0825901 -200 45 -38.252655 -41.428978 -28.984015 110.7728
14910000000 -12.892263 -3.6808343 -200 45 -38.273083 -104.49393 -26.248522 98.917168
14920000000 -13.804978 -6.952251 -200 45 -38.042343 -171.37727 -26.156206 70.462807
14930000000 -14.540631 -7.7421784 -200 45 -38.227924 123.0873 -30.769907 12.618467
14940000000 -15.093067 -9.1195498 -200 45 -37.777512 58.841896 -30.638845 -102.56309
14950000000 -16.086109 -10.710095 -200 45 -37.35157 -10.259563 -23.713108 -159.35497
14960000000 -17.774174 -4.8979001 -200 45 -37.71146 -79.095993 -20.719938 160.90968
14970000000 -17.640318 10.702351 -200 45 -38.104744 -144.67606 -19.957201 130.42979
14980000000 -15.58906 16.906467 -200 45 -38.041386 151.31386 -20.117985 98.848907
14990000000 -13.968643 10.652812 -200 45 -37.878841 85.377098 -22.508003 66.766792
15000000000 -13.341059 1.2873328 -200 45 -37.819897 19.72356 -26.553616 39.136761
15010000000 -13.727348 -8.3338518 -200 45 -37.44059 -47.864777 -34.05434 20.264687
15020000000 -14.579104 -13.211691 -200 45 -37.885159 -116.8283 -38.299721 31.368334
15030000000 -15.257247 -14.288609 -200 45 -37.941727 179.29138 -40.381367 14.629492
15040000000 -15.537219 -16.199615 -200 45 -38.006489 113.94173 -33.928505 -26.884972
15050000000 -16.134207 -20.319988 -200 45 -37.743149 47.353107 -28.314686 -81.105911
15060000000 -17.543282 -23.469463 -200 45 -37.792152 -18.532145 -25.05451 -118.94242
15070000000 -19.151041 -15.928053 -200 45 -37.715027 -84.643578 -22.925762 -151.68748
15080000000 -19.071371 -0.81970137 -200 45 -37.382195 -151.69829 -22.361876 175.18454
15090000000 -17.062292 2.8643875 -200 45 -37.693317 140.23203 -23.008276 143.87657
15100000000 -15.883121 -2.8437865 -200 45 -37.754551 75.330421 -24.797825 107.2584
15110000000 -15.60983 -11.522641 -200 45 -37.828098 9.5221415 -28.0821 63.428738
15120000000 -16.072678 -17.042904 -200 45 -37.40308 -56.426548 -30.571627 4.2962875
15130000000 -16.607498 -19.041088 -200 45 -37.479012 -124.85654 -30.357615 -50.314938
15140000000 -16.539076 -20.030491 -200 45 -37.637581 168.18396 -29.415104 -82.320442
15150000000 -16.43359 -25.070301 -200 45 -38.020741 104.05135 -28.925833 -91.240479
15160000000 -16.975582 -33.741508 -200 45 -37.690208 38.991718 -27.02026 -93.14418
15170000000 -18.688284 -37.483276 -200 45 -37.385197 -28.521782 -23.898067 -98.669769
15180000000 -20.307352 -32.402412 -200 45 -37.596691 -97.309906 -21.407354 -117.30891
15190000000 -20.370001 -21.199575 -200 45 -37.894028 -162.19592 -20.352402 -140.07411
15200000000 -19.291925 -17.76527 -200 45 -37.852772 133.25032 -20.672621 -165.06897
15210000000 -18.570383 -21.228312 -200 45 -37.371487 66.127579 -22.712107 166.15594
15220000000 -18.616829 -25.728559 -200 45 -37.564785 -2.1425767 -28.078154 130.47151
15230000000 -18.792973 -25.781416 -200 45 -37.844879 -68.457214 -37.343269 24.403736
15240000000 -18.133179 -26.72965 -200 45 -37.883747 -133.24403 -28.092512 -59.40099
15250000000 -17.542128 -33.124931 -200 45 -37.637825 161.93298 -24.421423 -87.331207
15260000000 -17.368511 -44.363792 -200 45 -37.608822 92.737335 -23.562141 -102.68524
15270000000 -18.566978 -56.120785 -200 45 -37.831898 26.862364 -23.426016 -107.3605
15280000000 -20.564375 -62.960205 -200 45 -37.805744 -39.66787 -22.349749 -102.82449
15290000000 -22.959064 -58.519356 -200 45 -37.90303 -105.15228 -19.845896 -107.86099
15300000000 -23.851002 -50.15966 -200 45 -37.743999 -171.37477 -18.343742 -122.66385
15310000000 -24.078997 -43.732712 -200 45 -37.715515 122.10239 -18.040684 -139.78908
15320000000 -24.432915 -34.932018 -200 45 -37.587463 53.34399 -19.250742 -159.04355
15330000000 -23.421741 -25.816784 -200 45 -38.12101 -13.851695 -22.721945 -170.42776
15340000000 -21.19075 -22.983912 -200 45 -38.265961 -78.265007 -28.125036 -158.25217
15350000000 -19.364077 -32.917316 -200 45 -37.999653 -143.13866 -27.017885 -109.17375
15360000000 -18.405899 -48.647015 -200 45 -38.047699 148.78856 -22.742718 -107.31131
