!Keysight Technologies,P9374A,MY57211810,A.19.30.04
!Date: Friday, May 02, 2025 09:00:04
!Correction: S11(Off) 
!S21(Off) 
!S12(Off) 
!S22(Off) 
!S2P File: Measurements: S11, S21, S12, S22:
# Hz S  dB   R 50
13000000000 -11.720964 110.26025 -200 45 -46.04039 -168.64902 -13.055405 -175.22842
13010000000 -13.034618 104.6375 -200 45 -46.470989 110.91397 -18.56156 -175.90007
13020000000 -14.280735 104.92554 -200 45 -47.183006 45.012638 -19.422974 -117.99065
13030000000 -15.139077 110.36261 -200 45 -47.884712 -19.298662 -13.473994 -114.26566
13040000000 -15.385284 114.61823 -200 45 -47.750648 -81.080872 -11.087933 -130.10814
13050000000 -15.317381 118.91824 -200 45 -46.492962 -147.36539 -10.779151 -147.02048
13060000000 -15.182813 124.39375 -200 45 -46.139511 135.31645 -12.227692 -161.11461
13070000000 -14.254848 128.54811 -200 45 -47.861382 61.2939 -15.450543 -160.04608
13080000000 -12.999602 128.23807 -200 45 -50.818909 0.94371432 -15.600834 -135.50371
13090000000 -11.933607 122.54182 -200 45 -48.597298 -40.866428 -12.639095 -132.46533
13100000000 -11.563334 114.31306 -200 45 -45.733944 -116.19159 -11.034657 -144.80463
13110000000 -11.907809 106.17528 -200 45 -45.227173 160.85931 -11.178075 -160.82823
13120000000 -12.664464 101.70573 -200 45 -46.85038 77.346031 -13.237962 -176.35226
13130000000 -13.567855 100.8392 -200 45 -51.688946 5.4214215 -19.037767 -174.60353
13140000000 -14.197379 100.42078 -200 45 -53.988403 -1.6067523 -18.159832 -118.25813
13150000000 -14.861026 101.62027 -200 45 -46.612782 -71.023781 -12.9408 -119.10818
13160000000 -15.745727 104.81214 -200 45 -44.778496 -160.3532 -10.655728 -134.31966
13170000000 -16.024868 114.13183 -200 45 -46.399738 106.52858 -10.338347 -151.74911
13180000000 -15.104382 123.27194 -200 45 -52.012615 38.342297 -11.748189 -166.0777
13190000000 -13.41106 124.00956 -200 45 -51.846573 14.381452 -15.015977 -166.55418
13200000000 -12.334099 118.71482 -200 45 -47.850964 -48.692612 -15.270633 -141.60506
13210000000 -11.949252 111.11215 -200 45 -46.92841 -132.43013 -12.31043 -140.33914
13220000000 -12.103275 105.22588 -200 45 -47.493732 150.73343 -10.95032 -152.44832
13230000000 -12.573817 101.17799 -200 45 -49.993626 74.819206 -11.018237 -168.42943
13240000000 -12.976007 98.420555 -200 45 -52.87077 37.747738 -13.270818 173.94286
13250000000 -13.747057 95.577019 -200 45 -48.622173 -16.880133 -20.0411 179.00696
13260000000 -14.958911 94.805328 -200 45 -46.91621 -95.255524 -17.522543 -123.59647
13270000000 -16.292278 103.34009 -200 45 -46.739967 -175.789 -12.881968 -128.79558
13280000000 -16.181814 116.89475 -200 45 -48.669598 110.51797 -10.861638 -142.3187
13290000000 -14.54487 124.69744 -200 45 -50.584263 47.534065 -10.395226 -159.93591
13300000000 -13.064169 123.29154 -200 45 -51.543373 4.1496296 -12.255095 -174.22005
13310000000 -12.14114 118.2874 -200 45 -47.776932 -53.424152 -14.915592 -166.42531
13320000000 -11.831086 114.04533 -200 45 -46.605942 -141.03264 -13.800097 -153.18643
13330000000 -11.624784 108.41053 -200 45 -47.701958 147.70918 -12.060905 -155.23022
13340000000 -11.670754 103.27425 -200 45 -49.770935 77.109596 -10.843174 -166.57297
13350000000 -12.326071 97.705177 -200 45 -49.889275 25.304825 -11.396853 175.15697
13360000000 -13.445515 95.376602 -200 45 -47.740513 -31.236197 -14.97067 163.29155
13370000000 -14.780029 99.16745 -200 45 -46.864895 -114.39096 -19.160461 -171.3681
13380000000 -15.330862 108.01949 -200 45 -47.963383 172.29248 -15.963441 -143.79633
13390000000 -14.865992 117.38715 -200 45 -50.071712 109.59812 -12.6078 -146.13548
13400000000 -13.76122 120.82367 -200 45 -48.864883 55.636864 -10.702288 -160.88715
13410000000 -12.673238 120.1464 -200 45 -48.329792 -11.026793 -11.172777 -178.31482
13420000000 -11.978788 117.13594 -200 45 -46.722599 -82.262787 -13.453261 176.65253
13430000000 -11.474935 112.22998 -200 45 -47.825966 -159.27808 -14.176076 -172.82797
13440000000 -11.447762 106.88245 -200 45 -48.237621 135.98352 -13.317611 -168.11862
13450000000 -11.763312 100.91295 -200 45 -49.311634 69.164536 -11.719789 -169.27271
13460000000 -12.428411 97.247787 -200 45 -49.634651 10.336276 -10.666274 176.83655
13470000000 -13.544652 95.638008 -200 45 -48.225983 -51.623302 -12.034668 160.06041
13480000000 -14.638496 98.635132 -200 45 -48.191463 -120.32844 -15.266329 157.10481
13490000000 -15.255722 106.38702 -200 45 -47.465832 167.46194 -17.749348 173.62854
13500000000 -14.819748 114.33247 -200 45 -49.328167 95.112114 -16.529322 -160.07191
13510000000 -13.84306 117.40067 -200 45 -49.68454 39.197922 -12.777799 -159.33836
13520000000 -13.218452 116.70258 -200 45 -49.001801 -19.453384 -11.361601 -174.41835
13530000000 -12.618528 114.91535 -200 45 -47.000225 -92.198433 -12.024168 174.82549
13540000000 -12.288355 112.87229 -200 45 -47.893066 -169.59419 -12.794464 171.5493
13550000000 -11.990364 109.04612 -200 45 -49.53067 120.14431 -13.838714 171.92857
13560000000 -12.004443 104.3381 -200 45 -50.891502 76.530029 -13.713615 179.65558
13570000000 -12.523636 98.880615 -200 45 -48.383663 12.746992 -12.255062 178.79539
13580000000 -13.522845 98.781654 -200 45 -47.050529 -60.918644 -11.744546 167.79248
13590000000 -14.455563 103.11338 -200 45 -47.015629 -140.06178 -12.886493 158.0723
13600000000 -14.234296 109.28408 -200 45 -48.47311 146.14912 -14.642311 155.92569
13610000000 -13.815604 112.32698 -200 45 -51.820938 85.222069 -17.031687 163.47047
13620000000 -13.423705 112.50316 -200 45 -50.661224 40.271664 -16.377987 -171.70454
13630000000 -13.253929 114.30997 -200 45 -48.208012 -21.536263 -13.284395 -170.8856
13640000000 -12.721628 115.79967 -200 45 -46.766747 -99.253914 -12.126228 179.44969
13650000000 -11.850781 114.93386 -200 45 -47.052677 -175.39734 -11.937455 171.51379
13660000000 -11.387827 110.02476 -200 45 -48.17841 104.98775 -12.302378 163.86714
13670000000 -11.384955 104.0246 -200 45 -51.22467 45.728729 -13.48619 161.95842
13680000000 -11.969931 100.80823 -200 45 -51.380611 1.7462065 -13.575793 168.6412
13690000000 -12.602283 100.64989 -200 45 -48.207851 -60.948189 -12.440902 166.99741
13700000000 -12.796043 102.80185 -200 45 -47.030533 -135.56082 -12.238037 158.74924
13710000000 -12.855202 103.33098 -200 45 -47.235882 141.43584 -12.944413 151.65523
13720000000 -12.892031 103.3178 -200 45 -50.249016 73.726486 -14.413548 146.93457
13730000000 -13.238887 105.28085 -200 45 -50.507164 17.956314 -16.839602 154.90146
13740000000 -13.225452 108.84241 -200 45 -48.75024 -36.574226 -16.175579 177.04636
13750000000 -12.483401 112.27198 -200 45 -48.16988 -110.26145 -13.349415 178.75768
13760000000 -11.603155 110.63519 -200 45 -47.717518 176.58368 -12.183094 169.74004
13770000000 -11.112999 105.90725 -200 45 -49.016369 103.36521 -11.962994 162.5425
13780000000 -11.124693 100.79794 -200 45 -50.261497 42.834053 -12.312016 154.91675
13790000000 -11.392203 96.859047 -200 45 -49.901546 -20.006536 -13.347611 154.09882
13800000000 -11.720921 95.409401 -200 45 -50.758606 -81.174469 -13.143799 158.24283
13810000000 -12.064967 93.818993 -200 45 -48.956806 -140.74432 -12.500602 154.22665
13820000000 -12.359285 92.348846 -200 45 -48.226112 146.77718 -12.761247 148.10999
13830000000 -13.046772 92.191116 -200 45 -48.449177 71.896721 -13.449235 141.88719
13840000000 -13.470809 94.625053 -200 45 -49.484863 6.7134147 -15.566934 139.05072
13850000000 -13.642271 101.14272 -200 45 -49.39954 -54.590412 -17.184465 155.82649
13860000000 -12.887215 105.1624 -200 45 -48.557178 -127.65117 -15.674983 169.41995
13870000000 -11.71494 105.01236 -200 45 -50.755436 164.63756 -13.749317 169.1106
13880000000 -11.077856 100.16371 -200 45 -51.287746 114.32824 -13.001885 163.23991
13890000000 -10.857012 94.072075 -200 45 -48.819504 54.403896 -12.711094 157.83524
13900000000 -11.168418 89.157677 -200 45 -47.471951 -28.535418 -13.089348 153.02713
13910000000 -11.55977 86.469421 -200 45 -49.342014 -104.03589 -13.476451 154.15593
13920000000 -11.814718 85.612213 -200 45 -50.868267 -166.89626 -12.850643 153.27803
13930000000 -12.09566 82.122253 -200 45 -51.08448 147.23575 -12.89965 146.20161
13940000000 -13.045926 80.476036 -200 45 -48.975491 77.22686 -13.656891 142.75621
13950000000 -14.282996 86.13623 -200 45 -48.271656 7.3826032 -14.324169 139.28514
13960000000 -13.883175 96.103165 -200 45 -48.145172 -70.699493 -16.291315 139.92001
13970000000 -12.665992 100.97977 -200 45 -51.050549 -145.57535 -16.707699 156.32732
13980000000 -11.447675 98.87413 -200 45 -51.426342 176.08408 -15.270085 158.85861
13990000000 -10.793159 93.524361 -200 45 -48.320541 109.72272 -15.128347 160.9485
14000000000 -10.669982 88.189857 -200 45 -47.482719 28.711704 -13.822207 162.53773
14010000000 -10.784735 84.079041 -200 45 -49.211411 -48.463539 -13.23879 155.80814
14020000000 -10.948477 80.574974 -200 45 -51.51862 -109.76868 -13.270144 153.72267
14030000000 -11.326101 76.781792 -200 45 -51.609619 -159.84421 -12.677552 150.17584
14040000000 -12.026099 74.047562 -200 45 -50.412857 142.08951 -12.744225 141.7681
14050000000 -13.078613 74.082306 -200 45 -48.114475 74.211235 -13.930066 137.38524
14060000000 -14.141047 81.387695 -200 45 -47.69743 -9.1319695 -14.316627 138.9258
14070000000 -13.524346 92.469231 -200 45 -49.196629 -84.809135 -15.171645 136.20158
14080000000 -12.095938 95.027092 -200 45 -52.134209 -138.9899 -15.84169 143.82712
14090000000 -10.927505 91.502533 -200 45 -49.820469 166.89757 -15.269089 143.83435
14100000000 -10.497024 85.75631 -200 45 -49.365055 94.828667 -16.336081 144.92023
14110000000 -10.367703 81.132614 -200 45 -49.369278 24.349339 -15.736278 156.72903
14120000000 -10.377429 76.731873 -200 45 -49.553268 -40.94342 -14.522744 156.59529
14130000000 -10.507409 72.127579 -200 45 -50.198792 -110.92957 -13.43445 156.00835
14140000000 -10.915482 67.366852 -200 45 -51.26091 -168.72685 -12.239094 148.42554
14150000000 -11.865914 63.603523 -200 45 -49.591183 130.48792 -12.306131 136.73387
14160000000 -13.181425 65.541092 -200 45 -49.04929 60.896648 -13.43684 129.49495
14170000000 -13.795881 74.987053 -200 45 -49.234989 -15.467614 -14.687092 127.94335
14180000000 -12.830891 82.346436 -200 45 -49.505947 -75.574303 -15.830542 132.25063
14190000000 -11.677401 82.100601 -200 45 -49.767422 -147.13805 -15.569522 138.11258
14200000000 -10.982834 78.301392 -200 45 -50.589149 153.67897 -15.250419 135.78458
14210000000 -10.684637 74.355942 -200 45 -49.340023 92.017776 -16.034647 132.84723
14220000000 -10.491057 70.954216 -200 45 -48.604103 17.159739 -17.325113 138.84143
14230000000 -10.255275 66.353958 -200 45 -50.074543 -51.599483 -17.023571 151.77301
14240000000 -10.420363 60.201233 -200 45 -50.052547 -115.19579 -15.191206 158.40587
14250000000 -11.04714 54.906277 -200 45 -49.910591 -179.88548 -13.116326 153.79688
14260000000 -12.11734 52.681873 -200 45 -50.204895 116.29156 -12.209055 140.52704
14270000000 -13.222447 56.101215 -200 45 -49.631428 53.903812 -12.926148 128.50259
14280000000 -13.307492 63.645267 -200 45 -48.400314 -16.683134 -14.187932 123.21494
14290000000 -12.622423 67.167839 -200 45 -49.34621 -92.104088 -15.725301 121.30537
14300000000 -12.011847 66.148674 -200 45 -50.786087 -154.12973 -16.812298 131.39366
14310000000 -11.680151 65.027618 -200 45 -50.4646 150.64632 -15.638934 134.75224
14320000000 -11.324326 63.666931 -200 45 -49.354576 82.47226 -15.630319 128.31197
14330000000 -10.840503 60.988773 -200 45 -48.987946 17.512772 -16.692266 124.34146
14340000000 -10.581886 55.826569 -200 45 -48.245613 -57.272392 -18.811598 129.37709
14350000000 -10.74592 49.570641 -200 45 -49.302269 -125.53136 -18.542389 150.38713
14360000000 -11.429431 45.299656 -200 45 -50.012302 166.63173 -16.121714 156.16911
14370000000 -12.37829 43.973972 -200 45 -50.915081 104.31889 -13.947123 151.59598
14380000000 -13.021373 47.645771 -200 45 -50.915573 50.07708 -12.787916 137.36113
14390000000 -13.007806 50.983253 -200 45 -48.95388 -16.426977 -13.540172 123.22558
14400000000 -12.865025 52.160835 -200 45 -48.688423 -86.776993 -14.997645 117.28315
14410000000 -12.748644 53.957542 -200 45 -48.407536 -159.54933 -16.502859 115.50376
14420000000 -12.387596 55.220482 -200 45 -49.413834 133.11548 -18.00448 122.56828
14430000000 -11.768118 55.597061 -200 45 -49.373005 66.352722 -17.189901 131.73189
14440000000 -11.055471 52.270088 -200 45 -50.104279 1.4542172 -16.445059 123.98285
14450000000 -10.789186 46.653595 -200 45 -50.257957 -60.501038 -18.133266 117.34167
14460000000 -10.920249 41.521606 -200 45 -49.809303 -116.38187 -20.187901 126.81621
14470000000 -11.367703 37.055561 -200 45 -48.246716 173.89546 -20.133984 145.43405
14480000000 -11.982252 35.665611 -200 45 -47.263058 94.956963 -17.535845 157.97014
14490000000 -12.364871 35.822388 -200 45 -49.606735 21.565924 -14.584881 150.53926
14500000000 -12.631383 35.672794 -200 45 -50.219379 -36.571693 -13.568501 134.18085
14510000000 -13.053381 36.3759 -200 45 -49.927425 -93.512169 -14.030582 120.44643
14520000000 -13.241526 39.741875 -200 45 -48.913399 -162.99844 -15.209143 107.30109
14530000000 -12.939776 43.699894 -200 45 -48.72007 131.2182 -18.357349 102.11027
14540000000 -12.105217 45.116901 -200 45 -48.187428 59.6479 -19.806231 119.95242
14550000000 -11.187209 41.925259 -200 45 -49.028721 -11.610738 -18.760538 123.70898
14560000000 -10.882625 35.662922 -200 45 -49.854866 -75.058556 -18.541458 121.65945
14570000000 -10.912531 30.440617 -200 45 -50.021038 -137.09334 -18.718533 114.51279
14580000000 -11.275625 25.686167 -200 45 -49.241074 163.8763 -21.907675 107.11696
14590000000 -11.780021 22.743635 -200 45 -48.461182 91.412888 -24.185413 152.93202
14600000000 -12.21577 20.877348 -200 45 -48.39938 21.651184 -18.312845 160.2928
14610000000 -12.940827 18.563206 -200 45 -49.210659 -49.434483 -15.710443 147.47333
14620000000 -13.905499 20.773415 -200 45 -50.124397 -111.55722 -14.383189 131.13362
14630000000 -14.455601 27.196867 -200 45 -49.9011 -171.81068 -14.45529 110.80898
14640000000 -13.82443 34.761051 -200 45 -48.905422 121.67862 -16.593168 91.64473
14650000000 -12.723677 36.091801 -200 45 -48.790573 47.995747 -21.002474 88.759811
14660000000 -11.800818 32.46603 -200 45 -50.122784 -20.185427 -22.733519 113.1186
14670000000 -11.372029 26.695797 -200 45 -50.375057 -74.869888 -20.59868 122.41354
14680000000 -11.452139 20.989862 -200 45 -49.342632 -141.97195 -19.526247 112.07343
14690000000 -11.633431 16.968737 -200 45 -49.121456 149.76096 -20.680241 95.127487
14700000000 -11.949032 12.060008 -200 45 -49.188339 78.511894 -26.636814 82.608185
14710000000 -12.656404 7.3643432 -200 45 -50.053967 14.413306 -28.107738 179.61221
14720000000 -13.821299 5.3722301 -200 45 -49.803905 -46.360569 -19.18828 168.4821
14730000000 -15.163607 8.6053133 -200 45 -49.242138 -120.33215 -16.24423 144.86783
14740000000 -15.738348 19.073444 -200 45 -50.933231 174.05905 -15.403062 122.07044
14750000000 -14.817271 27.04612 -200 45 -50.372433 121.83453 -15.935301 98.066963
14760000000 -13.623942 28.036831 -200 45 -49.018345 54.067059 -19.042955 74.143852
14770000000 -12.742142 25.271397 -200 45 -48.718758 -17.980309 -25.813951 77.630508
14780000000 -12.129221 19.659094 -200 45 -49.383034 -86.395538 -25.407772 118.12167
14790000000 -12.053635 13.989595 -200 45 -49.303352 -153.38602 -22.172306 117.80242
14800000000 -12.101323 8.4847603 -200 45 -49.740162 142.55617 -21.129896 96.866425
14810000000 -12.531895 1.8660433 -200 45 -49.997192 78.157143 -24.166409 65.731827
14820000000 -13.562654 -3.4676454 -200 45 -49.479431 18.499668 -41.906784 3.4137089
14830000000 -14.97086 -5.0720491 -200 45 -48.435844 -51.532993 -25.408115 -162.44566
14840000000 -16.714355 0.8981238 -200 45 -48.814663 -124.19295 -19.325674 167.43925
14850000000 -16.888807 15.139656 -200 45 -50.092937 172.06305 -16.872446 136.93765
14860000000 -15.532252 22.100824 -200 45 -49.178188 114.3789 -16.772011 106.41907
14870000000 -14.392667 22.300167 -200 45 -48.086102 39.78994 -18.672777 80.888641
14880000000 -13.379235 19.137457 -200 45 -49.211834 -30.734192 -22.134899 56.521835
14890000000 -12.813699 13.836631 -200 45 -50.108028 -91.736412 -31.254406 53.915699
14900000000 -12.458264 8.0132637 -200 45 -49.850872 -151.08191 -28.739683 116.97103
14910000000 -12.451223 0.68143475 -200 45 -48.685074 147.2249 -25.519611 94.869545
14920000000 -12.936275 -7.7499056 -200 45 -47.417507 75.66803 -27.199224 66.375916
14930000000 -14.219623 -13.94739 -200 45 -47.871361 2.2175646 -31.974199 21.734613
14940000000 -16.054886 -14.63144 -200 45 -48.261192 -65.113228 -31.301672 -94.360825
14950000000 -17.38785 -5.1569118 -200 45 -49.192982 -133.17284 -23.401737 -156.18732
14960000000 -17.112431 5.5080943 -200 45 -49.022469 170.26237 -20.305733 160.2843
14970000000 -16.099182 8.5800295 -200 45 -48.272923 102.72948 -20.053671 127.39121
14980000000 -15.356586 8.083704 -200 45 -47.735832 38.180012 -20.551115 100.56933
14990000000 -14.991624 6.2397432 -200 45 -47.96236 -34.353241 -22.076496 68.476059
15000000000 -14.322322 4.2734728 -200 45 -47.954281 -99.753189 -26.687061 35.433559
15010000000 -13.816675 -0.88033301 -200 45 -48.009232 -169.36732 -33.793228 23.995829
15020000000 -13.630202 -9.1214924 -200 45 -48.277546 126.0374 -39.490814 25.023232
15030000000 -14.180235 -18.053165 -200 45 -47.847824 61.925404 -39.081554 25.220291
15040000000 -15.596669 -24.847157 -200 45 -47.872234 -7.4163938 -33.487873 -31.453213
15050000000 -17.492996 -24.437061 -200 45 -48.083176 -71.640038 -28.466339 -81.336685
15060000000 -18.666817 -14.694983 -200 45 -47.991329 -137.73587 -24.944601 -119.42209
15070000000 -18.230196 -6.3272715 -200 45 -47.439285 154.74965 -23.064251 -152.35625
15080000000 -17.47542 -4.3262811 -200 45 -47.048771 84.381989 -22.358042 176.69411
15090000000 -17.020145 -6.5350833 -200 45 -47.873695 14.722095 -22.784109 143.06378
15100000000 -17.075855 -6.9984727 -200 45 -48.317268 -48.486023 -24.873663 106.16968
15110000000 -16.579617 -6.3595939 -200 45 -48.06366 -114.71221 -28.155113 62.261185
15120000000 -15.854733 -9.4545536 -200 45 -48.064018 -178.95119 -31.205467 3.5867677
15130000000 -15.446625 -16.982927 -200 45 -48.344299 116.20341 -30.737675 -44.655884
15140000000 -15.744742 -25.937815 -200 45 -46.883858 51.687595 -28.25112 -80.12278
15150000000 -16.871857 -33.039738 -200 45 -46.68079 -26.174696 -29.388914 -101.79341
15160000000 -18.466225 -34.534542 -200 45 -48.284523 -96.569016 -27.46714 -84.595947
15170000000 -19.25194 -27.517309 -200 45 -49.180908 -156.63214 -23.150578 -99.116241
15180000000 -19.060944 -24.69672 -200 45 -49.162556 139.90625 -21.462238 -121.17287
15190000000 -18.857988 -27.400166 -200 45 -48.594997 81.648018 -20.935928 -139.00403
15200000000 -19.630772 -28.44232 -200 45 -47.063042 12.606531 -20.339785 -161.67995
15210000000 -20.269369 -23.539358 -200 45 -46.861893 -63.395767 -22.155312 162.95918
15220000000 -19.408623 -15.446063 -200 45 -48.266991 -139.19171 -29.031818 124.12019
15230000000 -17.724052 -18.663376 -200 45 -50.298248 165.08485 -40.270069 18.247164
15240000000 -16.869053 -29.488041 -200 45 -49.065506 107.4906 -28.489841 -57.898594
15250000000 -17.286423 -40.92997 -200 45 -48.374752 38.772507 -24.374813 -87.001465
15260000000 -18.358362 -50.466 -200 45 -47.950542 -29.161978 -23.526974 -102.23876
15270000000 -19.926146 -52.559158 -200 45 -47.657665 -101.25064 -23.370127 -107.66102
15280000000 -20.66955 -51.398457 -200 45 -49.023472 -176.73865 -22.433739 -103.59704
15290000000 -20.990311 -54.681793 -200 45 -51.195171 129.53128 -19.893631 -106.91765
15300000000 -22.776438 -62.1507 -200 45 -49.493183 77.686371 -18.146755 -122.79652
15310000000 -25.557217 -54.013622 -200 45 -47.310448 7.5739284 -18.177237 -141.2816
15320000000 -26.436893 -24.5588 -200 45 -47.09222 -75.359543 -19.377808 -157.01273
15330000000 -22.214394 -15.471571 -200 45 -49.074532 -146.70721 -22.303055 -171.24504
15340000000 -19.941679 -25.901737 -200 45 -50.82999 159.56245 -28.98175 -160.08955
15350000000 -19.151039 -40.654869 -200 45 -49.550724 99.590698 -26.36343 -107.94852
15360000000 -19.252554 -52.496513 -200 45 -48.525394 32.56171 -22.928211 -109.15945
