!Keysight Technologies,P9374A,MY57211810,A.19.30.04
!Date: Friday, May 02, 2025 08:56:04
!Correction: S11(Off) 
!S21(Off) 
!S12(Off) 
!S22(Off) 
!S2P File: Measurements: S11, S21, S12, S22:
# Hz S  dB   R 50
13000000000 -12.115542 109.43329 -200 45 -20.399691 29.499266 -13.146073 -177.92409
13010000000 -13.091536 107.44398 -200 45 -20.231094 -37.04081 -19.204737 -172.31894
13020000000 -14.07135 106.30527 -200 45 -20.161951 -104.43663 -18.713791 -121.6216
13030000000 -14.833893 109.36638 -200 45 -20.253014 -172.00778 -13.900537 -115.49377
13040000000 -15.224323 112.10249 -200 45 -20.435152 121.76862 -11.174846 -128.30502
13050000000 -15.985294 117.06454 -200 45 -20.45503 56.229343 -10.592026 -146.79565
13060000000 -15.300682 128.21594 -200 45 -20.311277 -10.149 -12.244246 -161.6346
13070000000 -13.834049 129.88625 -200 45 -20.256578 -76.991959 -15.399844 -159.6481
13080000000 -12.744041 126.84913 -200 45 -20.254354 -144.85884 -15.655542 -137.05513
13090000000 -11.924842 120.99988 -200 45 -20.503483 147.89621 -12.778786 -131.57289
13100000000 -11.829838 112.59904 -200 45 -20.821121 82.038506 -10.915118 -144.06026
13110000000 -12.22885 108.10561 -200 45 -20.870546 17.846836 -11.03901 -161.74567
13120000000 -12.570308 103.94406 -200 45 -20.689219 -47.383507 -13.481534 -177.02605
13130000000 -13.19378 100.56933 -200 45 -20.523766 -113.92918 -18.912632 -171.56169
13140000000 -14.008326 98.517868 -200 45 -20.486063 178.70915 -18.11503 -121.11946
13150000000 -15.201909 98.772858 -200 45 -20.576567 111.70316 -13.160851 -119.44061
13160000000 -16.202324 107.02602 -200 45 -20.707304 45.609196 -10.789083 -133.1808
13170000000 -15.831297 117.1825 -200 45 -20.772436 -19.899055 -10.17783 -150.5379
13180000000 -14.576106 122.33571 -200 45 -20.697767 -85.344948 -11.555915 -167.21469
13190000000 -13.464263 121.37921 -200 45 -20.573797 -151.85898 -15.296035 -167.97523
13200000000 -12.625583 117.90527 -200 45 -20.60462 141.25082 -15.225759 -139.70123
13210000000 -12.139063 112.60217 -200 45 -20.683094 75.077339 -12.138796 -140.71675
13220000000 -12.055687 106.69511 -200 45 -20.662786 9.3878384 -11.028571 -153.38878
13230000000 -12.261931 101.89629 -200 45 -20.693035 -56.274239 -11.165655 -167.9628
13240000000 -12.773252 96.187752 -200 45 -20.531351 -121.54924 -13.175577 175.49275
13250000000 -14.039842 93.175667 -200 45 -20.293661 171.73769 -19.608299 176.67607
13260000000 -15.415587 97.35743 -200 45 -20.203274 104.03158 -17.872229 -123.17197
13270000000 -16.028746 105.37251 -200 45 -20.25473 37.244305 -12.829164 -128.07056
13280000000 -15.855354 116.57158 -200 45 -20.308371 -29.592724 -10.885874 -142.722
13290000000 -14.460106 121.94716 -200 45 -20.37488 -95.268227 -10.442575 -159.01678
13300000000 -13.428939 122.10846 -200 45 -20.218088 -161.04752 -11.992821 -174.1187
13310000000 -12.360465 120.91567 -200 45 -20.092678 131.80205 -15.213449 -169.1747
13320000000 -11.541471 114.78416 -200 45 -20.142973 64.388252 -13.855564 -149.7309
13330000000 -11.459466 108.21857 -200 45 -20.210947 -1.8440416 -11.618008 -156.57137
13340000000 -11.630101 102.28852 -200 45 -20.275198 -68.108566 -11.168861 -168.92152
13350000000 -12.420018 96.393364 -200 45 -20.190823 -133.84648 -11.720475 178.20729
13360000000 -13.828054 95.966324 -200 45 -20.118843 159.96498 -14.198703 165.33621
13370000000 -14.663602 101.25104 -200 45 -20.010744 92.935722 -19.673624 -179.57051
13380000000 -15.110739 108.35581 -200 45 -19.980291 26.060713 -16.174812 -138.31615
13390000000 -14.667651 115.59382 -200 45 -19.995823 -41.308407 -12.103468 -146.89139
13400000000 -13.874563 119.29375 -200 45 -20.100819 -107.71944 -10.937591 -163.25703
13410000000 -13.035929 120.83862 -200 45 -20.082165 -173.79897 -11.481766 -176.20039
13420000000 -11.912381 119.24743 -200 45 -20.033306 119.34763 -12.885546 178.0067
13430000000 -11.294324 112.47199 -200 45 -20.110718 52.378834 -14.427761 -177.00269
13440000000 -11.324896 106.17655 -200 45 -20.194422 -14.334821 -13.576678 -164.53796
13450000000 -11.612913 100.09164 -200 45 -20.339649 -80.314743 -11.277903 -169.2933
13460000000 -12.674191 94.961967 -200 45 -20.34952 -145.92097 -10.818629 174.60449
13470000000 -13.950793 97.272629 -200 45 -20.267824 148.5535 -12.354944 161.54643
13480000000 -14.435092 101.88245 -200 45 -20.149815 81.709442 -14.81767 159.23418
13490000000 -14.757098 106.05684 -200 45 -20.137396 14.511702 -17.755667 169.03937
13500000000 -14.662956 111.25443 -200 45 -20.28089 -52.595997 -16.805573 -158.32925
13510000000 -14.339409 115.274 -200 45 -20.419058 -118.57391 -12.654015 -158.68213
13520000000 -13.587976 119.0917 -200 45 -20.49468 176.11758 -11.333085 -174.67418
13530000000 -12.45365 118.26559 -200 45 -20.415138 110.169 -11.983393 174.49588
13540000000 -11.800106 112.58884 -200 45 -20.419477 44.032612 -12.979836 171.57669
13550000000 -11.846106 106.67679 -200 45 -20.403555 -22.281902 -13.716343 172.89502
13560000000 -12.18425 101.82229 -200 45 -20.406567 -88.374451 -13.608128 178.89912
13570000000 -13.042038 99.513107 -200 45 -20.408123 -154.5412 -12.406963 178.11501
13580000000 -13.725333 102.34283 -200 45 -20.386059 139.49446 -11.840107 169.04881
13590000000 -13.694339 105.2817 -200 45 -20.374905 73.59037 -12.60263 158.61035
13600000000 -13.951777 105.72589 -200 45 -20.279863 7.5890632 -14.794479 153.83868
13610000000 -14.145918 109.63515 -200 45 -20.163708 -59.094757 -17.04883 166.1954
13620000000 -13.907849 112.9972 -200 45 -20.134483 -126.5491 -16.164061 -174.66367
13630000000 -13.418268 117.71075 -200 45 -20.259897 166.87782 -13.724106 -169.96901
13640000000 -12.141254 117.74718 -200 45 -20.370575 100.4817 -11.846541 -178.51079
13650000000 -11.565722 112.22462 -200 45 -20.493458 35.399025 -11.732413 168.9183
13660000000 -11.551978 107.91971 -200 45 -20.401552 -29.986191 -12.836805 163.69931
13670000000 -11.688305 104.10607 -200 45 -20.236788 -96.132011 -13.219459 165.93263
13680000000 -12.201736 101.90742 -200 45 -20.160343 -162.86212 -13.155099 165.0417
13690000000 -12.441307 103.65264 -200 45 -20.1252 130.44817 -13.07935 166.33205
13700000000 -12.285815 102.24001 -200 45 -20.17141 64.085396 -12.132136 162.59459
13710000000 -12.81866 100.23312 -200 45 -20.161509 -2.0368922 -12.434613 149.91669
13720000000 -13.281672 102.72325 -200 45 -20.096493 -68.128983 -14.913757 144.41814
13730000000 -13.537764 105.82961 -200 45 -19.968615 -134.99107 -16.722261 159.05768
13740000000 -13.124203 112.19414 -200 45 -19.957102 158.05205 -15.921242 173.68576
13750000000 -12.005439 112.14645 -200 45 -19.999109 90.73465 -13.781895 179.6843
13760000000 -11.517242 108.20417 -200 45 -20.155081 24.416376 -11.877891 171.46185
13770000000 -11.355154 104.86697 -200 45 -20.21843 -41.553867 -11.909603 159.86331
13780000000 -11.285121 101.12186 -200 45 -20.190369 -107.60226 -12.744253 156.21484
13790000000 -11.537062 98.500488 -200 45 -20.204594 -174.07143 -12.922072 156.17752
13800000000 -11.563368 96.894669 -200 45 -20.231344 119.90163 -13.057604 154.84525
13810000000 -11.685815 93.283775 -200 45 -20.214918 53.914387 -12.973228 154.85596
13820000000 -12.380002 89.767487 -200 45 -20.202112 -12.622719 -12.550973 150.60017
13830000000 -13.3205 91.078705 -200 45 -20.183838 -78.665695 -13.14115 140.71414
13840000000 -13.852867 97.032135 -200 45 -20.143623 -145.39912 -15.706063 136.53864
13850000000 -13.391272 103.30807 -200 45 -20.144567 147.6496 -17.603355 158.44012
13860000000 -12.438651 105.12363 -200 45 -20.301359 81.034882 -15.07703 169.81004
13870000000 -11.681067 102.05203 -200 45 -20.369295 15.080327 -13.971801 165.96959
13880000000 -11.388701 98.760498 -200 45 -20.48361 -51.248772 -13.29092 165.2534
13890000000 -11.184705 95.576515 -200 45 -20.60161 -116.63535 -12.436049 158.90323
13900000000 -11.081861 91.378662 -200 45 -20.58519 177.89293 -13.021257 151.19685
13910000000 -11.224237 87.809586 -200 45 -20.520222 111.81456 -13.669164 154.68137
13920000000 -11.448689 83.125381 -200 45 -20.55147 46.141273 -12.711447 153.91533
13930000000 -12.364492 79.029678 -200 45 -20.443317 -19.833918 -12.8815 145.29654
13940000000 -13.751524 81.754204 -200 45 -20.395262 -86.375931 -13.813582 143.28143
13950000000 -14.00367 90.313118 -200 45 -20.446833 -153.05428 -14.168354 140.44455
13960000000 -13.558954 96.565979 -200 45 -20.400599 140.96022 -16.108086 137.7782
13970000000 -12.40337 99.565109 -200 45 -20.454496 74.05899 -17.162283 156.31174
13980000000 -11.577807 96.414993 -200 45 -20.552565 8.1949892 -15.056473 161.78627
13990000000 -11.206887 94.007423 -200 45 -20.589651 -57.456692 -14.790045 157.59213
14000000000 -10.677479 90.699303 -200 45 -20.602655 -123.62332 -14.403991 162.02953
14010000000 -10.534316 84.593582 -200 45 -20.649782 170.72823 -13.136774 159.43849
14020000000 -10.767743 80.127571 -200 45 -20.611641 105.29453 -12.843578 151.94142
14030000000 -11.200657 74.900787 -200 45 -20.54837 39.512142 -12.974739 148.40926
14040000000 -12.394116 71.992096 -200 45 -20.455574 -26.241993 -12.994892 143.74788
14050000000 -13.530588 77.245697 -200 45 -20.326038 -92.468567 -13.473744 138.6942
14060000000 -13.64719 84.212006 -200 45 -20.247993 -159.07687 -14.363531 135.67986
14070000000 -13.171034 90.449928 -200 45 -20.219618 134.02715 -15.499395 137.85628
14080000000 -12.155371 92.54377 -200 45 -20.246651 67.780983 -15.492346 143.96225
14090000000 -11.356882 90.869705 -200 45 -20.225554 1.6737635 -15.417719 142.46298
14100000000 -10.661281 88.338387 -200 45 -20.173594 -64.689728 -16.309965 146.21526
14110000000 -10.099406 82.760506 -200 45 -20.155966 -131.28285 -15.687911 155.76805
14120000000 -10.081059 75.899826 -200 45 -20.175737 162.36554 -14.581081 156.39677
14130000000 -10.436454 70.216011 -200 45 -20.198902 95.998436 -13.535985 156.57274
14140000000 -11.181595 65.534645 -200 45 -20.269115 29.829042 -12.122791 149.19046
14150000000 -12.367809 64.978592 -200 45 -20.250303 -35.159081 -12.192165 135.54907
14160000000 -13.030819 69.742882 -200 45 -20.0233 -101.28603 -13.717896 129.07446
14170000000 -13.085853 74.835297 -200 45 -19.93247 -168.55209 -14.63255 130.79303
14180000000 -12.751026 78.252922 -200 45 -19.94981 124.59706 -15.342265 130.15691
14190000000 -12.153319 80.642181 -200 45 -19.939547 57.704937 -16.116877 136.63112
14200000000 -11.319299 80.462242 -200 45 -20.078335 -8.9317503 -15.246038 138.82576
14210000000 -10.55477 76.921951 -200 45 -20.132357 -74.577576 -15.680621 132.0657
14220000000 -10.069693 71.146622 -200 45 -20.064507 -140.66214 -17.524561 137.09543
14230000000 -10.124752 64.033417 -200 45 -20.042454 152.49821 -17.165205 152.79114
14240000000 -10.615968 58.648685 -200 45 -20.122789 86.137756 -15.114213 158.61652
14250000000 -11.406423 55.317856 -200 45 -20.177191 20.067907 -13.141344 153.44844
14260000000 -12.215555 55.242031 -200 45 -20.195648 -45.598072 -12.235368 140.95663
14270000000 -12.806053 58.361229 -200 45 -20.131323 -111.56369 -12.820313 128.35324
14280000000 -12.858884 60.699448 -200 45 -20.065819 -178.0963 -14.362391 122.27113
14290000000 -12.965486 64.044243 -200 45 -20.092888 115.15343 -15.759832 124.0139
14300000000 -12.480512 67.483437 -200 45 -20.126177 48.823616 -16.300266 129.52237
14310000000 -11.670286 67.77739 -200 45 -20.172689 -17.588226 -16.150608 132.46774
14320000000 -10.978999 64.795647 -200 45 -20.265745 -83.687759 -15.811494 131.81798
14330000000 -10.572927 59.313446 -200 45 -20.343166 -149.47179 -16.096157 125.79626
14340000000 -10.685409 53.723404 -200 45 -20.3235 145.08702 -18.530886 122.70289
14350000000 -11.063994 49.52132 -200 45 -20.250187 79.010307 -19.785326 154.49667
14360000000 -11.579728 46.932491 -200 45 -20.236742 12.716838 -15.235297 160.15938
14370000000 -12.230001 45.979885 -200 45 -20.225857 -53.400272 -13.670264 145.65054
14380000000 -12.596525 47.366127 -200 45 -20.262426 -119.66299 -13.709335 137.64014
14390000000 -12.980892 48.14864 -200 45 -20.281475 174.51147 -13.208118 128.66399
14400000000 -13.235446 51.497658 -200 45 -20.278191 108.8472 -14.314037 113.5799
14410000000 -12.920222 55.809288 -200 45 -20.123627 43.24987 -17.454496 113.7486
14420000000 -12.222667 56.669453 -200 45 -20.025928 -23.472801 -17.424509 127.90298
14430000000 -11.538677 55.000587 -200 45 -19.976074 -90.349358 -17.05102 125.97861
14440000000 -11.08077 51.00404 -200 45 -20.055372 -157.10901 -17.258755 126.86565
14450000000 -10.937067 46.393364 -200 45 -20.123587 137.04237 -17.136835 121.50053
14460000000 -11.017807 42.336685 -200 45 -20.086569 71.231972 -20.108658 115.33862
14470000000 -11.279479 38.095287 -200 45 -20.058954 5.0327067 -21.300043 155.7592
14480000000 -11.788575 35.507355 -200 45 -19.995169 -60.910229 -16.280836 158.22609
14490000000 -12.346375 34.414524 -200 45 -19.942253 -127.38001 -14.79474 144.71185
14500000000 -12.810646 35.136101 -200 45 -19.918989 165.96097 -14.302521 136.32294
14510000000 -13.215825 37.464558 -200 45 -19.958576 99.525528 -13.697378 124.17866
14520000000 -13.171453 41.238434 -200 45 -19.961269 33.445164 -14.718837 106.18594
14530000000 -12.653565 43.552715 -200 45 -19.935913 -32.751266 -18.326283 98.025146
14540000000 -12.078582 43.52676 -200 45 -19.87991 -99.071075 -20.768297 122.16799
14550000000 -11.411049 41.337833 -200 45 -19.871531 -166.07343 -18.154863 128.85995
14560000000 -10.987776 36.956535 -200 45 -19.993393 127.85885 -17.800434 116.72063
14570000000 -10.843573 31.29772 -200 45 -19.959415 61.941093 -19.765808 110.71915
14580000000 -11.095822 25.883856 -200 45 -19.949091 -4.3669963 -22.052994 117.96756
14590000000 -11.656893 21.44898 -200 45 -19.907997 -70.488197 -23.046822 142.36322
14600000000 -12.443814 19.696259 -200 45 -19.877184 -137.04976 -19.292582 160.76775
14610000000 -13.097206 19.943169 -200 45 -19.903107 156.16452 -15.546125 150.75293
14620000000 -13.862354 21.7794 -200 45 -19.994619 89.85173 -14.135792 130.09506
14630000000 -14.139704 28.012272 -200 45 -20.034176 23.989046 -14.67348 110.6185
14640000000 -13.716046 32.399239 -200 45 -19.99305 -41.897827 -16.448114 94.120255
14650000000 -13.001465 34.854111 -200 45 -19.942209 -108.60515 -20.419493 84.662285
14660000000 -12.039041 33.83506 -200 45 -19.996073 -175.45493 -23.979969 116.60558
14670000000 -11.289747 28.3524 -200 45 -20.127365 118.25735 -19.825489 125.67402
14680000000 -11.191774 21.614544 -200 45 -20.244583 52.689037 -19.106754 106.58146
14690000000 -11.410818 15.403641 -200 45 -20.233158 -12.452515 -21.727736 93.403168
14700000000 -12.08129 10.244844 -200 45 -20.119104 -78.437508 -26.635056 96.324715
14710000000 -12.981682 7.3945346 -200 45 -20.096174 -144.97447 -28.754984 162.63538
14720000000 -13.898216 7.3305597 -200 45 -20.120787 148.55522 -19.93716 170.57396
14730000000 -14.923271 10.220701 -200 45 -20.182705 82.518661 -16.204729 148.21468
14740000000 -15.394823 17.405315 -200 45 -20.193453 16.96262 -15.007222 122.49805
14750000000 -15.005375 25.068853 -200 45 -20.12965 -49.120056 -15.83878 96.172714
14760000000 -13.935242 28.59902 -200 45 -20.107216 -115.46152 -19.387711 73.069992
14770000000 -12.755662 27.086382 -200 45 -20.125597 178.36382 -25.691128 82.095123
14780000000 -11.913896 20.831705 -200 45 -20.114233 112.09647 -25.071035 115.45631
14790000000 -11.769759 13.163805 -200 45 -20.191004 45.996281 -22.544954 116.36171
14800000000 -12.10117 6.2359924 -200 45 -20.188751 -19.454283 -21.267401 99.816147
14810000000 -12.843585 0.96065885 -200 45 -20.08639 -85.411438 -23.500181 67.090126
14820000000 -13.79378 -1.9234257 -200 45 -20.043501 -151.92644 -38.355904 -10.811464
14830000000 -14.949239 -2.767482 -200 45 -20.071203 141.75761 -24.722517 -164.26225
14840000000 -16.202288 1.542008 -200 45 -20.093605 75.867889 -19.6805 164.37984
14850000000 -16.778446 11.874533 -200 45 -20.034338 9.8552694 -17.313038 139.68855
14860000000 -15.920606 21.25499 -200 45 -20.014505 -56.613861 -16.392809 110.1175
14870000000 -14.516653 23.669035 -200 45 -20.04467 -122.48539 -17.979149 77.047058
14880000000 -13.319233 20.44322 -200 45 -19.951447 171.48148 -23.280872 51.363342
14890000000 -12.570653 14.317502 -200 45 -19.956545 104.86335 -30.621752 76.06749
14900000000 -12.320291 6.5950398 -200 45 -19.951344 38.800858 -28.550104 99.611908
14910000000 -12.610298 -0.842511 -200 45 -19.960205 -27.290985 -27.575865 98.593727
14920000000 -13.199424 -6.9925375 -200 45 -19.955305 -93.090073 -26.341688 80.03418
14930000000 -14.24206 -12.415548 -200 45 -19.861994 -158.87216 -28.63674 22.851295
14940000000 -15.827262 -13.31789 -200 45 -19.756828 134.6588 -28.217426 -93.889229
14950000000 -17.092598 -5.8647399 -200 45 -19.674757 67.798363 -22.693785 -163.85439
14960000000 -17.121904 2.5433655 -200 45 -19.711466 1.0359422 -21.087 155.79317
14970000000 -16.492682 8.4996252 -200 45 -19.712019 -65.467812 -20.801952 131.24893
14980000000 -15.574801 9.8695078 -200 45 -19.789968 -132.02409 -20.181828 106.02456
14990000000 -14.785497 8.2433281 -200 45 -19.879528 161.97922 -21.082655 69.115997
15000000000 -14.052491 4.7386189 -200 45 -19.860939 96.365982 -25.603497 25.531233
15010000000 -13.521575 -2.5139575 -200 45 -19.792376 30.187937 -40.475262 -4.8268685
15020000000 -13.759031 -11.60783 -200 45 -19.791382 -36.180843 -34.607845 74.786392
15030000000 -14.551684 -18.42551 -200 45 -19.782753 -102.25502 -32.453388 7.8732243
15040000000 -15.846447 -23.335213 -200 45 -19.721834 -168.46597 -31.962183 -61.019737
15050000000 -17.53297 -21.210213 -200 45 -19.673586 124.71168 -30.929077 -93.098785
15060000000 -18.009304 -12.990511 -200 45 -19.756641 58.214542 -26.323753 -110.59535
15070000000 -17.780443 -10.321675 -200 45 -19.787125 -7.5500188 -22.304684 -145.25905
15080000000 -17.858236 -8.3498783 -200 45 -19.713844 -73.50428 -21.509647 172.86551
15090000000 -17.71282 -5.65481 -200 45 -19.631014 -140.20306 -23.511282 138.34172
15100000000 -17.271658 -2.3257096 -200 45 -19.625906 153.10677 -25.839066 113.77686
15110000000 -15.957034 -3.3126974 -200 45 -19.645187 86.155312 -26.748346 73.434166
15120000000 -15.260827 -12.072166 -200 45 -19.769562 19.812029 -27.962273 1.5438716
15130000000 -15.492859 -20.92436 -200 45 -19.829906 -46.121387 -29.050993 -69.230759
15140000000 -16.304848 -27.840471 -200 45 -19.826412 -111.90718 -33.324383 -93.498055
15150000000 -17.500648 -30.776028 -200 45 -19.794613 -178.07715 -28.539314 -69.669067
15160000000 -18.367443 -27.915087 -200 45 -19.756716 115.50912 -24.650269 -96.808067
15170000000 -18.208506 -26.660313 -200 45 -19.761019 48.964733 -24.913231 -111.38156
15180000000 -18.490517 -31.543596 -200 45 -19.79364 -17.628155 -22.561388 -110.46644
15190000000 -19.772072 -32.627697 -200 45 -19.894642 -83.995773 -19.723557 -134.2567
15200000000 -20.769375 -24.553045 -200 45 -19.960785 -149.59277 -19.806858 -167.12578
15210000000 -19.861237 -14.585374 -200 45 -19.891508 144.38524 -22.802422 160.36632
15220000000 -18.216112 -16.332747 -200 45 -19.912075 77.879799 -29.238297 127.64069
15230000000 -17.358358 -24.611242 -200 45 -19.937567 11.866648 -40.18182 8.8599815
15240000000 -17.522793 -34.053993 -200 45 -19.931276 -54.424706 -29.124819 -61.942059
15250000000 -18.175997 -39.62455 -200 45 -19.980457 -120.93996 -24.852009 -84.693687
15260000000 -18.624424 -43.467148 -200 45 -20.05752 173.37619 -23.341137 -100.06875
15270000000 -19.03727 -48.541161 -200 45 -20.013021 107.69999 -23.037989 -108.08163
15280000000 -19.605856 -55.008213 -200 45 -19.944681 41.438251 -22.471956 -105.15115
15290000000 -21.126322 -63.765316 -200 45 -19.927256 -25.052879 -20.119568 -107.06188
15300000000 -24.313999 -65.318756 -200 45 -19.940481 -91.562889 -18.329838 -121.39065
15310000000 -26.566587 -38.61853 -200 45 -20.009211 -157.99637 -17.953518 -139.26385
15320000000 -24.192739 -23.399357 -200 45 -20.021547 136.032 -18.988527 -159.02885
15330000000 -21.924475 -22.720976 -200 45 -20.039541 69.704704 -22.642088 -174.6963
15340000000 -20.505068 -30.858635 -200 45 -20.097418 3.5943632 -29.3929 -151.5515
15350000000 -19.930929 -39.239658 -200 45 -20.131269 -62.438782 -25.538347 -111.96566
15360000000 -19.502285 -47.07526 -200 45 -20.165241 -128.53688 -23.29178 -113.55534
