!Keysight Technologies,P9374A,MY57211810,A.19.30.04
!Date: Friday, May 02, 2025 08:58:46
!Correction: S11(Off) 
!S21(Off) 
!S12(Off) 
!S22(Off) 
!S2P File: Measurements: S11, S21, S12, S22:
# Hz S  dB   R 50
13000000000 -11.87671 113.47119 -200 45 -34.220299 -29.144138 -13.017589 -175.52393
13010000000 -12.574261 107.99873 -200 45 -34.217213 -95.563416 -18.554415 -174.93036
13020000000 -13.590088 103.84914 -200 45 -33.767677 -164.17024 -19.558235 -119.04606
13030000000 -15.155513 103.91122 -200 45 -34.229324 127.22323 -13.512584 -113.71729
13040000000 -16.211475 114.2401 -200 45 -34.606045 62.047367 -10.986357 -130.02815
13050000000 -15.740734 122.93484 -200 45 -34.377552 -2.6916244 -10.833654 -147.58104
13060000000 -14.6737 127.87136 -200 45 -34.171837 -68.7976 -12.272626 -160.57506
13070000000 -13.70009 127.3647 -200 45 -34.186634 -137.86639 -15.301665 -159.74445
13080000000 -12.866293 124.66344 -200 45 -34.163258 155.85846 -15.731452 -136.59055
13090000000 -12.393448 120.51402 -200 45 -34.428123 86.449265 -12.671086 -131.77419
13100000000 -11.99639 115.82648 -200 45 -34.9515 22.273914 -10.955266 -144.54201
13110000000 -11.890467 109.51974 -200 45 -34.866432 -41.587006 -11.146894 -161.59659
13120000000 -12.314329 102.88505 -200 45 -34.523903 -107.92541 -13.409097 -176.07367
13130000000 -13.131545 99.044739 -200 45 -34.785431 -175.06677 -18.724855 -173.22423
13140000000 -14.239808 96.712639 -200 45 -34.511295 118.65034 -18.443556 -119.71944
13150000000 -15.544953 100.37447 -200 45 -34.726845 50.670204 -12.971725 -118.03677
13160000000 -16.03908 109.20005 -200 45 -35.012875 -14.928975 -10.568623 -134.21976
13170000000 -15.480691 117.10986 -200 45 -35.263874 -78.377045 -10.322305 -152.41035
13180000000 -14.618264 120.45229 -200 45 -34.683998 -142.32231 -11.900283 -165.84088
13190000000 -13.638013 121.23624 -200 45 -34.417915 148.19145 -14.822803 -165.42592
13200000000 -12.653423 118.46984 -200 45 -34.631115 79.711021 -15.314124 -143.87782
13210000000 -12.201609 112.82016 -200 45 -34.866817 13.735026 -12.461859 -138.96729
13220000000 -11.915041 107.68105 -200 45 -35.191986 -51.885231 -10.763035 -152.04884
13230000000 -12.163479 100.59673 -200 45 -35.273376 -114.52411 -10.995196 -169.86372
13240000000 -12.874431 95.882713 -200 45 -34.835018 -179.45674 -13.607241 174.59773
13250000000 -14.149274 93.966324 -200 45 -34.176327 113.5848 -19.295279 -178.68924
13260000000 -15.254665 97.455635 -200 45 -34.420166 42.365498 -18.167553 -125.6955
13270000000 -16.015545 105.13025 -200 45 -34.659576 -22.515583 -12.849698 -126.16772
13280000000 -15.900923 115.85733 -200 45 -34.929634 -89.281174 -10.605444 -143.39851
13290000000 -14.595052 122.12759 -200 45 -34.653069 -152.33223 -10.62324 -160.98666
13300000000 -13.381356 123.63704 -200 45 -34.29073 141.47432 -12.315892 -171.96144
13310000000 -12.191254 119.93649 -200 45 -33.989521 71.545692 -14.500621 -168.31868
13320000000 -11.581815 114.40531 -200 45 -34.525799 3.6109869 -14.25079 -152.9075
13330000000 -11.470781 107.36 -200 45 -34.763905 -63.003654 -11.842184 -154.01677
13340000000 -11.884469 102.27039 -200 45 -34.847317 -125.4212 -10.773565 -167.98773
13350000000 -12.461228 98.555092 -200 45 -34.558365 167.6951 -11.69686 175.37004
13360000000 -13.464699 96.550407 -200 45 -34.31773 102.90839 -14.65273 165.37395
13370000000 -14.543959 99.713654 -200 45 -34.120449 33.169041 -19.230864 -175.47076
13380000000 -15.229066 106.44333 -200 45 -34.219852 -33.393787 -16.223705 -140.5441
13390000000 -15.065802 115.78845 -200 45 -34.479198 -101.64192 -12.239343 -146.90504
13400000000 -13.927382 122.08857 -200 45 -34.612602 -167.01938 -10.897821 -162.19818
13410000000 -12.597172 122.02023 -200 45 -34.615726 127.79517 -11.385095 -176.89778
13420000000 -11.743424 116.78951 -200 45 -34.567463 61.007824 -12.953138 177.36147
13430000000 -11.453764 111.49696 -200 45 -34.40984 -5.4642191 -14.582013 -175.53795
13440000000 -11.458709 105.73564 -200 45 -34.635319 -74.510323 -13.331993 -165.10304
13450000000 -11.943498 100.70792 -200 45 -34.831745 -138.53564 -11.390619 -170.68973
13460000000 -12.627245 98.377213 -200 45 -34.829124 155.35652 -10.99442 176.03746
13470000000 -13.360341 97.194817 -200 45 -34.906322 89.325714 -12.002873 162.13438
13480000000 -14.302091 98.658783 -200 45 -34.897602 23.06876 -14.842221 156.04076
13490000000 -15.200214 103.84139 -200 45 -34.623985 -41.788193 -18.531376 172.61763
13500000000 -15.08464 113.35531 -200 45 -34.760674 -111.39705 -15.995193 -158.65599
13510000000 -14.220042 118.49802 -200 45 -34.964493 -176.24823 -12.85316 -161.51402
13520000000 -13.082492 119.577 -200 45 -34.982159 117.23751 -11.649167 -173.3102
13530000000 -12.231705 115.61471 -200 45 -35.269787 51.379837 -11.692092 175.80457
13540000000 -12.04912 110.41457 -200 45 -35.198071 -12.678891 -12.898278 169.59148
13550000000 -12.201559 106.82196 -200 45 -35.12001 -77.992805 -14.007817 173.0453
13560000000 -12.426029 104.34341 -200 45 -34.833134 -145.11815 -13.447337 -179.79057
13570000000 -12.699986 102.26625 -200 45 -34.919785 149.36246 -12.349761 177.40005
13580000000 -13.220136 101.2522 -200 45 -34.737942 83.192078 -11.898129 168.71579
13590000000 -13.701479 101.66351 -200 45 -34.979576 14.443146 -12.658847 158.84825
13600000000 -14.422929 104.43662 -200 45 -35.135612 -50.115189 -14.71832 153.94244
13610000000 -14.520942 111.78625 -200 45 -35.048458 -113.83348 -17.17849 165.40559
13620000000 -13.725669 116.86119 -200 45 -34.261452 178.79219 -16.102365 -172.59081
13630000000 -12.782983 117.0318 -200 45 -34.806454 108.57988 -13.540663 -171.44713
13640000000 -12.147556 114.45174 -200 45 -35.172676 45.649685 -12.07526 -179.23534
13650000000 -11.856782 111.19949 -200 45 -34.842068 -20.151316 -11.793612 170.78374
13660000000 -11.818229 108.17075 -200 45 -35.016178 -86.15593 -12.486235 163.24258
13670000000 -11.906295 106.45557 -200 45 -34.571312 -151.87341 -13.421954 163.71829
13680000000 -11.764495 104.67448 -200 45 -34.58239 141.11623 -13.433211 167.13727
13690000000 -12.020714 101.20148 -200 45 -34.546337 73.460602 -12.650795 167.02899
13700000000 -12.496209 99.419876 -200 45 -34.819061 8.4440804 -12.186491 159.99091
13710000000 -13.16926 100.1944 -200 45 -34.478867 -57.019524 -12.762907 150.68729
13720000000 -13.570207 104.25312 -200 45 -34.442139 -125.99983 -14.640562 146.50793
13730000000 -13.311449 109.32751 -200 45 -34.7267 168.2702 -16.763426 156.06544
13740000000 -12.58719 110.95232 -200 45 -34.701923 103.70219 -16.061628 176.06085
13750000000 -12.056935 108.77751 -200 45 -34.263191 36.511665 -13.51733 178.64034
13760000000 -11.920902 107.97987 -200 45 -34.510937 -32.289631 -12.135496 170.62329
13770000000 -11.500021 105.81722 -200 45 -34.543549 -97.571182 -11.87708 161.9256
13780000000 -11.341285 103.23376 -200 45 -34.700218 -164.05629 -12.42843 154.77612
13790000000 -11.149662 99.489296 -200 45 -34.713272 130.0154 -13.253148 154.97939
13800000000 -11.278555 94.941856 -200 45 -34.791157 64.332512 -13.137914 157.0284
13810000000 -11.913632 90.68058 -200 45 -34.488697 -0.91141319 -12.635804 155.09149
13820000000 -12.770531 90.565361 -200 45 -34.482235 -70.360672 -12.538483 148.3042
13830000000 -13.393076 93.49559 -200 45 -34.872234 -135.94092 -13.584307 140.60086
13840000000 -13.51634 98.025223 -200 45 -34.673798 159.70499 -15.559988 140.71043
13850000000 -13.174968 102.17201 -200 45 -34.745422 91.096992 -17.117725 154.67566
13860000000 -12.479883 102.46293 -200 45 -34.826748 26.824068 -15.704053 169.1785
13870000000 -12.054953 102.29383 -200 45 -34.585648 -40.045963 -13.835148 169.54086
13880000000 -11.481357 100.60683 -200 45 -34.714558 -108.66315 -12.882236 163.58517
13890000000 -10.982552 96.715401 -200 45 -35.207275 -173.68439 -12.719284 156.87297
13900000000 -10.900331 91.152763 -200 45 -35.23217 121.41163 -13.237145 153.87622
13910000000 -11.071034 86.012962 -200 45 -35.075611 56.901398 -13.23301 154.1713
13920000000 -11.73589 81.731407 -200 45 -34.964691 -10.153413 -12.988977 152.15115
13930000000 -12.672242 80.148804 -200 45 -34.855366 -75.410049 -12.964723 147.84645
13940000000 -13.572989 84.495995 -200 45 -34.813961 -144.20293 -13.375973 141.8613
13950000000 -13.744578 89.648705 -200 45 -35.143497 150.16702 -14.613888 138.49136
13960000000 -13.380797 94.895821 -200 45 -35.177055 85.360382 -16.213497 142.20679
13970000000 -12.745539 97.870987 -200 45 -34.933544 19.25539 -16.421114 153.34523
13980000000 -11.807631 98.092285 -200 45 -34.970623 -47.402973 -15.713797 160.07101
13990000000 -11.051647 95.562363 -200 45 -35.074226 -115.28437 -14.788568 161.85217
14000000000 -10.540964 90.304222 -200 45 -35.396614 179.86273 -13.851495 160.57826
14010000000 -10.391638 84.344818 -200 45 -35.292698 115.34116 -13.47421 157.08144
14020000000 -10.802969 77.981697 -200 45 -35.138405 49.43298 -13.039274 154.05684
14030000000 -11.55934 75.072868 -200 45 -35.082897 -16.265005 -12.673576 149.00934
14040000000 -12.456049 74.646927 -200 45 -34.982826 -83.017136 -12.993266 142.28217
14050000000 -13.121124 77.199242 -200 45 -34.995308 -148.30219 -13.582908 138.36719
14060000000 -13.624183 82.945633 -200 45 -35.012035 144.22685 -14.476048 136.78439
14070000000 -13.283408 89.169189 -200 45 -34.996876 79.335976 -15.301601 138.38548
14080000000 -12.420884 93.163414 -200 45 -34.620911 12.621531 -15.474429 142.45697
14090000000 -11.285737 92.80159 -200 45 -34.752476 -56.608139 -15.642152 143.51245
14100000000 -10.383116 88.01165 -200 45 -35.134121 -120.66518 -16.151699 146.56403
14110000000 -10.07477 81.380226 -200 45 -34.998272 173.64709 -15.671162 154.49954
14120000000 -10.222088 75.174011 -200 45 -34.701595 107.64732 -14.764082 157.88399
14130000000 -10.646127 70.6894 -200 45 -34.911865 40.011261 -13.211363 155.94652
14140000000 -11.213259 67.144737 -200 45 -34.729477 -25.868233 -12.323123 147.93097
14150000000 -12.01893 66.000061 -200 45 -34.931561 -93.284264 -12.355439 137.07466
14160000000 -12.840529 67.307297 -200 45 -35.12175 -157.49759 -13.341786 129.68463
14170000000 -13.362032 72.69838 -200 45 -34.890114 137.7504 -14.706928 127.7767
14180000000 -13.171242 79.92659 -200 45 -34.596733 69.952316 -15.846593 132.19008
14190000000 -11.990767 83.173569 -200 45 -34.572239 2.7512147 -15.525302 137.9418
14200000000 -10.983948 80.387024 -200 45 -34.73597 -65.03051 -15.315755 136.11618
14210000000 -10.410798 75.162346 -200 45 -34.860874 -130.56296 -15.972288 132.59981
14220000000 -10.241953 69.565887 -200 45 -35.16433 162.41748 -17.304695 138.52046
14230000000 -10.404313 64.146133 -200 45 -34.947208 99.362358 -17.161425 152.17183
14240000000 -10.759555 60.565186 -200 45 -34.801525 31.122467 -15.069771 158.70602
14250000000 -11.150672 57.158455 -200 45 -34.937965 -35.415524 -13.14366 152.75977
14260000000 -11.866049 54.20499 -200 45 -35.014755 -100.76898 -12.375378 141.34898
14270000000 -12.788115 55.26535 -200 45 -35.0905 -167.33363 -12.698689 128.96185
14280000000 -13.409558 60.014893 -200 45 -35.128868 128.45634 -14.289601 121.75851
14290000000 -13.099053 67.02491 -200 45 -34.907307 60.477905 -15.766609 122.69021
14300000000 -12.179102 69.213196 -200 45 -34.952862 -5.7116218 -16.680679 131.12148
14310000000 -11.291408 66.737083 -200 45 -35.263115 -72.082191 -15.731167 134.18288
14320000000 -11.016882 62.086674 -200 45 -35.058823 -135.43794 -15.639166 129.22665
14330000000 -10.902041 58.620487 -200 45 -35.019676 155.15883 -16.623409 123.54094
14340000000 -10.960041 55.095966 -200 45 -35.126125 91.215408 -18.820744 130.16127
14350000000 -10.968487 51.784237 -200 45 -35.14843 24.047909 -18.636431 149.2861
14360000000 -11.282286 47.564701 -200 45 -35.095798 -42.171352 -16.08674 157.54105
14370000000 -11.889238 44.246067 -200 45 -35.5303 -107.51213 -13.842695 150.56911
14380000000 -12.840216 44.243206 -200 45 -35.193134 -170.85869 -12.999989 137.53569
14390000000 -13.505219 49.018917 -200 45 -34.970837 122.38492 -13.409345 124.35532
14400000000 -13.208411 54.574089 -200 45 -34.894531 54.232952 -14.885825 116.25776
14410000000 -12.58903 56.458698 -200 45 -35.01556 -10.260927 -16.746456 114.79547
14420000000 -11.977602 55.31472 -200 45 -34.824074 -77.941261 -17.858309 125.09179
14430000000 -11.593636 53.211887 -200 45 -35.047478 -142.92683 -17.048012 129.33647
14440000000 -11.379333 50.435448 -200 45 -34.812336 150.88567 -16.782015 124.62537
14450000000 -11.104317 48.162552 -200 45 -34.821033 84.203537 -17.840265 118.63139
14460000000 -10.875569 43.42709 -200 45 -34.827755 17.458803 -20.209412 125.01107
14470000000 -11.093751 38.292816 -200 45 -34.815903 -47.80072 -20.352489 146.06746
14480000000 -11.671692 34.243931 -200 45 -34.657585 -114.33099 -17.366884 158.38019
14490000000 -12.429283 33.2785 -200 45 -34.566284 178.25859 -14.661892 149.80858
14500000000 -13.072659 35.317776 -200 45 -34.91552 111.56631 -13.59493 135.04831
14510000000 -13.203787 38.746319 -200 45 -34.854309 46.734249 -13.92392 119.87013
14520000000 -13.046113 41.584721 -200 45 -34.831348 -18.282352 -15.378644 107.52802
14530000000 -12.61064 43.102543 -200 45 -34.519035 -85.751076 -18.065657 103.28044
14540000000 -12.040338 43.137966 -200 45 -34.569317 -151.82768 -20.071499 117.55358
14550000000 -11.447138 40.965534 -200 45 -34.493275 140.287 -18.795361 126.23103
14560000000 -11.039944 36.646259 -200 45 -34.767838 73.495361 -18.181664 121.16785
14570000000 -10.956822 31.737633 -200 45 -34.86087 8.7488461 -18.976589 111.99818
14580000000 -11.08508 26.563139 -200 45 -34.609707 -56.85603 -22.122725 112.02023
14590000000 -11.541504 22.086599 -200 45 -34.642426 -124.01617 -23.717709 146.92825
14600000000 -12.277198 18.644119 -200 45 -34.521778 169.57126 -18.807755 161.59161
14610000000 -13.218067 18.745901 -200 45 -34.688755 102.52351 -15.468156 149.11966
14620000000 -14.054292 22.020725 -200 45 -34.730354 35.591076 -14.284455 129.75192
14630000000 -14.218934 29.198393 -200 45 -34.811596 -28.847639 -14.630701 110.63091
14640000000 -13.539305 33.499706 -200 45 -34.511906 -95.804214 -16.593754 93.407654
14650000000 -12.799126 33.951347 -200 45 -34.735527 -162.76558 -20.700575 86.862732
14660000000 -12.098452 31.900034 -200 45 -34.791546 129.84622 -22.930286 114.08973
14670000000 -11.629172 28.639221 -200 45 -34.982605 65.009827 -20.599779 123.51481
14680000000 -11.193232 23.198051 -200 45 -34.950451 -1.6319158 -19.329094 111.14466
14690000000 -11.289036 16.557636 -200 45 -35.07246 -66.931671 -20.833908 94.683228
14700000000 -11.75731 9.7593241 -200 45 -35.002647 -132.45406 -26.848446 85.17363
14710000000 -12.964924 4.7225766 -200 45 -34.846718 160.75049 -28.352535 174.76242
14720000000 -14.394056 6.3770089 -200 45 -35.022575 94.038643 -19.400848 169.24037
14730000000 -15.134898 13.477518 -200 45 -35.146271 28.359583 -16.174704 146.45308
14740000000 -14.964691 19.298262 -200 45 -35.119621 -36.922901 -15.194439 120.88454
14750000000 -14.684338 23.220562 -200 45 -34.935329 -102.93138 -16.206652 97.723473
14760000000 -14.005317 26.094376 -200 45 -34.976643 -170.15445 -18.992476 76.280937
14770000000 -13.140098 26.523872 -200 45 -35.182693 123.28681 -25.335443 74.990723
14780000000 -12.105541 22.700991 -200 45 -35.266567 58.019527 -25.863794 120.89943
14790000000 -11.615292 15.22011 -200 45 -35.283184 -6.8315668 -21.832554 117.33168
14800000000 -11.743527 5.8309383 -200 45 -35.188259 -72.306442 -21.291296 95.921249
14810000000 -12.825738 -1.1819239 -200 45 -34.978638 -138.39165 -24.377226 68.096893
14820000000 -14.03638 -3.0965466 -200 45 -34.902332 154.15843 -38.806259 20.745525
14830000000 -15.262223 -1.1285855 -200 45 -35.05175 87.122208 -25.149094 -158.42319
14840000000 -15.92865 4.1530466 -200 45 -35.221748 22.104992 -19.185719 165.97197
14850000000 -16.383217 9.8696098 -200 45 -35.087189 -42.953342 -17.021381 137.10672
14860000000 -16.186131 18.622999 -200 45 -35.024765 -110.60261 -16.77552 107.47189
14870000000 -14.962189 25.26272 -200 45 -35.332531 -174.95872 -18.483795 80.275475
14880000000 -13.155717 22.887747 -200 45 -34.712742 119.28037 -22.419861 56.084072
14890000000 -12.306108 14.472594 -200 45 -34.91637 49.269516 -30.884182 58.918804
14900000000 -12.08188 5.1138196 -200 45 -35.304768 -15.033941 -29.130936 111.43776
14910000000 -12.737974 -3.1805525 -200 45 -35.197849 -79.573074 -26.190868 99.547096
14920000000 -13.631701 -7.4786696 -200 45 -35.111233 -145.30916 -26.028372 69.939972
14930000000 -14.550916 -9.1192513 -200 45 -34.939922 148.87285 -30.94734 11.580866
14940000000 -15.295585 -9.6440439 -200 45 -34.754559 82.449158 -30.826794 -102.74866
14950000000 -16.430567 -9.7258015 -200 45 -34.64867 13.379068 -23.751736 -158.96579
14960000000 -17.534861 -1.5043614 -200 45 -35.172672 -53.100437 -20.731773 161.12038
14970000000 -17.186966 9.455018 -200 45 -35.104168 -116.37678 -19.922831 130.70558
14980000000 -15.548533 14.209664 -200 45 -34.875881 176.62225 -20.069977 98.468239
14990000000 -14.302505 9.3230457 -200 45 -35.19426 109.76911 -22.618141 66.871933
15000000000 -13.653096 2.3676717 -200 45 -34.917362 47.04435 -26.399696 39.744835
15010000000 -13.806787 -5.7966523 -200 45 -34.504539 -21.954378 -34.29673 18.989651
15020000000 -14.199291 -11.008019 -200 45 -34.911343 -90.774078 -37.973602 32.179245
15030000000 -14.748825 -16.134912 -200 45 -35.205929 -154.40364 -40.312813 15.349619
15040000000 -15.606162 -20.02589 -200 45 -34.941795 140.50174 -33.871635 -28.380207
15050000000 -16.702192 -22.332775 -200 45 -34.997482 73.696648 -28.484264 -81.162262
15060000000 -18.132193 -19.155291 -200 45 -34.851372 8.8598757 -25.029501 -118.21117
15070000000 -18.703449 -11.048763 -200 45 -34.679367 -57.949257 -22.876459 -151.84268
15080000000 -18.190462 -2.7847624 -200 45 -34.609722 -125.64407 -22.361889 174.87102
15090000000 -17.178392 -2.158426 -200 45 -34.866867 167.33324 -23.074261 144.32886
15100000000 -16.451189 -4.0478625 -200 45 -34.802624 101.8237 -24.748686 107.57049
15110000000 -16.052633 -9.0128345 -200 45 -34.916668 35.953308 -28.018375 64.026352
15120000000 -15.942118 -12.924946 -200 45 -34.830189 -29.758677 -30.420984 3.3372161
15130000000 -15.886184 -18.510429 -200 45 -34.702988 -95.849434 -30.498037 -51.514534
15140000000 -16.232105 -23.980129 -200 45 -34.729774 -162.99344 -29.640364 -81.2584
15150000000 -16.846569 -29.369226 -200 45 -34.724903 131.22649 -28.65148 -90.514748
15160000000 -17.842669 -32.062473 -200 45 -34.700188 64.333176 -27.094297 -94.663429
15170000000 -18.702005 -31.790543 -200 45 -34.802311 -2.631978 -23.969721 -98.116356
15180000000 -19.395485 -29.176916 -200 45 -35.049267 -67.785866 -21.373367 -116.85132
15190000000 -19.659983 -27.107443 -200 45 -34.794342 -132.35545 -20.279634 -140.40536
15200000000 -20.043898 -23.280067 -200 45 -34.538101 160.90556 -20.726692 -165.39954
15210000000 -19.463787 -18.815754 -200 45 -34.503109 92.267693 -22.812391 166.74649
15220000000 -18.598873 -18.965906 -200 45 -34.867161 25.242971 -27.817049 132.02061
15230000000 -17.822226 -24.173874 -200 45 -34.962372 -39.009247 -36.678371 25.357161
15240000000 -17.647112 -31.429974 -200 45 -34.839054 -105.35092 -28.056208 -59.974514
15250000000 -17.902578 -38.603249 -200 45 -34.746403 -170.81731 -24.399977 -87.637238
15260000000 -18.431833 -43.446949 -200 45 -34.581245 121.19092 -23.630524 -102.56947
15270000000 -18.78709 -49.792606 -200 45 -34.812763 53.506027 -23.381075 -107.23506
15280000000 -19.762646 -57.553291 -200 45 -35.171001 -11.400176 -22.325871 -103.27921
15290000000 -21.483328 -64.099556 -200 45 -35.013222 -75.442574 -19.940199 -107.69614
15300000000 -24.673182 -61.868271 -200 45 -34.673267 -142.06422 -18.286736 -122.35995
15310000000 -26.097385 -38.715553 -200 45 -34.821983 149.56543 -18.027088 -140.10068
15320000000 -23.93186 -22.755569 -200 45 -34.910408 84.180641 -19.303705 -159.18349
15330000000 -21.799208 -25.86549 -200 45 -34.957146 16.862957 -22.631651 -169.68538
15340000000 -20.777145 -31.396133 -200 45 -34.978477 -47.771118 -28.214806 -159.70955
15350000000 -20.053616 -39.293091 -200 45 -34.845997 -115.38573 -26.957985 -109.09012
15360000000 -19.72373 -47.106277 -200 45 -35.153111 177.76202 -22.722647 -107.47436
