!Keysight Technologies,P9374A,MY57211810,A.19.30.04
!Date: Friday, May 02, 2025 09:00:39
!Correction: S11(Off) 
!S21(Off) 
!S12(Off) 
!S22(Off) 
!S2P File: Measurements: S11, S21, S12, S22:
# Hz S  dB   R 50
13000000000 -11.877883 111.90877 -200 45 -49.778839 101.73212 -12.945955 -175.88069
13010000000 -12.868955 107.11511 -200 45 -53.903893 32.79665 -18.895262 -176.5883
13020000000 -13.76435 105.27242 -200 45 -55.862694 -18.717016 -19.028309 -117.38378
13030000000 -14.971197 106.13483 -200 45 -52.590801 -59.247337 -13.562095 -115.40483
13040000000 -15.910939 111.76276 -200 45 -48.8046 -137.66768 -11.177012 -129.50247
13050000000 -15.954976 122.1142 -200 45 -48.609173 138.42386 -10.691324 -146.71188
13060000000 -14.825417 128.73643 -200 45 -50.563572 62.057571 -12.196434 -161.77664
13070000000 -13.572426 128.00594 -200 45 -52.140537 -5.2639232 -15.57209 -159.90932
13080000000 -12.852118 124.16509 -200 45 -52.627384 -59.91481 -15.536695 -135.21234
13090000000 -12.424912 120.30593 -200 45 -51.93745 -122.97428 -12.607849 -132.72487
13100000000 -12.093104 115.92097 -200 45 -51.310791 164.83176 -11.068201 -144.93011
13110000000 -11.869306 110.3223 -200 45 -53.083214 96.822304 -11.192761 -160.64442
13120000000 -12.077052 103.02095 -200 45 -51.609848 45.193012 -13.226443 -176.19034
13130000000 -13.175908 97.236893 -200 45 -49.709141 -32.767754 -18.936119 -175.03017
13140000000 -14.520313 96.600349 -200 45 -51.180336 -117.82929 -18.289614 -117.34134
13150000000 -15.657307 102.42941 -200 45 -55.607857 -172.47896 -12.819411 -119.18275
13160000000 -15.70198 110.14237 -200 45 -52.790775 144.18132 -10.700507 -134.77905
13170000000 -15.319201 115.37442 -200 45 -50.671627 68.104546 -10.366503 -151.40195
13180000000 -14.826323 119.03215 -200 45 -51.257713 -11.764506 -11.691186 -165.99294
13190000000 -13.79162 121.69464 -200 45 -53.185596 -83.521736 -15.044827 -166.96996
13200000000 -12.759787 120.32739 -200 45 -55.198727 -122.04173 -15.296096 -141.23274
13210000000 -11.90675 113.47093 -200 45 -51.242039 169.42456 -12.242144 -140.37643
13220000000 -11.814475 106.38838 -200 45 -50.008053 95.372139 -10.980375 -152.752
13230000000 -12.285939 99.568649 -200 45 -51.634689 5.7446365 -11.067384 -168.20076
13240000000 -13.096704 96.374634 -200 45 -54.619041 -43.061653 -13.202682 174.35086
13250000000 -14.070535 95.439064 -200 45 -52.638763 -83.980736 -20.055441 177.81937
13260000000 -15.102597 96.985191 -200 45 -49.474514 -165.43367 -17.535 -122.84164
13270000000 -16.022371 105.38367 -200 45 -50.019188 111.29325 -12.79902 -128.79585
13280000000 -15.935472 115.29111 -200 45 -51.213116 41.21801 -10.851382 -142.91792
13290000000 -14.617463 123.1645 -200 45 -53.538864 -27.905075 -10.510968 -159.79091
13300000000 -13.251566 123.14887 -200 45 -54.335667 -78.855881 -12.137491 -173.36888
13310000000 -12.297471 119.41713 -200 45 -52.655449 -123.66467 -14.91595 -168.28229
13320000000 -11.690379 115.00674 -200 45 -50.038937 151.66591 -13.886586 -151.65022
13330000000 -11.429755 108.51622 -200 45 -50.914673 76.353737 -11.901574 -155.90047
13340000000 -11.583657 102.43414 -200 45 -52.476688 13.240699 -10.968071 -166.83864
13350000000 -12.400758 96.278275 -200 45 -51.03923 -52.565807 -11.345878 175.91386
13360000000 -13.725307 95.794197 -200 45 -51.751331 -124.13483 -14.916336 162.3063
13370000000 -14.8381 100.9872 -200 45 -53.25909 168.97092 -19.246534 -170.48207
13380000000 -15.019565 109.30633 -200 45 -53.044048 120.75356 -15.841128 -143.88083
13390000000 -14.538267 114.70102 -200 45 -51.387344 50.171246 -12.641625 -146.63211
13400000000 -14.074194 118.64737 -200 45 -50.06015 -13.390829 -10.742435 -160.57211
13410000000 -13.028618 121.43368 -200 45 -49.770733 -97.490662 -11.118488 -178.1048
13420000000 -11.925397 119.45464 -200 45 -53.240757 -163.09109 -13.418602 175.9931
13430000000 -11.130054 112.91324 -200 45 -51.999626 135.2356 -14.261105 -172.26039
13440000000 -11.207103 104.64041 -200 45 -52.215126 69.501869 -13.210987 -168.35075
13450000000 -11.935104 99.095001 -200 45 -51.257603 13.74353 -11.774776 -169.24391
13460000000 -12.849355 97.13327 -200 45 -50.591492 -59.481873 -10.619671 176.8607
13470000000 -13.690454 98.598 -200 45 -49.838593 -134.64558 -12.076244 159.68346
13480000000 -14.109035 100.5203 -200 45 -51.529491 156.48978 -15.278774 157.87526
13490000000 -14.913575 103.39719 -200 45 -52.356667 85.773483 -17.654902 172.73996
13500000000 -15.154427 111.30499 -200 45 -53.836708 35.033108 -16.624533 -159.78616
13510000000 -14.344904 118.39054 -200 45 -52.219383 -26.584484 -12.733176 -159.02682
13520000000 -13.160568 119.82646 -200 45 -51.015129 -92.28109 -11.339722 -174.73534
13530000000 -12.253899 115.54511 -200 45 -49.579647 -164.90001 -12.04613 174.69798
13540000000 -12.080856 111.25456 -200 45 -51.019104 113.53609 -12.800996 171.78317
13550000000 -12.093242 107.01793 -200 45 -52.459747 63.408485 -13.848103 171.81973
13560000000 -12.325473 103.95002 -200 45 -51.35743 -1.0429546 -13.644695 179.7506
13570000000 -12.723913 100.95715 -200 45 -51.137531 -75.819344 -12.321988 178.22063
13580000000 -13.384356 100.22136 -200 45 -52.185074 -143.00552 -11.77795 168.4935
13590000000 -14.065439 103.43071 -200 45 -51.538086 161.95074 -12.753667 157.88429
13600000000 -14.139539 106.80365 -200 45 -50.539455 93.256683 -14.768312 155.12366
13610000000 -14.122662 111.20073 -200 45 -50.224491 20.266491 -17.021351 164.91508
13620000000 -13.789754 113.06285 -200 45 -51.246418 -48.246223 -16.306978 -172.89473
13630000000 -13.25644 117.39773 -200 45 -52.199158 -106.72176 -13.392506 -170.40053
13640000000 -12.331666 116.58109 -200 45 -49.577503 -171.57887 -12.018704 179.43694
13650000000 -11.605721 113.16734 -200 45 -49.290836 109.49567 -12.032268 171.05823
13660000000 -11.484536 107.73224 -200 45 -50.989758 33.512394 -12.261496 164.70302
13670000000 -11.800171 103.74773 -200 45 -53.382278 -11.418368 -13.423052 160.95407
13680000000 -12.225891 103.49662 -200 45 -51.33588 -75.996399 -13.703978 169.12653
13690000000 -12.285329 103.20747 -200 45 -49.703934 -142.595 -12.332492 167.30775
13700000000 -12.293162 102.24002 -200 45 -49.481079 141.85397 -12.258075 158.04234
13710000000 -12.718946 99.403282 -200 45 -50.003044 71.068001 -13.003835 152.20403
13720000000 -13.58534 101.87434 -200 45 -50.655495 2.4688118 -14.318955 146.81583
13730000000 -13.576916 108.6045 -200 45 -50.434826 -56.408527 -17.009359 155.06461
13740000000 -12.819878 111.86687 -200 45 -49.927299 -129.09726 -15.978431 176.81889
13750000000 -11.954053 111.286 -200 45 -51.583187 157.66417 -13.50639 178.38377
13760000000 -11.601981 107.21014 -200 45 -51.428665 111.32054 -12.111099 170.61487
13770000000 -11.510899 104.89914 -200 45 -49.689365 37.117565 -11.919918 161.83786
13780000000 -11.385405 102.67455 -200 45 -50.171642 -31.72224 -12.40057 154.87827
13790000000 -11.291685 99.373741 -200 45 -49.478672 -101.51571 -13.315778 154.50121
13800000000 -11.340353 95.528023 -200 45 -49.928596 -177.34966 -13.116134 157.95753
13810000000 -11.902671 91.881432 -200 45 -52.721004 118.81446 -12.514844 154.10382
13820000000 -12.508286 90.606033 -200 45 -50.951878 68.292664 -12.810178 148.13913
13830000000 -13.327376 92.296303 -200 45 -50.285488 -1.4778006 -13.396253 142.0731
13840000000 -13.569598 96.671318 -200 45 -50.189411 -77.601028 -15.590524 138.56891
13850000000 -13.387392 102.10623 -200 45 -52.312 -137.15628 -17.193602 156.57585
13860000000 -12.618101 104.66083 -200 45 -49.242512 161.40051 -15.666336 168.7643
13870000000 -11.722605 103.14475 -200 45 -49.528576 80.458488 -13.76569 169.62323
13880000000 -11.265329 99.269615 -200 45 -51.388393 10.762657 -12.942975 162.86609
13890000000 -11.09239 94.680542 -200 45 -50.986778 -45.63586 -12.757077 157.90434
13900000000 -11.200556 91.010513 -200 45 -50.553223 -114.76009 -13.07772 153.08324
13910000000 -11.254222 87.67466 -200 45 -51.404526 173.85286 -13.485023 154.21982
13920000000 -11.52097 83.929321 -200 45 -51.527481 111.77362 -12.804212 153.10429
13930000000 -12.215827 79.323669 -200 45 -53.228695 45.758324 -12.969609 146.02191
13940000000 -13.584528 80.618729 -200 45 -51.439457 -3.4753866 -13.648769 143.16299
13950000000 -14.330038 89.134506 -200 45 -49.457695 -79.20578 -14.250849 138.95839
13960000000 -13.54869 98.453384 -200 45 -49.17857 -154.12285 -16.394539 139.72527
13970000000 -12.343066 99.475174 -200 45 -50.629932 123.5806 -16.708241 156.81146
13980000000 -11.508321 96.458633 -200 45 -52.978348 66.679268 -15.15747 158.53003
13990000000 -11.175858 93.066414 -200 45 -53.891838 17.180784 -15.219487 160.8674
14000000000 -10.876191 89.923698 -200 45 -50.888062 -40.814404 -13.764913 162.83847
14010000000 -10.5942 86.335648 -200 45 -49.379749 -122.92125 -13.276512 155.63467
14020000000 -10.561636 79.861038 -200 45 -50.140713 160.75839 -13.191081 153.90533
14030000000 -11.229354 74.216187 -200 45 -52.532997 91.751503 -12.74644 149.61929
14040000000 -12.433087 72.159294 -200 45 -52.991257 42.615047 -12.770403 142.64615
14050000000 -13.54311 76.885468 -200 45 -51.495113 -24.66433 -13.782282 136.46962
14060000000 -13.775632 85.071785 -200 45 -51.395992 -93.709953 -14.505863 139.34032
14070000000 -13.111973 90.350311 -200 45 -51.473419 -158.94841 -15.028086 136.52008
14080000000 -12.202806 92.630287 -200 45 -50.897602 128.85945 -15.899335 143.10179
14090000000 -11.312067 91.074211 -200 45 -52.464882 64.341522 -15.326881 144.59195
14100000000 -10.607924 87.990135 -200 45 -51.075096 1.8546703 -16.158947 144.63553
14110000000 -10.11969 82.167366 -200 45 -51.79776 -74.312218 -15.905475 156.71793
14120000000 -10.199411 75.925606 -200 45 -52.135643 -127.74645 -14.465467 156.98994
14130000000 -10.521543 70.659233 -200 45 -51.014107 157.0166 -13.368871 155.68362
14140000000 -11.224146 67.043442 -200 45 -52.655628 92.214813 -12.297468 148.21413
14150000000 -11.96634 65.332336 -200 45 -51.35593 29.257946 -12.309536 137.02934
14160000000 -13.016939 66.798157 -200 45 -51.581749 -45.14299 -13.400491 129.41899
14170000000 -13.518661 73.933777 -200 45 -54.232296 -100.20987 -14.662749 127.75347
14180000000 -12.956802 80.716187 -200 45 -50.816952 -157.04051 -15.908492 131.96046
14190000000 -11.881604 82.579384 -200 45 -49.634411 123.16723 -15.527173 138.78656
14200000000 -10.958989 79.297401 -200 45 -50.376644 45.911499 -15.165817 135.69572
14210000000 -10.605544 74.692314 -200 45 -51.978996 -21.803143 -16.060333 131.98192
14220000000 -10.376069 70.588524 -200 45 -56.05817 -91.826103 -17.5058 140.312
14230000000 -10.336344 65.741577 -200 45 -53.60313 -120.53866 -16.691757 151.70595
14240000000 -10.437236 60.257378 -200 45 -50.38736 173.70204 -15.408811 156.93742
14250000000 -11.13699 54.752659 -200 45 -48.065781 90.597794 -13.188697 155.45659
14260000000 -12.218323 53.657326 -200 45 -48.50386 -2.3765078 -11.958002 140.38208
14270000000 -12.990665 57.168983 -200 45 -52.660275 -85.853996 -13.030416 126.93228
14280000000 -13.138153 62.653858 -200 45 -60.501602 -114.30658 -14.36901 124.5466
14290000000 -12.692799 65.293976 -200 45 -52.456295 -145.3009 -15.403254 121.67903
14300000000 -12.288158 66.334091 -200 45 -48.990627 130.66501 -16.98242 129.55754
14310000000 -11.781992 66.670349 -200 45 -48.293392 39.969429 -15.702663 136.51128
14320000000 -11.150661 65.090416 -200 45 -51.257515 -46.031857 -15.447606 127.67859
14330000000 -10.541028 60.407619 -200 45 -55.603939 -85.092133 -16.80854 124.11189
14340000000 -10.549919 53.327145 -200 45 -52.046799 -148.93909 -18.807753 129.69601
14350000000 -11.113569 48.902977 -200 45 -53.811226 142.45374 -18.497612 150.5235
14360000000 -11.706255 47.13755 -200 45 -53.539654 92.878181 -16.093817 155.80447
14370000000 -12.145026 46.973675 -200 45 -51.018959 25.280956 -14.000323 151.68195
14380000000 -12.461877 46.808418 -200 45 -49.43644 -49.023685 -12.750385 137.7005
14390000000 -13.035175 46.997108 -200 45 -49.626038 -132.32596 -13.518559 122.78077
14400000000 -13.340945 51.67807 -200 45 -52.726429 152.82706 -15.031533 117.41725
14410000000 -13.050709 56.392365 -200 45 -55.050327 107.49139 -16.537678 115.65217
14420000000 -12.041036 57.974522 -200 45 -52.357967 55.164196 -17.88983 122.71786
14430000000 -11.369885 53.955307 -200 45 -50.69556 -17.691223 -17.268185 131.02129
14440000000 -11.144767 49.958607 -200 45 -50.70702 -95.725479 -16.5397 124.62105
14450000000 -11.102427 46.335091 -200 45 -51.945862 -161.83904 -17.946943 118.19957
14460000000 -11.069071 42.899128 -200 45 -52.788445 145.12263 -20.198591 124.05902
14470000000 -11.183405 38.767368 -200 45 -49.842033 78.819611 -20.420017 148.46736
14480000000 -11.731008 35.038773 -200 45 -48.572968 -5.9663343 -17.134232 157.23003
14490000000 -12.319529 34.416092 -200 45 -51.105679 -90.885345 -14.777594 148.65317
14500000000 -12.856359 34.693527 -200 45 -56.634792 -138.26657 -13.733546 135.87471
14510000000 -13.191193 37.222404 -200 45 -53.617168 -174.26779 -13.756068 121.12397
14520000000 -13.23676 40.646885 -200 45 -49.430309 116.56856 -15.138588 105.02923
14530000000 -12.873842 43.964752 -200 45 -48.233006 31.21043 -18.859886 102.94883
14540000000 -11.97059 45.044903 -200 45 -49.358326 -49.355717 -19.271112 121.64052
14550000000 -11.181704 41.117447 -200 45 -51.297855 -121.08438 -18.857702 120.48462
14560000000 -10.889126 35.10804 -200 45 -54.696751 -169.72272 -18.794008 123.4566
14570000000 -11.138628 29.903341 -200 45 -51.223625 137.85464 -18.462179 115.03633
14580000000 -11.434694 27.173773 -200 45 -49.70668 57.913586 -21.876461 105.92849
14590000000 -11.590935 24.355742 -200 45 -50.597839 -9.2650251 -24.365515 153.45905
14600000000 -11.966356 20.293472 -200 45 -50.436855 -83.45134 -18.206675 160.67427
14610000000 -12.829629 16.292068 -200 45 -51.934063 -141.59708 -15.670448 147.21075
14620000000 -14.370036 19.397839 -200 45 -51.207016 151.3633 -14.403746 130.6862
14630000000 -14.709726 30.133545 -200 45 -50.879227 85.032127 -14.542206 110.99244
14640000000 -13.499786 36.596977 -200 45 -50.362549 13.368912 -16.511766 92.550102
14650000000 -12.400783 34.736469 -200 45 -51.565937 -54.364674 -20.894878 86.846405
14660000000 -11.873773 30.148035 -200 45 -51.101238 -113.09684 -22.937305 114.21191
14670000000 -11.771622 26.552645 -200 45 -50.45509 177.54898 -20.369961 123.35494
14680000000 -11.576081 23.301846 -200 45 -50.543839 100.73562 -19.520187 110.20776
14690000000 -11.413907 18.337889 -200 45 -52.220665 36.784569 -21.034019 95.490654
14700000000 -11.646428 11.292187 -200 45 -51.928493 -21.052141 -26.233126 86.569359
14710000000 -12.666183 5.2187767 -200 45 -51.997276 -86.051476 -28.991293 177.97119
14720000000 -14.176508 4.4406328 -200 45 -51.649441 -142.2299 -19.162477 170.30309
14730000000 -15.288082 11.362704 -200 45 -49.292831 144.27405 -16.030178 144.7155
14740000000 -15.4718 19.842901 -200 45 -49.089783 61.368084 -15.446073 120.73355
14750000000 -14.742654 25.939873 -200 45 -51.753883 -9.3565197 -16.145195 98.512772
14760000000 -13.746243 27.781429 -200 45 -52.806507 -70.764664 -18.897305 75.960258
14770000000 -12.751134 25.637241 -200 45 -53.148201 -119.82079 -25.55315 73.832146
14780000000 -12.063219 19.958988 -200 45 -50.562389 177.03938 -25.643744 120.7335
14790000000 -11.976748 13.691895 -200 45 -50.085827 99.266953 -21.941071 117.77849
14800000000 -12.185128 7.5449209 -200 45 -51.923637 29.52335 -21.136311 96.25489
14810000000 -12.733422 2.6628771 -200 45 -51.651363 -27.898212 -24.221655 65.379868
14820000000 -13.448895 -2.1565557 -200 45 -50.703808 -96.03344 -43.233761 -2.3509259
14830000000 -14.706244 -5.0235109 -200 45 -50.589191 -168.46899 -25.551838 -163.6581
14840000000 -16.698872 -1.3262666 -200 45 -50.927193 119.72362 -19.342648 168.07675
14850000000 -17.205818 14.987836 -200 45 -52.805672 52.55941 -16.804729 136.6219
14860000000 -15.654577 24.942715 -200 45 -52.791698 2.4433029 -16.801977 106.07301
14870000000 -13.990855 22.835182 -200 45 -50.661774 -57.743595 -18.776787 81.668427
14880000000 -13.205908 17.240763 -200 45 -48.823002 -136.5909 -21.779957 56.868778
14890000000 -12.954348 12.513662 -200 45 -49.614655 141.38451 -31.830189 48.687325
14900000000 -12.719801 7.8829126 -200 45 -52.797825 67.136841 -28.306154 119.87365
14910000000 -12.5461 2.4239004 -200 45 -55.792244 30.507813 -25.222887 93.113007
14920000000 -12.758366 -6.3589077 -200 45 -51.734554 -27.007645 -27.43294 64.351563
14930000000 -13.977177 -14.430095 -200 45 -50.021461 -99.861977 -32.506275 20.409035
14940000000 -15.994484 -16.090427 -200 45 -50.065228 -175.93059 -31.945478 -98.561066
14950000000 -17.51939 -5.7795715 -200 45 -50.236698 114.50877 -23.861502 -154.92891
14960000000 -17.130512 5.1709123 -200 45 -50.362278 37.096844 -20.168924 162.90297
14970000000 -16.230547 8.6931314 -200 45 -53.792904 -30.270077 -19.635359 126.29162
14980000000 -15.473128 9.1677475 -200 45 -53.34993 -71.406105 -20.820761 98.148033
14990000000 -14.805852 7.3702598 -200 45 -51.12981 -138.14178 -22.390392 70.128647
15000000000 -14.098263 4.1769323 -200 45 -50.616619 148.27982 -26.430161 38.282425
15010000000 -13.609444 -3.0094442 -200 45 -51.196396 82.301552 -32.990322 21.757946
15020000000 -13.887172 -11.636538 -200 45 -49.954136 10.594537 -41.520897 14.793375
15030000000 -14.684935 -17.570314 -200 45 -51.188847 -68.206345 -38.688847 40.641449
15040000000 -15.744813 -21.23428 -200 45 -53.742298 -127.02065 -32.396275 -30.857162
15050000000 -16.867836 -21.278111 -200 45 -52.470764 178.14886 -28.38085 -84.095451
15060000000 -18.101973 -19.624302 -200 45 -51.799381 114.62303 -25.04863 -119.79372
15070000000 -18.739305 -10.375317 -200 45 -50.240673 45.450798 -23.121199 -152.30435
15080000000 -18.192623 -3.0617566 -200 45 -50.706825 -33.540161 -22.38743 176.95853
15090000000 -17.043436 -1.7614632 -200 45 -51.961849 -103.93092 -22.709219 143.80678
15100000000 -16.423979 -5.8666458 -200 45 -53.278328 -161.66208 -24.679253 104.99618
15110000000 -16.338886 -9.9568548 -200 45 -52.391682 140.71213 -28.288168 60.291645
15120000000 -16.184261 -11.291365 -200 45 -50.932899 74.478134 -31.672445 0.33358714
15130000000 -15.832516 -16.627453 -200 45 -50.571125 -3.6501653 -31.833385 -40.778648
15140000000 -15.820827 -23.411114 -200 45 -52.390099 -74.296738 -27.572695 -73.707283
15150000000 -16.576735 -32.280922 -200 45 -52.924858 -132.28711 -28.428101 -109.57889
15160000000 -18.284216 -34.854607 -200 45 -52.494663 165.01868 -28.648594 -81.391388
15170000000 -19.276409 -29.453379 -200 45 -52.961475 99.011322 -22.840355 -95.723808
15180000000 -19.298689 -25.464449 -200 45 -51.215752 38.314175 -20.954069 -122.33336
15190000000 -19.081331 -26.176941 -200 45 -51.246208 -32.531075 -21.279728 -142.89311
15200000000 -19.75856 -27.795059 -200 45 -51.507835 -107.71925 -20.853739 -158.58122
15210000000 -20.015278 -21.193312 -200 45 -51.446873 -168.57417 -21.58457 166.95827
15220000000 -19.100805 -16.899025 -200 45 -50.716156 120.82394 -27.699987 117.37218
15230000000 -17.683374 -20.21277 -200 45 -52.204865 44.72385 -37.27018 -3.2094088
15240000000 -17.16124 -30.91526 -200 45 -54.487999 -12.043927 -28.514423 -64.756348
15250000000 -17.673395 -40.77993 -200 45 -52.850662 -60.004879 -24.898928 -87.029968
15260000000 -18.5998 -45.793644 -200 45 -50.516071 -129.16344 -23.517956 -99.014557
15270000000 -19.225939 -50.154881 -200 45 -49.769894 150.08034 -22.99214 -109.15446
15280000000 -20.00058 -54.718208 -200 45 -51.195999 73.792267 -22.733013 -104.37957
15290000000 -21.303186 -61.162971 -200 45 -52.94157 11.874063 -19.848795 -105.70074
15300000000 -24.00811 -61.287567 -200 45 -52.527767 -41.893372 -18.045027 -123.03535
15310000000 -25.963985 -43.508266 -200 45 -51.230511 -114.05338 -18.223671 -141.69424
15320000000 -24.519169 -24.327923 -200 45 -51.492146 177.57706 -19.383591 -156.50645
15330000000 -22.146513 -24.058496 -200 45 -52.010639 110.15781 -22.260136 -171.31906
15340000000 -20.895124 -28.114904 -200 45 -53.090771 47.863293 -29.033731 -159.7881
15350000000 -19.60948 -36.345688 -200 45 -51.870548 -15.349445 -26.389549 -107.49857
15360000000 -19.045601 -48.531612 -200 45 -51.51421 -79.369766 -22.828077 -109.17745
