!Keysight Technologies,P9374A,MY57211810,A.19.30.04
!Date: Friday, May 02, 2025 08:58:35
!Correction: S11(Off) 
!S21(Off) 
!S12(Off) 
!S22(Off) 
!S2P File: Measurements: S11, S21, S12, S22:
# Hz S  dB   R 50
13000000000 -11.823947 113.33403 -200 45 -32.228531 -19.746593 -13.052072 -175.5114
13010000000 -12.499897 106.59548 -200 45 -32.017067 -85.938942 -18.543936 -174.58098
13020000000 -13.915376 102.63863 -200 45 -31.805965 -153.56975 -19.602209 -119.4718
13030000000 -15.356019 106.62785 -200 45 -32.029442 137.22287 -13.51591 -113.61643
13040000000 -15.838892 115.64255 -200 45 -32.448608 71.731422 -10.990266 -129.88748
13050000000 -15.471904 121.43858 -200 45 -32.228153 7.6063104 -10.817135 -147.65239
13060000000 -14.772028 125.82792 -200 45 -32.008587 -59.151432 -12.291274 -160.59933
13070000000 -13.9834 127.36941 -200 45 -32.072052 -127.70586 -15.296009 -159.59276
13080000000 -12.964443 126.4493 -200 45 -32.172123 165.7614 -15.714142 -136.82274
13090000000 -12.195029 121.70808 -200 45 -32.291588 98.328438 -12.689036 -131.56958
13100000000 -11.807715 114.67378 -200 45 -32.640602 31.606636 -10.944694 -144.49521
13110000000 -11.965847 108.61464 -200 45 -32.801105 -30.60952 -11.140821 -161.7406
13120000000 -12.33358 102.97176 -200 45 -32.2593 -96.715988 -13.444642 -176.00543
13130000000 -13.243444 98.728928 -200 45 -32.369339 -165.64136 -18.674656 -172.97495
13140000000 -14.305003 97.678368 -200 45 -32.501713 128.33257 -18.494537 -119.97076
13150000000 -15.520153 101.40199 -200 45 -32.480305 62.053322 -12.971297 -117.93393
13160000000 -15.697428 108.78475 -200 45 -32.735313 -5.2732415 -10.572308 -134.16849
13170000000 -15.575859 115.403 -200 45 -32.942833 -68.727608 -10.314288 -152.37175
13180000000 -14.797644 119.87676 -200 45 -32.562679 -133.05417 -11.901031 -166.00285
13190000000 -13.73032 122.78683 -200 45 -32.181927 158.3351 -14.853214 -165.21548
13200000000 -12.587798 119.00253 -200 45 -32.484085 90.07663 -15.273349 -143.89923
13210000000 -11.954604 113.26463 -200 45 -32.742626 24.003065 -12.490212 -138.96852
13220000000 -11.892413 105.74898 -200 45 -32.908466 -41.232506 -10.768358 -151.96358
13230000000 -12.357154 100.52566 -200 45 -32.867764 -104.90288 -10.986943 -169.77211
13240000000 -13.037187 96.708862 -200 45 -32.440132 -170.22156 -13.61054 174.52289
13250000000 -13.968141 95.333969 -200 45 -32.11969 122.02614 -19.30341 -178.69086
13260000000 -15.124601 96.469658 -200 45 -32.258041 52.765121 -18.163353 -125.70258
13270000000 -16.070101 104.62501 -200 45 -32.549942 -12.75998 -12.864278 -126.17148
13280000000 -15.984197 115.44708 -200 45 -32.401459 -78.106438 -10.6057 -143.30193
13290000000 -14.617595 123.34102 -200 45 -32.367863 -144.37936 -10.610818 -160.93686
13300000000 -13.275355 123.34026 -200 45 -32.188923 149.76228 -12.318044 -172.12511
13310000000 -12.182766 119.83425 -200 45 -32.074539 81.70089 -14.52347 -168.12201
13320000000 -11.641656 114.40775 -200 45 -32.300858 13.747984 -14.219646 -152.90176
13330000000 -11.414323 107.8652 -200 45 -32.552189 -52.198647 -11.864123 -154.21944
13340000000 -11.83254 101.67647 -200 45 -32.536781 -116.36189 -10.790907 -167.71494
13350000000 -12.549921 97.92057 -200 45 -32.274303 177.30661 -11.663889 175.30894
13360000000 -13.557474 97.397423 -200 45 -32.310169 111.25351 -14.661136 165.23848
13370000000 -14.371034 100.04128 -200 45 -32.088177 43.256645 -19.236837 -175.01843
13380000000 -15.228638 105.77549 -200 45 -32.202415 -23.317114 -16.249275 -140.87515
13390000000 -15.09649 115.39365 -200 45 -32.160809 -90.735672 -12.223416 -146.74843
13400000000 -14.03438 122.76308 -200 45 -32.328365 -157.72968 -10.910963 -162.16002
13410000000 -12.56719 121.82027 -200 45 -32.376389 137.03503 -11.381085 -176.92194
13420000000 -11.714038 117.26788 -200 45 -32.370384 70.442368 -12.937813 177.49484
13430000000 -11.411856 110.70713 -200 45 -32.310158 3.098243 -14.628135 -175.58241
13440000000 -11.563034 106.00395 -200 45 -32.668842 -64.23806 -13.297937 -165.13828
13450000000 -11.898335 101.1246 -200 45 -32.653339 -127.844 -11.399293 -170.59067
13460000000 -12.542118 98.294693 -200 45 -32.686726 165.35707 -11.0171 175.97673
13470000000 -13.441617 96.491951 -200 45 -32.533474 99.808456 -11.978934 162.26819
13480000000 -14.442061 98.943886 -200 45 -32.545376 32.031395 -14.856316 156.04073
13490000000 -15.069451 105.22684 -200 45 -32.561001 -34.177818 -18.534899 172.23657
13500000000 -14.942053 112.3513 -200 45 -32.851044 -101.11613 -15.963044 -158.4537
13510000000 -14.272099 117.92468 -200 45 -32.839836 -165.57217 -12.860604 -161.47926
13520000000 -13.216594 119.03047 -200 45 -32.691032 128.27113 -11.655351 -173.41165
13530000000 -12.309414 116.54889 -200 45 -32.772728 60.698322 -11.691613 176.0193
13540000000 -11.960186 111.25502 -200 45 -32.954617 -5.825726 -12.902719 169.51981
13550000000 -12.033183 106.57686 -200 45 -33.056335 -69.901283 -14.005525 172.9998
13560000000 -12.429671 103.117 -200 45 -32.926712 -135.8503 -13.454691 -179.59515
13570000000 -12.862221 102.20427 -200 45 -32.954449 158.34824 -12.353296 177.34039
13580000000 -13.199661 101.78901 -200 45 -32.66116 92.984238 -11.894382 168.70932
13590000000 -13.769958 101.58392 -200 45 -32.664677 24.523756 -12.670671 158.97905
13600000000 -14.361802 104.99637 -200 45 -32.918488 -41.598 -14.703759 153.81934
13610000000 -14.461981 111.55347 -200 45 -32.805092 -106.16486 -17.194998 165.60976
13620000000 -13.680309 116.44011 -200 45 -32.640812 -173.97351 -16.122448 -172.78313
13630000000 -12.834125 116.69575 -200 45 -32.87804 119.13412 -13.551725 -171.29712
13640000000 -12.201195 114.1515 -200 45 -32.99086 54.843376 -12.052215 -179.26686
13650000000 -11.949333 111.83926 -200 45 -32.844048 -11.551597 -11.821923 170.68875
13660000000 -11.739996 109.24143 -200 45 -32.852325 -78.075226 -12.48172 163.49796
13670000000 -11.698342 105.92272 -200 45 -32.860359 -143.35736 -13.405091 163.66664
13680000000 -11.826055 103.142 -200 45 -32.670788 150.09988 -13.44983 167.1131
13690000000 -12.172943 101.18667 -200 45 -32.736382 82.824371 -12.664084 167.17076
13700000000 -12.600224 100.36608 -200 45 -32.894123 17.664627 -12.172188 159.97942
13710000000 -13.059511 101.50994 -200 45 -32.639568 -47.213585 -12.768599 150.6521
13720000000 -13.296282 103.58712 -200 45 -32.505405 -115.88162 -14.656132 146.54651
13730000000 -13.370179 107.6819 -200 45 -32.654736 178.15634 -16.756033 156.03004
13740000000 -12.840865 110.52386 -200 45 -32.513607 111.88885 -16.051674 176.08907
13750000000 -12.157106 110.66075 -200 45 -32.557961 44.653683 -13.543633 178.66957
13760000000 -11.700006 108.39347 -200 45 -32.734661 -22.635727 -12.114502 170.74983
13770000000 -11.400422 105.48865 -200 45 -32.817513 -87.268005 -11.887878 161.80798
13780000000 -11.331957 102.04563 -200 45 -32.757462 -153.05867 -12.451176 154.8909
13790000000 -11.313429 99.327736 -200 45 -32.711555 139.31491 -13.212492 155.04208
13800000000 -11.368755 95.618385 -200 45 -32.808216 74.038589 -13.172935 156.87253
13810000000 -11.857177 91.451172 -200 45 -32.635487 7.7371197 -12.641022 155.24796
13820000000 -12.635885 90.377029 -200 45 -32.743835 -59.36142 -12.519255 148.33398
13830000000 -13.385107 92.597809 -200 45 -32.817211 -125.01761 -13.585831 140.51276
13840000000 -13.596797 98.170532 -200 45 -32.753139 168.99283 -15.574559 140.71587
13850000000 -13.17674 102.08955 -200 45 -32.729195 102.04755 -17.123238 154.76993
13860000000 -12.539021 103.01315 -200 45 -32.726349 34.968376 -15.685493 169.04843
13870000000 -11.991715 102.71819 -200 45 -32.923943 -30.994537 -13.860278 169.62375
13880000000 -11.393642 100.42758 -200 45 -32.984406 -97.317101 -12.87369 163.65646
13890000000 -10.997582 96.042839 -200 45 -33.155067 -162.92854 -12.716082 156.83824
13900000000 -10.929557 90.977356 -200 45 -33.133705 131.78612 -13.24915 153.92419
13910000000 -11.161656 86.028511 -200 45 -33.066513 66.366013 -13.227157 154.10612
13920000000 -11.803206 82.320663 -200 45 -33.012119 -0.38487795 -12.990035 152.26901
13930000000 -12.542714 81.391182 -200 45 -33.002651 -65.69548 -12.982542 147.75314
13940000000 -13.36906 83.293457 -200 45 -32.894661 -132.74516 -13.358094 141.98109
13950000000 -13.84628 88.371185 -200 45 -32.991127 160.25316 -14.605566 138.3331
13960000000 -13.627689 95.3312 -200 45 -33.180202 94.994308 -16.261608 142.30539
13970000000 -12.726885 99.037956 -200 45 -33.028893 28.66305 -16.361631 153.35538
13980000000 -11.680516 98.770355 -200 45 -33.095032 -37.13541 -15.753161 160.02097
13990000000 -10.892621 94.751411 -200 45 -33.001873 -104.22807 -14.785001 161.86337
14000000000 -10.572563 89.159958 -200 45 -33.336384 -170.48422 -13.841984 160.6613
14010000000 -10.604969 84.135918 -200 45 -33.355545 124.65123 -13.494116 157.06847
14020000000 -10.873729 79.267227 -200 45 -33.385166 59.818748 -13.029346 154.02727
14030000000 -11.400596 75.727905 -200 45 -33.084667 -5.7810378 -12.684926 149.06323
14040000000 -12.294039 73.983376 -200 45 -33.005924 -72.739433 -12.996263 142.23906
14050000000 -13.150657 76.162979 -200 45 -33.045845 -138.72119 -13.573721 138.3674
14060000000 -13.859064 82.678017 -200 45 -33.005066 154.36533 -14.496831 136.82028
14070000000 -13.292086 90.791725 -200 45 -32.991627 88.609932 -15.288598 138.30666
14080000000 -12.264427 93.513054 -200 45 -32.920555 22.380655 -15.484876 142.64322
14090000000 -11.181883 91.807182 -200 45 -32.939728 -44.919865 -15.651498 143.3951
14100000000 -10.497764 87.436348 -200 45 -32.943027 -111.4264 -16.133602 146.4276
14110000000 -10.188899 81.651131 -200 45 -33.126751 -177.05273 -15.685598 154.7605
14120000000 -10.192111 75.964508 -200 45 -32.736423 117.33843 -14.761835 157.71706
14130000000 -10.534982 70.6399 -200 45 -32.948696 48.393642 -13.21744 155.98982
14140000000 -11.186613 66.704262 -200 45 -32.914211 -15.89537 -12.324141 148.04985
14150000000 -12.094617 65.690086 -200 45 -32.930511 -82.464958 -12.35165 136.87614
14160000000 -12.923548 67.480789 -200 45 -33.070412 -148.43146 -13.367525 129.8952
14170000000 -13.29874 73.66214 -200 45 -32.893333 145.92914 -14.685548 127.75351
14180000000 -13.026066 79.176826 -200 45 -32.701691 79.343735 -15.856467 131.89339
14190000000 -12.071856 82.384766 -200 45 -32.808094 11.179139 -15.52696 138.27504
14200000000 -11.121771 80.643959 -200 45 -33.001686 -55.385067 -15.317197 135.99495
14210000000 -10.360169 75.982109 -200 45 -32.999813 -120.14643 -15.963559 132.55478
14220000000 -10.168838 69.573425 -200 45 -33.142021 172.84775 -17.350662 138.60191
14230000000 -10.316766 63.841187 -200 45 -33.072617 108.10654 -17.144173 152.2345
14240000000 -10.786363 59.502216 -200 45 -32.851326 41.374119 -15.072522 158.4903
14250000000 -11.320053 57.015625 -200 45 -33.106556 -26.648148 -13.170718 153.00868
14260000000 -11.986134 55.695171 -200 45 -33.237469 -91.216553 -12.352973 141.3246
14270000000 -12.561594 55.990643 -200 45 -33.16935 -157.25562 -12.712877 128.8295
14280000000 -13.252042 59.389973 -200 45 -33.093494 138.29774 -14.307387 121.89545
14290000000 -13.150533 65.336235 -200 45 -33.098629 68.990067 -15.736259 122.68805
14300000000 -12.397612 69.228065 -200 45 -33.179047 4.8096709 -16.700876 130.95274
14310000000 -11.439365 67.828194 -200 45 -33.167358 -62.238148 -15.738323 134.21349
14320000000 -10.866651 63.720646 -200 45 -33.201439 -127.52925 -15.632596 129.39824
14330000000 -10.67739 58.027397 -200 45 -33.278755 164.13995 -16.604336 123.3006
14340000000 -10.911998 53.890106 -200 45 -33.590233 100.81004 -18.853373 130.22937
14350000000 -11.132183 50.661243 -200 45 -33.306816 35.316792 -18.632729 149.38931
14360000000 -11.484388 48.144825 -200 45 -33.282761 -31.503927 -16.065996 157.44188
14370000000 -11.941398 45.775074 -200 45 -33.29784 -97.374863 -13.874243 150.52725
14380000000 -12.579403 45.504906 -200 45 -33.423595 -163.56526 -13.003708 137.67978
14390000000 -13.228146 47.090927 -200 45 -33.362942 131.51546 -13.376295 124.36765
14400000000 -13.415454 53.186916 -200 45 -33.175346 64.552689 -14.91089 116.0657
14410000000 -12.843154 56.577408 -200 45 -33.46743 -1.7166182 -16.748516 115.0649
14420000000 -12.014681 57.399567 -200 45 -33.274185 -65.725632 -17.818436 124.86375
14430000000 -11.400642 53.638039 -200 45 -33.003353 -132.31995 -17.102966 129.30386
14440000000 -11.176123 49.966118 -200 45 -33.004124 159.20439 -16.747301 124.83634
14450000000 -11.125274 46.441948 -200 45 -33.279888 93.893951 -17.809685 118.46655
14460000000 -11.101104 43.228588 -200 45 -33.173447 28.190571 -20.282328 124.80386
14470000000 -11.235611 39.356441 -200 45 -33.046154 -37.206966 -20.301439 146.37221
14480000000 -11.554116 35.65255 -200 45 -33.024971 -103.94258 -17.367893 158.17969
14490000000 -12.230467 32.877869 -200 45 -32.882477 -170.86345 -14.698574 149.77277
14500000000 -12.995816 33.972645 -200 45 -33.215954 121.84738 -13.585302 135.2951
14510000000 -13.405346 38.003757 -200 45 -33.173618 57.903004 -13.900644 119.71925
14520000000 -13.188031 42.565914 -200 45 -33.009953 -7.7624903 -15.393691 107.4568
14530000000 -12.498248 44.241913 -200 45 -32.901489 -75.077034 -18.051865 103.52352
14540000000 -11.903639 42.714428 -200 45 -32.816624 -141.35794 -20.090811 117.18694
14550000000 -11.4563 40.091656 -200 45 -32.881615 150.86302 -18.786333 126.56669
14560000000 -11.168526 36.51899 -200 45 -33.089783 84.66906 -18.169415 120.94232
14570000000 -10.966568 32.358143 -200 45 -33.186657 19.396986 -19.003332 111.87539
14580000000 -11.018232 27.063034 -200 45 -32.930523 -45.452099 -22.096439 112.50738
14590000000 -11.444159 21.658525 -200 45 -32.931694 -113.21856 -23.768999 146.41937
14600000000 -12.33323 18.061096 -200 45 -32.959446 -179.35561 -18.801653 161.64705
14610000000 -13.336008 18.611094 -200 45 -32.988964 114.28777 -15.471997 149.2863
14620000000 -14.074665 23.156086 -200 45 -33.009544 47.175983 -14.27803 129.59491
14630000000 -14.058772 29.458431 -200 45 -33.047195 -18.31201 -14.637461 110.77317
14640000000 -13.525588 32.399883 -200 45 -33.097279 -84.76313 -16.59115 93.437744
14650000000 -12.878769 33.898361 -200 45 -33.059387 -150.743 -20.655716 86.534874
14660000000 -12.140505 32.602898 -200 45 -33.179249 142.66628 -22.967701 114.75546
14670000000 -11.522922 28.781044 -200 45 -33.131714 77.073914 -20.583179 123.32939
14680000000 -11.178179 22.746407 -200 45 -33.122681 9.8174753 -19.328865 110.89823
14690000000 -11.331848 16.080513 -200 45 -33.261372 -55.219143 -20.900431 94.996796
14700000000 -11.914273 9.7702599 -200 45 -33.185608 -122.28856 -26.7335 85.155884
14710000000 -12.964467 6.2773666 -200 45 -33.408546 173.20479 -28.452284 174.11053
14720000000 -14.095003 6.6428504 -200 45 -33.102093 106.07878 -19.403713 169.61566
14730000000 -15.052796 11.530397 -200 45 -33.326397 40.207424 -16.16481 146.30458
14740000000 -15.251975 18.443848 -200 45 -33.179508 -24.423336 -15.18251 120.93338
14750000000 -14.846302 24.511303 -200 45 -32.969772 -92.502731 -16.230555 97.656204
14760000000 -13.916354 27.366104 -200 45 -33.178867 -159.36783 -18.996223 76.464287
14770000000 -12.939256 26.658325 -200 45 -33.280663 134.46889 -25.236958 74.992165
14780000000 -12.0182 21.430618 -200 45 -33.404564 69.626434 -26.016254 120.69705
14790000000 -11.778679 14.366523 -200 45 -33.163048 3.5801699 -21.755175 117.74072
14800000000 -11.887424 6.5580564 -200 45 -33.326195 -63.091217 -21.315649 95.488091
14810000000 -12.776319 -0.0082930764 -200 45 -33.210762 -128.36273 -24.412685 67.898758
14820000000 -13.862934 -3.3933554 -200 45 -33.116417 163.99698 -39.026173 24.239193
14830000000 -15.208028 -1.9651532 -200 45 -33.407631 98.765976 -25.272785 -158.00203
14840000000 -16.191988 2.8585329 -200 45 -33.246021 33.508942 -19.181379 166.10849
14850000000 -16.496393 12.287568 -200 45 -33.144207 -33.385647 -17.015499 137.15608
14860000000 -15.871128 19.376278 -200 45 -33.319721 -100.10544 -16.765762 107.38104
14870000000 -14.733731 23.243256 -200 45 -33.475655 -164.91682 -18.496201 80.301399
14880000000 -13.432293 21.365702 -200 45 -32.98793 130.49054 -22.418373 56.084564
14890000000 -12.507761 15.252458 -200 45 -33.0853 60.87085 -30.736382 58.753849
14900000000 -12.171627 6.7282796 -200 45 -33.335087 -4.0226617 -29.228436 111.99168
14910000000 -12.474829 -1.7828629 -200 45 -33.348316 -68.293167 -26.122458 99.492935
14920000000 -13.320527 -8.5102301 -200 45 -33.111263 -134.9169 -26.083536 69.541534
14930000000 -14.570745 -11.950635 -200 45 -33.093479 158.63535 -30.938011 11.838947
14940000000 -15.820371 -10.737663 -200 45 -33.019611 92.343628 -30.839954 -102.12054
14950000000 -16.638927 -5.9948683 -200 45 -33.035175 25.588047 -23.75556 -158.98619
14960000000 -17.017298 0.23312564 -200 45 -33.200264 -41.404324 -20.738354 161.23602
14970000000 -16.795345 6.8959303 -200 45 -33.154503 -105.73721 -19.92318 130.54713
14980000000 -15.903993 11.04993 -200 45 -33.10022 -172.9111 -20.072823 98.750221
14990000000 -14.733609 10.912512 -200 45 -33.305393 120.92381 -22.566179 66.688141
15000000000 -13.674011 4.8098316 -200 45 -33.182289 56.575066 -26.428038 39.131241
15010000000 -13.39542 -4.1466303 -200 45 -32.994072 -11.524924 -34.511822 19.493513
15020000000 -13.796093 -13.477311 -200 45 -33.354061 -77.218239 -37.551697 32.859108
15030000000 -14.937943 -19.481487 -200 45 -33.196014 -142.39665 -40.16647 11.133724
15040000000 -16.310572 -20.568146 -200 45 -33.081738 151.22984 -34.110748 -28.825346
15050000000 -17.046795 -17.038631 -200 45 -33.07111 84.498726 -28.587564 -79.879784
15060000000 -17.355696 -15.530165 -200 45 -33.14043 18.046993 -24.894175 -117.99139
15070000000 -17.910521 -14.812973 -200 45 -33.169357 -47.621983 -22.917021 -152.23985
15080000000 -18.55381 -9.7493162 -200 45 -33.080486 -113.98836 -22.378723 174.9987
15090000000 -18.199064 -1.1847239 -200 45 -33.158485 179.4174 -23.092623 144.55354
15100000000 -16.654366 1.1967003 -200 45 -33.082413 113.51429 -24.712534 107.37895
15110000000 -15.442285 -5.2151327 -200 45 -33.231106 46.479839 -28.060064 63.963936
15120000000 -15.211043 -15.198998 -200 45 -33.204414 -18.511452 -30.351974 3.1494954
15130000000 -15.898628 -23.315659 -200 45 -33.172195 -85.726784 -30.63258 -51.765388
15140000000 -16.912128 -26.807995 -200 45 -33.343735 -151.28918 -29.683369 -80.505554
15150000000 -17.529291 -25.235472 -200 45 -33.156918 143.03984 -28.539146 -90.360428
15160000000 -17.440811 -26.800901 -200 45 -33.261749 75.483902 -27.104435 -95.267021
15170000000 -17.892906 -31.65097 -200 45 -33.294876 10.295783 -24.000294 -97.919739
15180000000 -18.983412 -35.423313 -200 45 -33.380035 -56.026302 -21.37318 -116.50289
15190000000 -20.624083 -30.637367 -200 45 -33.367672 -120.74689 -20.225109 -140.46057
15200000000 -20.605282 -18.864647 -200 45 -33.062817 173.08423 -20.758652 -165.65565
15210000000 -19.128878 -14.350311 -200 45 -32.96347 105.00711 -22.85177 166.85921
15220000000 -18.012539 -20.197554 -200 45 -33.353474 37.601364 -27.780197 132.65489
15230000000 -17.726711 -26.744064 -200 45 -33.441746 -26.229885 -36.531578 25.873543
15240000000 -17.874521 -33.245502 -200 45 -33.253563 -92.151245 -28.078285 -59.884888
15250000000 -18.27066 -37.531654 -200 45 -33.153931 -159.0031 -24.325298 -87.480667
15260000000 -18.363459 -42.098682 -200 45 -33.274452 133.90805 -23.699692 -102.91969
15270000000 -18.682444 -49.598583 -200 45 -33.267773 68.822723 -23.343853 -106.67645
15280000000 -19.720755 -57.079987 -200 45 -33.31982 2.8682027 -22.313339 -103.56087
15290000000 -21.43928 -64.056885 -200 45 -33.16626 -63.030392 -20.010588 -107.6012
15300000000 -24.298532 -62.384171 -200 45 -32.963421 -129.43832 -18.245502 -122.14304
15310000000 -26.353991 -41.402729 -200 45 -33.101704 162.4695 -18.037769 -140.30704
15320000000 -24.315283 -23.028658 -200 45 -33.268623 95.993416 -19.288073 -159.13007
15330000000 -22.072218 -21.675846 -200 45 -33.48032 30.411066 -22.663891 -169.59377
15340000000 -20.340694 -29.969015 -200 45 -33.346142 -33.784718 -28.213299 -159.61223
15350000000 -19.66987 -39.564346 -200 45 -33.248367 -101.68937 -26.936735 -109.35571
15360000000 -19.52599 -50.173065 -200 45 -33.437748 -167.33888 -22.749765 -107.09243
