!Keysight Technologies,P9374A,MY57211810,A.19.30.04
!Date: Friday, May 02, 2025 08:57:51
!Correction: S11(Off) 
!S21(Off) 
!S12(Off) 
!S22(Off) 
!S2P File: Measurements: S11, S21, S12, S22:
# Hz S  dB   R 50
13000000000 -11.84491 112.59286 -200 45 -24.10461 11.350475 -13.201139 -175.73576
13010000000 -12.530784 106.88416 -200 45 -23.976131 -55.457218 -18.597563 -173.07916
13020000000 -13.815654 102.72414 -200 45 -23.940636 -122.51881 -19.426317 -121.66818
13030000000 -15.325855 105.57943 -200 45 -24.022741 170.15807 -13.690357 -113.57694
13040000000 -16.087374 114.6571 -200 45 -24.121271 104.20631 -10.997846 -129.14491
13050000000 -15.700091 123.1557 -200 45 -24.071234 38.122265 -10.698024 -147.78134
13060000000 -14.565567 128.08798 -200 45 -23.966944 -28.481234 -12.37759 -160.9939
13070000000 -13.67162 126.13847 -200 45 -24.051235 -95.464584 -15.26371 -158.99203
13080000000 -13.011033 124.89442 -200 45 -24.010805 -162.58908 -15.721643 -137.76018
13090000000 -12.359745 120.99313 -200 45 -24.250826 130.35194 -12.756702 -131.10771
13100000000 -11.885419 115.44413 -200 45 -24.436615 64.236526 -10.870721 -144.37389
13110000000 -12.008587 108.8521 -200 45 -24.506369 -0.069571763 -11.118086 -162.14745
13120000000 -12.270202 103.54264 -200 45 -24.29241 -66.070007 -13.54562 -176.1095
13130000000 -13.265299 98.136192 -200 45 -24.266514 -132.87714 -18.565802 -171.61542
13140000000 -14.318458 98.322899 -200 45 -24.336226 159.9655 -18.524336 -121.39212
13150000000 -15.343114 101.51572 -200 45 -24.359989 93.700775 -13.048008 -117.78639
13160000000 -15.706444 107.73811 -200 45 -24.586452 27.419989 -10.599744 -133.75676
13170000000 -15.666533 115.04523 -200 45 -24.60943 -36.931961 -10.255575 -152.05498
13180000000 -14.856244 119.96033 -200 45 -24.380116 -102.42551 -11.817911 -166.4996
13190000000 -13.867803 122.89391 -200 45 -24.12678 -169.69255 -15.051922 -165.91301
13200000000 -12.592785 120.26276 -200 45 -24.230019 122.57271 -15.161088 -142.46298
13210000000 -11.816177 113.54049 -200 45 -24.434383 55.563431 -12.395809 -139.9303
13220000000 -11.732399 105.86662 -200 45 -24.561968 -9.1338844 -10.927772 -152.31377
13230000000 -12.217134 98.903587 -200 45 -24.577522 -74.048668 -10.997719 -168.74266
13240000000 -13.196001 94.871498 -200 45 -24.288391 -138.73489 -13.404597 174.54509
13250000000 -14.430964 95.184662 -200 45 -23.948454 153.67303 -19.513958 178.90591
13260000000 -15.207695 100.57813 -200 45 -23.956188 85.321381 -17.931028 -123.96889
13270000000 -15.53792 105.42278 -200 45 -24.124023 18.747398 -12.861801 -127.3056
13280000000 -15.665064 112.73303 -200 45 -24.12674 -47.353798 -10.756156 -143.13776
13290000000 -14.992775 120.707 -200 45 -24.169836 -112.86685 -10.518913 -159.8221
13300000000 -13.617421 124.85404 -200 45 -23.904465 -178.64902 -12.173783 -173.47675
13310000000 -12.109918 122.10269 -200 45 -23.766273 113.47859 -14.861912 -168.11813
13320000000 -11.35259 114.42101 -200 45 -23.900597 45.535023 -13.955674 -151.82158
13330000000 -11.305716 106.70918 -200 45 -24.077396 -20.948826 -11.848202 -155.61127
13340000000 -11.885789 100.33749 -200 45 -24.123991 -86.272705 -10.954167 -167.48854
13350000000 -12.741534 97.342262 -200 45 -24.041798 -152.02968 -11.598179 176.368
13360000000 -13.776305 98.399223 -200 45 -23.978514 141.97646 -14.49726 164.50746
13370000000 -14.325906 101.66516 -200 45 -23.758354 75.185081 -19.536964 -175.23862
13380000000 -14.919251 106.83206 -200 45 -23.736673 7.5358133 -16.135971 -140.5576
13390000000 -14.873275 113.48154 -200 45 -23.804825 -59.729321 -12.206076 -147.05965
13400000000 -14.149362 120.96618 -200 45 -23.860945 -126.68944 -10.99205 -162.30148
13410000000 -12.829418 122.07301 -200 45 -23.983114 167.01122 -11.340915 -176.48569
13420000000 -11.744487 118.34325 -200 45 -23.962105 100.96216 -12.904139 177.36311
13430000000 -11.340644 111.42207 -200 45 -24.013607 33.951271 -14.693913 -176.00493
13440000000 -11.464478 105.44492 -200 45 -24.074604 -32.547592 -13.292757 -164.82578
13450000000 -11.962756 100.53639 -200 45 -24.116791 -98.532433 -11.353169 -170.36131
13460000000 -12.66201 98.453377 -200 45 -24.158894 -165.0304 -11.011063 175.2375
13470000000 -13.383527 98.00193 -200 45 -24.199774 129.14363 -12.071011 162.76933
13480000000 -14.056587 98.429749 -200 45 -24.162216 62.644604 -14.78952 156.67249
13490000000 -15.13702 102.71741 -200 45 -24.161648 -3.7067406 -18.404095 170.3463
13500000000 -15.305051 111.72802 -200 45 -24.200279 -70.26078 -16.114876 -157.6834
13510000000 -14.467786 120.18192 -200 45 -24.203419 -136.95241 -12.779871 -160.7812
13520000000 -13.041347 120.76131 -200 45 -24.34411 156.56674 -11.58854 -174.29688
13530000000 -12.068492 116.21598 -200 45 -24.45112 90.555542 -11.808105 176.10963
13540000000 -11.931097 109.65829 -200 45 -24.519737 25.336273 -12.85708 170.07394
13550000000 -12.132517 106.2427 -200 45 -24.396622 -40.813522 -13.935124 172.32129
13560000000 -12.479514 103.21011 -200 45 -24.45566 -107.04471 -13.560211 -179.32274
13570000000 -12.832895 102.30685 -200 45 -24.440138 -172.80064 -12.283798 177.54419
13580000000 -13.190027 101.89742 -200 45 -24.340435 121.18833 -11.888892 168.3479
13590000000 -13.731162 101.07099 -200 45 -24.359808 54.377468 -12.741842 159.24046
13600000000 -14.525104 105.11504 -200 45 -24.341047 -11.217857 -14.632129 154.04945
13610000000 -14.457085 112.48224 -200 45 -24.239544 -78.16967 -17.134972 165.26619
13620000000 -13.613922 116.72633 -200 45 -24.236864 -145.25851 -16.246147 -173.42155
13630000000 -12.724414 116.68112 -200 45 -24.439272 148.47084 -13.561541 -170.30721
13640000000 -12.095469 113.61122 -200 45 -24.420654 83.260025 -11.918303 -179.44067
13650000000 -12.002317 110.48057 -200 45 -24.380806 17.356447 -11.871607 169.66762
13660000000 -11.972831 109.19411 -200 45 -24.343105 -49.356899 -12.636119 164.3963
13670000000 -11.743074 107.37125 -200 45 -24.325342 -115.44499 -13.196716 164.21548
13680000000 -11.737212 103.77427 -200 45 -24.318588 177.95845 -13.456564 165.79849
13690000000 -11.987648 101.07613 -200 45 -24.366098 111.66311 -12.821841 167.57813
13700000000 -12.57392 98.828545 -200 45 -24.399704 46.403431 -12.085393 160.63362
13710000000 -13.338337 101.03355 -200 45 -24.225372 -19.395124 -12.686741 150.22331
13720000000 -13.419555 106.04335 -200 45 -24.111784 -86.343758 -14.746854 146.00171
13730000000 -12.973366 108.37 -200 45 -24.055643 -153.45775 -16.741219 156.93294
13740000000 -12.626781 108.95399 -200 45 -24.080345 139.49007 -16.00421 175.18069
13750000000 -12.311448 108.44656 -200 45 -24.159159 72.729759 -13.646992 179.14923
13760000000 -12.073174 108.42635 -200 45 -24.305511 6.8986745 -11.978779 170.89359
13770000000 -11.599991 107.63121 -200 45 -24.240166 -59.261379 -11.950032 160.90353
13780000000 -11.01668 104.31767 -200 45 -24.236418 -125.87827 -12.573963 155.93692
13790000000 -10.972819 98.235611 -200 45 -24.309198 167.65625 -13.000076 155.1637
13800000000 -11.335282 93.452469 -200 45 -24.343397 101.39049 -13.256824 155.72832
13810000000 -12.106706 90.367332 -200 45 -24.342371 35.24387 -12.753081 155.68129
13820000000 -12.881111 91.205833 -200 45 -24.439093 -30.924379 -12.454881 149.06813
13830000000 -13.328969 94.918777 -200 45 -24.420502 -96.206604 -13.414013 140.01535
13840000000 -13.314335 97.785072 -200 45 -24.308088 -162.58739 -15.747128 139.48593
13850000000 -13.170936 100.68625 -200 45 -24.255964 130.39415 -17.139957 156.55081
13860000000 -12.715615 102.79895 -200 45 -24.294636 63.491806 -15.510117 168.55107
13870000000 -12.067133 103.4596 -200 45 -24.389835 -3.5532579 -13.971589 168.8981
13880000000 -11.298811 101.11658 -200 45 -24.649498 -69.702332 -12.949978 164.14186
13890000000 -10.844195 95.658669 -200 45 -24.767921 -134.68739 -12.641415 157.25046
13900000000 -10.941659 89.755112 -200 45 -24.776937 159.70903 -13.207554 153.37875
13910000000 -11.350116 85.623634 -200 45 -24.766487 94.5224 -13.29713 154.02489
13920000000 -11.926366 83.263069 -200 45 -24.61618 28.746452 -12.953458 152.666
13930000000 -12.542187 82.613831 -200 45 -24.483511 -37.744629 -13.003205 147.38922
13940000000 -13.148811 84.282074 -200 45 -24.514212 -105.06984 -13.356982 142.40515
13950000000 -13.557169 87.126373 -200 45 -24.64493 -171.12943 -14.539989 138.23833
13960000000 -13.764651 92.982666 -200 45 -24.660278 122.91263 -16.326117 141.42363
13970000000 -13.018214 98.883675 -200 45 -24.681664 56.80724 -16.413788 154.43918
13980000000 -11.885368 100.14555 -200 45 -24.659468 -8.8455019 -15.572799 160.06512
13990000000 -10.81311 96.21946 -200 45 -24.593998 -75.653473 -14.878647 160.71204
14000000000 -10.325312 89.732277 -200 45 -24.733541 -141.9592 -13.95389 161.5854
14010000000 -10.436431 82.979729 -200 45 -24.840475 152.45689 -13.365856 157.58521
14020000000 -10.903579 78.360199 -200 45 -24.817677 86.925957 -12.988224 153.02885
14030000000 -11.568028 75.288742 -200 45 -24.813944 21.468683 -12.823782 149.11932
14040000000 -12.352962 74.625931 -200 45 -24.692833 -43.819286 -12.956515 143.04927
14050000000 -13.175858 76.726479 -200 45 -24.494492 -109.69938 -13.47238 138.07935
14060000000 -13.738392 81.946938 -200 45 -24.351435 -177.15851 -14.577868 136.33492
14070000000 -13.471706 90.601143 -200 45 -24.407131 116.03792 -15.330314 138.71741
14080000000 -12.283377 94.80114 -200 45 -24.396252 49.548008 -15.414742 142.98929
14090000000 -10.980828 92.536568 -200 45 -24.423988 -16.992081 -15.678144 142.4514
14100000000 -10.292208 86.719635 -200 45 -24.431326 -82.831619 -16.174547 147.11722
14110000000 -10.155255 79.722694 -200 45 -24.398548 -149.26497 -15.633783 154.73576
14120000000 -10.471651 75.048996 -200 45 -24.343973 144.11737 -14.801077 156.9724
14130000000 -10.861193 71.533104 -200 45 -24.482021 77.460899 -13.269753 156.81612
14140000000 -11.151411 69.471733 -200 45 -24.482691 11.784474 -12.206862 148.01407
14150000000 -11.747713 66.521507 -200 45 -24.420231 -53.965744 -12.391843 136.07072
14160000000 -12.548103 65.922241 -200 45 -24.413439 -120.55631 -13.467014 130.71043
14170000000 -13.571919 70.757111 -200 45 -24.291153 173.67038 -14.586477 127.96877
14180000000 -13.379503 79.680267 -200 45 -24.304285 106.50793 -15.759505 130.92674
14190000000 -12.124894 84.718651 -200 45 -24.207514 39.84734 -15.744351 138.7534
14200000000 -10.845721 81.403931 -200 45 -24.35693 -27.405224 -15.16419 136.65567
14210000000 -10.204972 75.107384 -200 45 -24.393551 -92.930473 -15.944255 131.60257
14220000000 -10.20215 68.258423 -200 45 -24.450121 -159.42197 -17.469955 139.26674
14230000000 -10.536117 63.664433 -200 45 -24.414862 134.45789 -17.068844 151.88455
14240000000 -10.880047 60.805454 -200 45 -24.403116 68.06144 -15.135331 158.45381
14250000000 -11.164085 57.707783 -200 45 -24.539354 1.2353617 -13.168432 153.3333
14260000000 -11.813115 54.988277 -200 45 -24.606905 -63.967728 -12.295739 141.07133
14270000000 -12.658429 54.726177 -200 45 -24.613155 -129.76953 -12.772011 128.819
14280000000 -13.449897 59.659912 -200 45 -24.446707 164.1192 -14.28244 122.0199
14290000000 -13.177931 67.095505 -200 45 -24.553587 97.201279 -15.795329 123.03848
14300000000 -12.138005 69.538383 -200 45 -24.53385 31.293291 -16.511736 130.78786
14310000000 -11.271394 66.446632 -200 45 -24.549768 -34.801403 -15.94188 133.34531
14320000000 -11.018177 61.963314 -200 45 -24.598164 -101.60564 -15.671239 130.68333
14330000000 -10.955436 58.26844 -200 45 -24.644958 -167.01471 -16.405495 123.6293
14340000000 -11.035545 55.778667 -200 45 -24.58666 126.54744 -18.839918 127.6459
14350000000 -10.931651 52.531113 -200 45 -24.670023 59.61422 -18.965221 151.73058
14360000000 -11.11348 47.663399 -200 45 -24.897825 -6.1718783 -15.725778 157.39546
14370000000 -11.839272 43.015202 -200 45 -24.911083 -70.633598 -13.944013 149.22348
14380000000 -12.843435 43.179188 -200 45 -24.764172 -135.96808 -13.175808 138.0712
14390000000 -13.638108 48.688381 -200 45 -24.682102 158.2299 -13.258533 125.41286
14400000000 -13.298464 56.069546 -200 45 -24.455509 91.470474 -14.821829 114.95875
14410000000 -12.376701 56.811764 -200 45 -24.560999 24.492859 -16.907177 115.32684
14420000000 -11.915184 54.59761 -200 45 -24.574053 -41.642025 -17.612434 125.10667
14430000000 -11.706581 52.401978 -200 45 -24.55625 -107.69849 -17.286846 128.53716
14440000000 -11.453771 50.980217 -200 45 -24.566397 -173.68932 -16.742746 126.10899
14450000000 -11.105137 48.138947 -200 45 -24.500973 120.44026 -17.547638 118.52003
14460000000 -10.854425 44.050632 -200 45 -24.393454 53.705658 -20.494886 121.80482
14470000000 -10.996957 38.178169 -200 45 -24.429386 -13.42667 -20.382168 149.85243
14480000000 -11.583335 33.967308 -200 45 -24.599424 -79.457664 -17.024485 157.18831
14490000000 -12.550068 31.994583 -200 45 -24.58559 -145.19086 -14.86713 148.45796
14500000000 -13.257659 35.56258 -200 45 -24.637487 149.19524 -13.722337 136.1192
14510000000 -13.26471 40.679321 -200 45 -24.50293 83.595879 -13.799994 121.02247
14520000000 -12.662189 42.052025 -200 45 -24.330561 17.387835 -15.177361 106.54413
14530000000 -12.456837 41.253136 -200 45 -24.275209 -50.368813 -18.250278 102.21016
14540000000 -12.320827 41.072643 -200 45 -24.347084 -116.67876 -20.231436 119.14796
14550000000 -11.77781 42.699627 -200 45 -24.413231 176.44389 -18.531225 126.69016
14560000000 -10.971049 38.82959 -200 45 -24.49189 110.19643 -18.15094 119.44825
14570000000 -10.550402 32.203709 -200 45 -24.590157 44.849327 -19.232475 112.11131
14580000000 -10.922946 24.179199 -200 45 -24.432362 -20.919054 -21.899036 114.03566
14590000000 -11.764802 20.304569 -200 45 -24.401571 -87.507072 -23.825848 144.757
14600000000 -12.644616 19.627102 -200 45 -24.358557 -154.14937 -18.821341 161.97903
14610000000 -13.211184 21.085278 -200 45 -24.469198 139.34192 -15.490433 149.1245
14620000000 -13.730619 23.205311 -200 45 -24.435032 73.1129 -14.341441 129.85753
14630000000 -13.936009 26.972479 -200 45 -24.496372 6.9536047 -14.574199 111.44991
14640000000 -13.802931 31.32873 -200 45 -24.473125 -59.110569 -16.473896 92.816399
14650000000 -13.079482 34.733109 -200 45 -24.429028 -125.37831 -20.708033 85.56469
14660000000 -12.148879 34.041271 -200 45 -24.450684 167.48401 -23.18005 117.25005
14670000000 -11.308949 29.436298 -200 45 -24.593447 100.97752 -20.251419 122.71316
14680000000 -11.029775 22.060812 -200 45 -24.718502 35.27792 -19.395805 108.99849
14690000000 -11.261046 14.532203 -200 45 -24.700979 -30.05591 -21.216007 95.961891
14700000000 -12.194758 8.4875326 -200 45 -24.734455 -96.168495 -26.481138 87.620644
14710000000 -13.278285 8.0494738 -200 45 -24.67849 -161.79883 -28.599178 168.90628
14720000000 -13.919214 9.4644127 -200 45 -24.644308 131.96408 -19.652676 170.92438
14730000000 -14.506429 11.083033 -200 45 -24.606871 65.583885 -16.095213 147.0195
14740000000 -15.252177 14.428539 -200 45 -24.646538 -0.14863713 -15.10053 121.32243
14750000000 -15.476307 24.034985 -200 45 -24.4867 -66.823395 -16.135324 96.659439
14760000000 -14.094017 30.849836 -200 45 -24.607908 -133.75693 -19.250206 75.685814
14770000000 -12.526869 28.270536 -200 45 -24.745214 160.47876 -25.101341 79.01561
14780000000 -11.703534 20.022696 -200 45 -24.708189 94.682968 -25.980829 116.65055
14790000000 -11.801026 11.792768 -200 45 -24.765194 28.973698 -22.096325 118.5483
14800000000 -12.259711 5.7754898 -200 45 -24.725233 -36.801811 -21.133017 97.44381
14810000000 -13.022101 1.7660789 -200 45 -24.595388 -102.43217 -24.026197 65.934258
14820000000 -13.747903 -0.82944995 -200 45 -24.50601 -169.92352 -41.192627 5.3767972
14830000000 -14.770223 -2.1477664 -200 45 -24.693123 123.82014 -25.336033 -162.4556
14840000000 -15.993126 0.58842289 -200 45 -24.71134 58.639095 -19.532206 166.65558
14850000000 -16.891876 9.7415857 -200 45 -24.537125 -7.2693748 -16.984619 138.66003
14860000000 -16.230053 21.179207 -200 45 -24.53718 -74.402992 -16.585819 107.40771
14870000000 -14.68544 26.048002 -200 45 -24.645229 -140.43504 -18.435101 79.024261
14880000000 -13.001628 21.845667 -200 45 -24.58165 153.51431 -22.813503 55.132809
14890000000 -12.26033 13.490769 -200 45 -24.698586 87.138252 -30.113493 64.63166
14900000000 -12.261787 3.9091675 -200 45 -24.698776 21.802336 -29.693041 108.35368
14910000000 -12.990525 -2.1253846 -200 45 -24.564026 -43.616825 -26.276644 100.13985
14920000000 -13.661571 -5.7923217 -200 45 -24.45891 -110.27686 -26.167818 71.536728
14930000000 -14.210652 -7.8777151 -200 45 -24.424379 -177.11954 -30.348362 15.821869
14940000000 -15.044177 -11.890366 -200 45 -24.459364 116.81778 -30.00139 -98.343506
14950000000 -16.493925 -12.239596 -200 45 -24.370882 49.890182 -23.457712 -161.18495
14960000000 -18.153387 -1.876745 -200 45 -24.538353 -16.7493 -20.952362 160.3105
14970000000 -17.209063 13.177596 -200 45 -24.505136 -81.897095 -20.063335 130.92601
14980000000 -15.175053 15.689102 -200 45 -24.411819 -148.28058 -20.112516 100.79113
14990000000 -13.98721 7.9567471 -200 45 -24.412189 144.81931 -21.99272 67.090958
15000000000 -13.681746 -0.23830536 -200 45 -24.441607 78.932236 -26.514383 32.825104
15010000000 -14.129259 -6.7695899 -200 45 -24.360239 12.20384 -36.470753 25.54232
15020000000 -14.489941 -9.8866892 -200 45 -24.48473 -54.855122 -35.881329 41.806347
15030000000 -14.719552 -13.506719 -200 45 -24.672127 -120.70502 -37.626545 0.65411991
15040000000 -15.270635 -19.20145 -200 45 -24.613873 174.45271 -35.043697 -42.270878
15050000000 -16.428633 -23.576193 -200 45 -24.515379 108.01446 -29.571266 -76.596725
15060000000 -18.14356 -22.175886 -200 45 -24.519718 42.045349 -24.649799 -115.22861
15070000000 -19.225481 -11.66205 -200 45 -24.384146 -24.235327 -22.701641 -152.97734
15080000000 -18.388361 -0.14979732 -200 45 -24.327288 -91.425659 -22.460295 174.0762
15090000000 -16.861679 0.18869986 -200 45 -24.468822 -158.67773 -23.258091 145.27176
15100000000 -16.055119 -5.3825889 -200 45 -24.615314 136.04434 -24.600143 109.20405
15110000000 -16.00046 -11.094286 -200 45 -24.496067 70.261864 -27.548006 64.026245
15120000000 -16.29051 -15.360993 -200 45 -24.4729 3.4775121 -29.991049 -1.6591535
15130000000 -16.433662 -16.120113 -200 45 -24.496782 -62.732159 -31.293406 -56.20808
15140000000 -16.035385 -20.36438 -200 45 -24.507517 -129.39311 -30.234928 -77.492012
15150000000 -16.252913 -27.997856 -200 45 -24.584269 164.16028 -28.240454 -87.356247
15160000000 -17.320713 -35.656746 -200 45 -24.700785 97.935951 -26.694281 -97.356377
15170000000 -19.146147 -37.626732 -200 45 -24.718472 32.540043 -24.322227 -99.485764
15180000000 -20.547546 -27.398876 -200 45 -24.677792 -33.571907 -21.589016 -114.84246
15190000000 -19.678749 -18.960609 -200 45 -24.693329 -99.714622 -20.062681 -139.1938
15200000000 -18.741394 -21.01392 -200 45 -24.6343 -165.5887 -20.558985 -165.99333
15210000000 -18.897608 -26.636406 -200 45 -24.609171 127.38707 -22.819492 165.01418
15220000000 -19.456894 -24.762625 -200 45 -24.737949 60.92588 -28.265848 131.26253
15230000000 -18.918079 -20.444702 -200 45 -24.788862 -4.7635508 -38.149525 22.284395
15240000000 -17.496704 -24.46417 -200 45 -24.747177 -70.838493 -28.731335 -59.053558
15250000000 -16.952404 -35.328442 -200 45 -24.835793 -137.34923 -24.297771 -85.32711
15260000000 -17.409328 -49.337982 -200 45 -24.907225 157.44312 -23.434317 -103.29459
15270000000 -19.377398 -57.896748 -200 45 -24.73498 91.919128 -23.528004 -107.65263
15280000000 -21.153769 -57.924541 -200 45 -24.669739 24.78689 -22.262016 -102.48792
15290000000 -22.262196 -53.636906 -200 45 -24.759766 -42.251812 -19.99 -108.58176
15300000000 -23.057375 -52.243019 -200 45 -24.863029 -107.74851 -18.374468 -121.66917
15310000000 -24.272099 -50.111267 -200 45 -24.827259 -173.52682 -17.960894 -139.78313
15320000000 -25.345167 -34.377388 -200 45 -24.793745 120.27563 -19.130732 -159.27786
15330000000 -23.413317 -21.346487 -200 45 -24.768894 53.865448 -22.747412 -171.53342
15340000000 -20.863819 -21.860134 -200 45 -24.705141 -12.859733 -28.516052 -156.01602
15350000000 -19.086342 -34.161888 -200 45 -24.856766 -80.144386 -26.458763 -112.418
15360000000 -18.467918 -49.317066 -200 45 -25.056984 -145.78145 -23.065908 -107.71217
