!Keysight Technologies,P9374A,MY57211810,A.19.30.04
!Date: Friday, May 02, 2025 09:01:11
!Correction: S11(Off) 
!S21(Off) 
!S12(Off) 
!S22(Off) 
!S2P File: Measurements: S11, S21, S12, S22:
# Hz S  dB   R 50
13000000000 -11.85687 112.61269 -200 45 -21.933731 21.073874 -13.010607 -177.02747
13010000000 -12.670655 107.18054 -200 45 -21.76129 -45.88168 -18.966902 -174.30183
13020000000 -13.709427 104.10898 -200 45 -21.780771 -112.70905 -18.983343 -120.3083
13030000000 -15.159541 104.93344 -200 45 -21.774328 -179.89648 -13.793591 -115.42897
13040000000 -16.059946 113.41455 -200 45 -21.864264 113.40794 -11.213435 -128.64798
13050000000 -15.787835 122.8097 -200 45 -21.955746 46.88649 -10.620495 -146.27972
13060000000 -14.662759 128.07501 -200 45 -21.910902 -18.501944 -12.129529 -161.55444
13070000000 -13.600963 126.96109 -200 45 -21.843513 -85.312706 -15.46348 -160.42867
13080000000 -13.057426 124.45375 -200 45 -21.804647 -152.5974 -15.677283 -135.93459
13090000000 -12.342215 121.65317 -200 45 -21.990437 140.04977 -12.691148 -132.30281
13100000000 -11.92741 115.56068 -200 45 -22.131336 73.661308 -11.026948 -144.37924
13110000000 -11.881672 109.69737 -200 45 -22.238773 8.40487 -11.113436 -160.95439
13120000000 -12.167822 103.42654 -200 45 -22.14163 -57.333324 -13.336164 -176.12968
13130000000 -13.044789 96.714546 -200 45 -22.145857 -123.67388 -18.66305 -173.54671
13140000000 -14.581944 96.386932 -200 45 -22.153753 169.29929 -18.450497 -119.92541
13150000000 -15.71706 102.24984 -200 45 -22.28088 102.86716 -13.053395 -118.52537
13160000000 -15.853049 110.1804 -200 45 -22.38534 37.336941 -10.690041 -133.71143
13170000000 -15.297626 117.38821 -200 45 -22.360172 -27.789652 -10.256892 -151.08586
13180000000 -14.471485 118.66277 -200 45 -22.227123 -92.989822 -11.679891 -166.53352
13190000000 -13.875556 119.68636 -200 45 -21.885029 -160.14481 -15.042498 -166.63895
13200000000 -12.963558 119.83432 -200 45 -21.954956 131.4613 -15.243454 -142.07222
13210000000 -12.065805 114.81715 -200 45 -22.213732 64.465942 -12.421067 -139.98788
13220000000 -11.755093 108.0962 -200 45 -22.383184 -0.31499597 -10.901318 -151.99843
13230000000 -11.878171 100.17981 -200 45 -22.389227 -65.386551 -11.010371 -168.74635
13240000000 -12.87262 93.479988 -200 45 -22.182272 -129.81276 -13.348395 174.55357
13250000000 -14.46337 92.832756 -200 45 -21.832523 163.33562 -19.581436 179.44844
13260000000 -15.572561 99.446075 -200 45 -21.711843 95.297256 -17.909914 -124.94032
13270000000 -15.793337 108.25935 -200 45 -21.805613 28.060669 -12.961542 -127.75912
13280000000 -15.298613 114.63163 -200 45 -21.853397 -38.548016 -10.844325 -142.20074
13290000000 -14.679794 118.53921 -200 45 -21.957582 -104.20623 -10.425901 -159.26834
13300000000 -13.810764 122.79919 -200 45 -21.739742 -169.89207 -12.018783 -173.97766
13310000000 -12.400774 122.15942 -200 45 -21.657373 122.86617 -15.094309 -168.99097
13320000000 -11.466105 115.71841 -200 45 -21.626818 55.189018 -13.946258 -150.45239
13330000000 -11.198945 108.27377 -200 45 -21.804426 -11.394958 -11.670636 -155.97145
13340000000 -11.567647 100.04099 -200 45 -21.877422 -77.307526 -11.087271 -168.67502
13350000000 -12.664537 95.598457 -200 45 -21.781866 -142.85394 -11.724063 177.72455
13360000000 -13.976425 96.601471 -200 45 -21.734949 150.82159 -14.254801 165.79192
13370000000 -14.675721 101.92806 -200 45 -21.545622 84.196205 -19.48428 -179.60681
13380000000 -14.969183 108.63393 -200 45 -21.511477 16.620436 -16.264196 -138.75954
13390000000 -14.65878 114.189 -200 45 -21.593929 -50.663155 -12.142007 -146.5526
13400000000 -14.103861 119.08584 -200 45 -21.652885 -116.98046 -10.909188 -163.10976
13410000000 -13.100192 121.92867 -200 45 -21.644224 176.24301 -11.465843 -176.10437
13420000000 -11.889531 119.53226 -200 45 -21.69556 109.79847 -12.880175 177.9305
13430000000 -11.257422 112.85399 -200 45 -21.717676 42.913128 -14.428451 -176.9971
13440000000 -11.314988 105.88177 -200 45 -21.782965 -23.739876 -13.569991 -164.51581
13450000000 -11.748014 99.917122 -200 45 -21.946735 -89.825584 -11.327534 -169.51047
13460000000 -12.830048 96.294693 -200 45 -21.888474 -155.35416 -10.830777 175.00224
13470000000 -13.84707 98.363953 -200 45 -21.865587 138.43277 -12.274755 161.83125
13480000000 -14.335922 101.49867 -200 45 -21.803017 71.768997 -14.819755 158.21004
13490000000 -14.941088 105.28773 -200 45 -21.775114 5.0535259 -17.78968 170.39319
13500000000 -14.855409 112.36279 -200 45 -21.873146 -62.58176 -16.703245 -159.29973
13510000000 -14.375078 117.48969 -200 45 -22.073872 -128.51372 -12.829794 -158.93912
13520000000 -13.313835 120.40848 -200 45 -22.199465 165.74361 -11.33094 -173.36458
13530000000 -12.246156 117.68417 -200 45 -22.138355 100.81285 -11.796059 174.10655
13540000000 -11.892153 111.53428 -200 45 -22.104109 34.661335 -13.12411 170.30415
13550000000 -12.041052 107.47944 -200 45 -22.065062 -32.118084 -13.78793 174.74001
13560000000 -12.321628 104.00909 -200 45 -22.127794 -97.758591 -13.345226 178.09711
13570000000 -12.805937 102.04195 -200 45 -22.023285 -164.22557 -12.575306 176.94226
13580000000 -13.32077 102.24333 -200 45 -22.086607 129.59421 -11.977637 170.37094
13590000000 -13.711241 102.71974 -200 45 -22.127357 63.590202 -12.395195 159.31976
13600000000 -14.341091 105.12366 -200 45 -22.002224 -1.8499203 -14.675697 152.20599
13610000000 -14.531154 111.41457 -200 45 -21.881607 -68.871101 -17.374367 166.10541
13620000000 -13.738926 116.36613 -200 45 -21.873682 -136.1064 -16.013069 -173.2923
13630000000 -12.881038 116.93396 -200 45 -22.106907 157.56412 -13.577273 -171.11465
13640000000 -12.119718 114.11624 -200 45 -22.07526 92.143799 -12.026759 -179.15392
13650000000 -11.942305 110.72664 -200 45 -22.039602 26.546877 -11.82376 170.16046
13660000000 -11.933437 108.75896 -200 45 -21.961697 -40.055492 -12.614691 164.13301
13670000000 -11.751604 106.82072 -200 45 -21.911242 -106.50507 -13.2187 164.14449
13680000000 -11.802007 103.63861 -200 45 -21.946146 -173.1469 -13.39983 165.63602
13690000000 -11.996706 100.86762 -200 45 -21.947298 120.73996 -12.910752 167.27464
13700000000 -12.594183 98.759972 -200 45 -22.026381 54.658756 -12.071384 161.71677
13710000000 -13.305143 100.70609 -200 45 -21.962379 -10.449848 -12.539001 149.82829
13720000000 -13.520346 105.672 -200 45 -21.722481 -76.678078 -14.888136 145.00542
13730000000 -13.075435 109.32645 -200 45 -21.586592 -144.42783 -16.682039 158.68611
13740000000 -12.536763 109.9183 -200 45 -21.668575 148.44667 -15.956255 173.74969
13750000000 -12.198741 108.80267 -200 45 -21.772108 81.377411 -13.756069 179.23763
13760000000 -11.993254 107.86678 -200 45 -21.90766 15.490403 -11.969428 171.55229
13770000000 -11.684218 107.42106 -200 45 -21.90633 -50.269421 -11.883546 160.4099
13780000000 -11.126749 104.29 -200 45 -21.823359 -116.60172 -12.649001 155.9346
13790000000 -11.061637 98.867691 -200 45 -21.874056 176.6257 -12.998249 155.66597
13800000000 -11.295724 93.87146 -200 45 -21.893442 110.39238 -13.104188 155.25319
13810000000 -12.019317 89.878983 -200 45 -21.925892 44.057819 -12.922271 155.15578
13820000000 -13.00036 90.696632 -200 45 -22.005314 -22.130758 -12.51791 150.37781
13830000000 -13.298981 95.118401 -200 45 -21.973328 -87.870979 -13.151518 140.29364
13840000000 -13.222998 98.001701 -200 45 -21.982143 -154.4435 -15.830569 136.80434
13850000000 -13.019845 100.17399 -200 45 -21.932648 139.27344 -17.444468 159.07768
13860000000 -12.636415 101.5111 -200 45 -22.012947 72.586845 -15.047617 168.66548
13870000000 -12.256366 102.47487 -200 45 -22.044298 6.4572382 -14.179427 165.96935
13880000000 -11.512161 102.27026 -200 45 -22.138556 -60.358067 -13.238605 166.35939
13890000000 -10.789075 97.630814 -200 45 -22.281586 -126.19623 -12.30936 158.6017
13900000000 -10.690249 90.242027 -200 45 -22.359802 168.64532 -13.088244 150.25331
13910000000 -11.142071 84.749687 -200 45 -22.289715 102.69578 -13.786819 155.25722
13920000000 -11.901659 81.23822 -200 45 -22.28668 37.249214 -12.664057 154.40138
13930000000 -12.889715 81.04818 -200 45 -22.181688 -29.347496 -12.790743 145.16145
13940000000 -13.527926 86.13089 -200 45 -22.214586 -95.869186 -13.839262 142.34912
13950000000 -13.424542 89.694389 -200 45 -22.318501 -161.85188 -14.368158 140.99049
13960000000 -13.395061 93.286972 -200 45 -22.228382 132.67569 -15.910793 139.14622
13970000000 -12.859251 97.256783 -200 45 -22.209675 66.230904 -17.071047 154.07339
13980000000 -12.027872 98.518921 -200 45 -22.135796 0.066290751 -15.386563 161.86
13990000000 -11.059965 96.927277 -200 45 -22.132423 -66.861771 -14.67078 159.65924
14000000000 -10.357321 90.89077 -200 45 -22.299934 -133.60657 -14.203449 160.66254
14010000000 -10.346698 83.409912 -200 45 -22.473871 161.44873 -13.361666 158.59186
14020000000 -10.816216 77.478889 -200 45 -22.380001 95.866005 -12.881865 153.48825
14030000000 -11.653385 73.924362 -200 45 -22.357145 30.665565 -12.815566 148.17406
14040000000 -12.636236 74.594467 -200 45 -22.188839 -35.284626 -13.06043 142.90062
14050000000 -13.1004 78.581017 -200 45 -22.08577 -101.4342 -13.55943 139.29929
14060000000 -13.316035 82.648842 -200 45 -22.030807 -168.04587 -14.286772 136.01846
14070000000 -13.169384 88.265991 -200 45 -21.918901 125.09106 -15.454437 137.3567
14080000000 -12.428272 92.409653 -200 45 -21.971003 58.273598 -15.605972 143.83099
14090000000 -11.430619 93.052643 -200 45 -21.995014 -7.7555571 -15.383638 143.18103
14100000000 -10.400926 89.437241 -200 45 -21.961002 -73.811005 -16.248165 145.80307
14110000000 -9.9328156 82.087807 -200 45 -21.934837 -140.32567 -15.834635 155.51956
14120000000 -10.101356 75.014946 -200 45 -21.920015 153.35176 -14.543683 157.50063
14130000000 -10.612681 69.827507 -200 45 -21.949255 86.822472 -13.413759 155.70314
14140000000 -11.338503 66.777725 -200 45 -21.929996 20.83403 -12.30128 148.62785
14150000000 -12.283797 66.252701 -200 45 -21.913797 -45.215137 -12.235466 136.97351
14160000000 -12.872324 69.169968 -200 45 -21.838194 -111.68459 -13.457848 128.98343
14170000000 -13.125216 72.422455 -200 45 -21.825617 -178.08156 -14.792302 129.02995
14180000000 -13.153833 77.516609 -200 45 -21.805967 115.5201 -15.521226 132.03088
14190000000 -12.182951 82.52948 -200 45 -21.76989 48.849712 -15.777216 136.63197
14200000000 -11.048307 80.586716 -200 45 -21.796453 -17.990015 -15.377716 137.1572
14210000000 -10.360883 76.159119 -200 45 -21.866571 -84.136169 -15.854856 133.31187
14220000000 -10.057376 69.808922 -200 45 -21.881197 -150.66965 -17.26186 137.50377
14230000000 -10.346844 63.68528 -200 45 -21.888363 143.11259 -17.242897 151.66454
14240000000 -10.78671 59.899334 -200 45 -21.953037 76.584023 -15.205415 159.13446
14250000000 -11.295596 56.815903 -200 45 -22.015205 10.841937 -13.088136 153.80518
14260000000 -11.948359 55.007217 -200 45 -22.011168 -55.070293 -12.219531 140.80659
14270000000 -12.688934 55.768295 -200 45 -21.950453 -120.92789 -12.839485 128.18852
14280000000 -13.215746 60.012398 -200 45 -21.914812 172.36386 -14.41624 122.45444
14290000000 -13.132669 65.741943 -200 45 -21.953072 105.94577 -15.697587 124.56806
14300000000 -12.358371 69.59259 -200 45 -21.967911 39.614014 -16.25032 128.59346
14310000000 -11.390212 67.33091 -200 45 -22.01474 -26.936857 -16.320723 132.68015
14320000000 -10.97704 62.676788 -200 45 -22.171877 -92.723 -15.721614 132.84775
14330000000 -10.787915 58.15654 -200 45 -22.134884 -157.89224 -15.955689 124.88798
14340000000 -10.8702 54.079929 -200 45 -22.034525 135.97409 -18.8267 121.85371
14350000000 -11.031963 51.778297 -200 45 -22.00429 69.005867 -19.578997 156.53772
14360000000 -11.220701 48.351757 -200 45 -22.104544 2.5279696 -15.143048 158.93835
14370000000 -11.974142 45.187389 -200 45 -22.203588 -62.983921 -13.845144 145.23958
14380000000 -12.773356 45.428337 -200 45 -22.186008 -128.79878 -13.733835 138.68675
14390000000 -13.538795 47.574829 -200 45 -22.221935 165.55402 -13.11921 128.85988
14400000000 -13.491616 54.61293 -200 45 -22.151354 100.16006 -14.259523 112.94907
14410000000 -12.619062 56.731339 -200 45 -21.979738 34.287205 -17.574833 113.22317
14420000000 -11.892775 55.383331 -200 45 -21.926891 -32.48008 -17.480997 129.09546
14430000000 -11.505273 52.421169 -200 45 -21.853552 -98.717377 -16.827911 125.99352
14440000000 -11.402908 50.27441 -200 45 -21.846502 -165.45026 -17.333786 125.3866
14450000000 -11.180771 48.123234 -200 45 -21.842167 127.71976 -17.378471 122.13454
14460000000 -10.985944 44.413437 -200 45 -21.910334 61.463848 -19.885565 117.58365
14470000000 -11.033903 38.878792 -200 45 -21.929396 -4.70679 -21.338074 152.69073
14480000000 -11.522141 33.897789 -200 45 -21.984026 -70.606613 -16.518274 158.8871
14490000000 -12.440523 31.278168 -200 45 -21.964422 -136.55003 -14.727239 145.64693
14500000000 -13.264803 34.531242 -200 45 -21.914581 157.61536 -14.219669 135.8166
14510000000 -13.387505 40.128696 -200 45 -21.894627 91.543541 -13.782567 123.78098
14520000000 -12.722277 43.195084 -200 45 -21.773256 25.500935 -14.743609 106.91888
14530000000 -12.320026 41.629112 -200 45 -21.657095 -41.471146 -18.222931 97.989395
14540000000 -12.149761 41.148705 -200 45 -21.652258 -108.72289 -20.847878 121.43298
14550000000 -11.740266 40.653004 -200 45 -21.832447 -175.63997 -18.173717 129.49269
14560000000 -11.284412 38.372299 -200 45 -21.905151 118.88927 -17.734352 116.47553
14570000000 -10.744149 33.735596 -200 45 -21.854738 53.306328 -19.876833 109.86982
14580000000 -10.728649 25.914051 -200 45 -21.801256 -13.405021 -22.126854 119.70297
14590000000 -11.490492 19.426994 -200 45 -21.813272 -79.279327 -22.663277 140.76328
14600000000 -12.583123 17.329132 -200 45 -21.763426 -145.82457 -19.613209 159.80554
14610000000 -13.613715 19.737869 -200 45 -21.783213 147.26181 -15.65328 152.12592
14620000000 -13.946063 25.079075 -200 45 -21.914335 80.839035 -13.975406 131.01385
14630000000 -13.722319 29.475849 -200 45 -21.952616 15.397948 -14.513084 109.2963
14640000000 -13.346803 30.187244 -200 45 -21.950174 -50.380577 -16.735468 92.882675
14650000000 -13.17022 32.0718 -200 45 -21.825691 -116.26688 -20.656727 87.944923
14660000000 -12.411368 33.968853 -200 45 -21.778067 176.46303 -23.200794 114.10214
14670000000 -11.427322 30.094954 -200 45 -21.855743 109.819 -20.273903 122.93861
14680000000 -11.070601 23.246489 -200 45 -21.92424 43.288174 -19.491806 109.23412
14690000000 -11.093029 15.958368 -200 45 -22.05662 -22.779402 -21.204058 96.14299
14700000000 -11.844565 8.0548506 -200 45 -22.138342 -88.376358 -26.122692 89.459976
14710000000 -13.218299 5.087348 -200 45 -22.109137 -153.68141 -29.167519 170.08754
14720000000 -14.423916 7.924767 -200 45 -22.058456 140.28165 -19.674049 171.03212
14730000000 -14.823853 14.106913 -200 45 -22.022671 74.295151 -16.133924 147.03242
14740000000 -14.948446 17.293688 -200 45 -21.965122 8.1145029 -15.179098 122.02837
14750000000 -14.890967 23.20929 -200 45 -21.966658 -58.213852 -15.960502 96.813919
14760000000 -14.03465 26.718676 -200 45 -21.923439 -124.44176 -19.234671 74.693123
14770000000 -13.109083 26.948074 -200 45 -21.908392 168.71602 -25.459169 78.5466
14780000000 -12.048684 23.202932 -200 45 -22.02247 102.17762 -25.341444 117.25024
14790000000 -11.516884 14.543961 -200 45 -22.119869 36.808632 -22.345493 116.46672
14800000000 -11.844515 5.3491335 -200 45 -22.085304 -28.668404 -21.340647 98.372597
14810000000 -12.832226 -0.93811381 -200 45 -21.962172 -94.274414 -23.907528 67.888901
14820000000 -14.069119 -3.0318964 -200 45 -21.887571 -161.28685 -39.193928 5.4261909
14830000000 -15.186872 -1.5424258 -200 45 -21.924885 132.12706 -25.330145 -162.55667
14840000000 -16.191065 4.1303687 -200 45 -21.945293 66.104034 -19.609894 167.00288
14850000000 -16.252338 11.802826 -200 45 -21.979242 0.18949571 -17.061552 139.19208
14860000000 -15.996713 18.00317 -200 45 -21.978523 -65.819054 -16.435379 108.72005
14870000000 -14.903196 24.034208 -200 45 -21.91433 -131.64398 -18.245054 76.696754
14880000000 -13.333985 21.950348 -200 45 -21.863825 161.79633 -23.528984 54.250854
14890000000 -12.46243 15.136399 -200 45 -21.86561 95.644699 -29.50741 76.192986
14900000000 -12.117372 6.3064299 -200 45 -21.834658 29.479668 -28.986729 93.245132
14910000000 -12.55826 -2.3320267 -200 45 -21.83189 -36.930466 -28.437521 102.42845
14920000000 -13.459943 -8.0052834 -200 45 -21.859756 -103.01513 -25.933485 85.076439
14930000000 -14.494465 -10.700782 -200 45 -21.85248 -168.99742 -27.488295 24.418291
14940000000 -15.610415 -10.642827 -200 45 -21.76259 125.40247 -27.141809 -91.304382
14950000000 -16.507793 -8.0589104 -200 45 -21.629648 58.859669 -22.152023 -164.83627
14960000000 -17.442482 -0.84624672 -200 45 -21.5662 -8.4694138 -21.049101 152.78308
14970000000 -16.956472 9.3437901 -200 45 -21.670183 -75.287148 -21.239225 130.85408
14980000000 -15.635108 12.812589 -200 45 -21.723492 -141.3275 -20.31892 108.10184
14990000000 -14.414282 10.291953 -200 45 -21.751259 152.50162 -20.911545 70.647957
15000000000 -13.548642 2.42576 -200 45 -21.729261 86.139183 -25.269381 25.571821
15010000000 -13.767229 -6.3354344 -200 45 -21.791965 19.7108 -39.094894 -12.837934
15020000000 -14.279334 -11.674539 -200 45 -21.82049 -45.816666 -35.486988 81.087723
15030000000 -14.863613 -15.690533 -200 45 -21.780182 -112.01141 -32.23748 14.187166
15040000000 -15.632813 -19.085026 -200 45 -21.712618 -178.06741 -31.34918 -58.250751
15050000000 -16.527788 -21.224718 -200 45 -21.690765 115.14498 -30.502493 -96.551292
15060000000 -17.806492 -20.71249 -200 45 -21.746391 48.996494 -26.604425 -110.8233
15070000000 -18.97526 -13.73707 -200 45 -21.725451 -17.237101 -22.344337 -144.23877
15080000000 -18.603859 -1.3828257 -200 45 -21.705614 -83.51091 -21.34581 173.85159
15090000000 -17.032038 0.52635074 -200 45 -21.677212 -150.05965 -23.380581 136.72676
15100000000 -16.163406 -4.1327996 -200 45 -21.712782 143.70764 -26.206839 112.62392
15110000000 -15.78932 -10.311776 -200 45 -21.696333 77.309631 -27.226864 75.773872
15120000000 -16.092283 -16.330244 -200 45 -21.651844 10.72064 -28.067081 7.3805728
15130000000 -16.545519 -17.936769 -200 45 -21.724224 -56.01717 -28.483664 -64.01609
15140000000 -16.285349 -19.821218 -200 45 -21.789289 -122.53848 -31.854506 -97.58918
15150000000 -16.267422 -27.143211 -200 45 -21.919044 171.1902 -29.668461 -73.227722
15160000000 -17.266315 -34.878803 -200 45 -22.04414 105.52892 -25.014963 -91.824303
15170000000 -18.901117 -36.627739 -200 45 -22.035782 40.559231 -24.148582 -109.47848
15180000000 -20.272963 -30.803804 -200 45 -21.862816 -25.57863 -22.524349 -114.38016
15190000000 -20.333033 -20.343365 -200 45 -21.816805 -92.409981 -20.099533 -134.34097
15200000000 -19.073988 -17.414307 -200 45 -21.860018 -158.86224 -19.954746 -165.15157
15210000000 -18.388968 -23.416504 -200 45 -21.885374 134.54057 -22.50168 162.47739
15220000000 -18.994223 -27.011786 -200 45 -21.976967 68.167458 -28.53492 126.33112
15230000000 -18.887247 -24.472649 -200 45 -22.035183 2.171638 -38.019577 9.3916292
15240000000 -18.245161 -25.715591 -200 45 -22.089256 -63.912785 -28.553535 -64.495186
15250000000 -17.357418 -31.718477 -200 45 -22.143169 -129.39618 -25.073067 -87.558334
15260000000 -17.196201 -44.618649 -200 45 -22.050175 165.02347 -23.722612 -98.943573
15270000000 -18.399937 -57.46756 -200 45 -22.035378 98.227898 -22.811283 -105.71979
15280000000 -20.669231 -64.551521 -200 45 -22.038916 32.357418 -22.263067 -107.06884
15290000000 -23.291775 -60.760078 -200 45 -22.022894 -34.170368 -20.358829 -107.51868
15300000000 -24.406622 -44.656178 -200 45 -22.029537 -100.29198 -18.368961 -120.02849
15310000000 -23.552633 -39.653263 -200 45 -22.050325 -166.95451 -17.77589 -139.11684
15320000000 -23.661871 -37.667377 -200 45 -22.07534 127.06544 -18.986494 -160.02946
15330000000 -23.514029 -30.925179 -200 45 -22.161501 60.781712 -22.910675 -174.71335
15340000000 -21.97715 -24.085436 -200 45 -22.152283 -4.9689493 -28.89609 -149.01122
15350000000 -19.652597 -29.872126 -200 45 -22.109922 -71.176376 -25.639664 -114.26604
15360000000 -18.426064 -44.915298 -200 45 -22.078016 -136.85568 -23.499586 -112.39099
