!Keysight Technologies,P9374A,MY57211810,A.19.30.04
!Date: Friday, May 02, 2025 09:02:08
!Correction: S11(Off) 
!S21(Off) 
!S12(Off) 
!S22(Off) 
!S2P File: Measurements: S11, S21, S12, S22:
# Hz S  dB   R 50
13000000000 -11.531517 113.98865 -200 45 -36.258118 -44.731068 -13.12564 -175.58348
13010000000 -12.285722 105.78293 -200 45 -36.440006 -110.4263 -18.47352 -173.71838
13020000000 -13.877012 100.51302 -200 45 -36.339554 -177.33621 -19.488594 -121.36255
13030000000 -15.791497 105.61943 -200 45 -36.346581 117.64009 -13.845718 -113.53378
13040000000 -16.106207 118.02794 -200 45 -36.162003 50.266785 -11.034611 -128.6736
13050000000 -15.162877 123.70419 -200 45 -36.185108 -16.577677 -10.585821 -147.43858
13060000000 -14.441472 124.73169 -200 45 -36.114166 -84.335907 -12.313184 -161.83528
13070000000 -13.96776 124.68479 -200 45 -36.228683 -151.02385 -15.417627 -158.32137
13080000000 -13.363018 125.79553 -200 45 -36.414879 142.24458 -15.461959 -137.14545
13090000000 -12.386273 123.57433 -200 45 -36.528774 76.171722 -12.849996 -132.83269
13100000000 -11.643369 116.84156 -200 45 -36.603668 9.2187319 -11.118742 -143.33824
13110000000 -11.612784 108.08357 -200 45 -36.503876 -54.489971 -11.002873 -160.32048
13120000000 -12.320649 100.9065 -200 45 -36.580357 -121.15366 -13.210192 -177.37076
13130000000 -13.514012 97.636292 -200 45 -36.281769 171.47081 -18.980469 -174.61479
13140000000 -14.580233 99.331665 -200 45 -36.563648 104.68716 -18.27212 -118.99399
13150000000 -15.240621 103.03584 -200 45 -36.479507 37.632385 -12.966934 -119.06972
13160000000 -15.583099 108.18623 -200 45 -37.049942 -28.125034 -10.715842 -134.25676
13170000000 -15.530034 113.9011 -200 45 -36.902004 -91.860893 -10.362345 -150.99544
13180000000 -15.014162 120.3697 -200 45 -36.719837 -155.81703 -11.671683 -165.37584
13190000000 -13.75648 122.96033 -200 45 -36.284149 136.9809 -14.769928 -167.53589
13200000000 -12.52703 119.63751 -200 45 -36.167088 68.464546 -15.598318 -142.7429
13210000000 -11.94411 112.75716 -200 45 -36.356632 0.62936449 -12.308456 -138.62598
13220000000 -11.893717 105.99745 -200 45 -36.633286 -63.939575 -10.746228 -152.7509
13230000000 -12.341912 100.16061 -200 45 -36.491604 -129.69695 -11.123341 -169.55867
13240000000 -13.052182 96.62072 -200 45 -36.426811 164.0439 -13.48557 176.08652
13250000000 -14.018935 95.202103 -200 45 -36.20459 98.767303 -19.002373 179.76743
13260000000 -15.127836 97.02253 -200 45 -35.877129 30.82687 -18.459522 -124.9007
13270000000 -16.017862 104.37436 -200 45 -35.915409 -36.567253 -12.84408 -125.78551
13280000000 -15.989563 115.42441 -200 45 -36.133614 -104.65187 -10.644232 -143.28174
13290000000 -14.690225 123.25669 -200 45 -36.13073 -170.33865 -10.616993 -160.77151
13300000000 -13.237918 123.77796 -200 45 -36.171761 123.64043 -12.247814 -172.16953
13310000000 -12.161363 119.58346 -200 45 -36.113979 57.351639 -14.516427 -168.16357
13320000000 -11.634059 113.83598 -200 45 -36.022995 -9.060586 -14.116601 -153.68622
13330000000 -11.553864 107.85472 -200 45 -36.080112 -77.028885 -11.952198 -153.88782
13340000000 -11.823033 102.66498 -200 45 -36.253162 -143.0007 -10.825664 -167.02214
13350000000 -12.407693 98.47242 -200 45 -36.213596 152.75072 -11.523197 175.74319
13360000000 -13.420249 96.137909 -200 45 -36.092175 85.792389 -14.737973 163.75648
13370000000 -14.626298 99.032967 -200 45 -35.752911 18.646471 -19.306894 -174.29131
13380000000 -15.349638 106.85736 -200 45 -35.923885 -48.690834 -16.082071 -142.51135
13390000000 -14.997307 116.68309 -200 45 -35.889118 -115.08287 -12.46673 -147.04048
13400000000 -13.843612 121.99538 -200 45 -35.996803 177.24988 -10.918006 -161.33133
13410000000 -12.578501 120.9081 -200 45 -36.141766 111.22564 -11.175955 -176.27162
13420000000 -11.856674 117.00872 -200 45 -36.082481 44.631012 -13.03442 175.99944
13430000000 -11.455551 111.45058 -200 45 -36.246628 -21.836784 -14.625298 -174.62669
13440000000 -11.540505 106.04555 -200 45 -36.183666 -88.028671 -13.222905 -164.95673
13450000000 -11.877275 101.38468 -200 45 -36.314835 -154.13289 -11.491826 -171.07544
13460000000 -12.495362 98.035538 -200 45 -36.256531 140.47375 -11.050886 176.13879
13470000000 -13.418805 96.446381 -200 45 -36.231941 73.295242 -11.985128 163.18405
13480000000 -14.374724 98.338158 -200 45 -36.376572 8.5095053 -14.593884 155.10632
13490000000 -15.21489 104.48689 -200 45 -36.257622 -57.361813 -18.560331 171.58228
13500000000 -15.156387 113.62182 -200 45 -36.063152 -123.39059 -16.091848 -157.55406
13510000000 -14.047441 119.35644 -200 45 -35.961063 168.3114 -12.750743 -161.76302
13520000000 -12.984672 118.47313 -200 45 -36.003223 100.77863 -11.673128 -173.46402
13530000000 -12.34174 114.55338 -200 45 -36.201942 35.516628 -11.807627 176.68121
13540000000 -12.203858 110.84277 -200 45 -36.252106 -31.177544 -12.764179 170.0858
13550000000 -12.20815 107.45853 -200 45 -36.219852 -97.069191 -14.015546 171.85855
13560000000 -12.34131 104.79235 -200 45 -36.270565 -163.45049 -13.65929 -179.92947
13570000000 -12.619829 102.23582 -200 45 -36.34333 129.35373 -12.243443 177.96719
13580000000 -13.06935 100.24075 -200 45 -36.38982 63.780457 -11.866387 168.26474
13590000000 -13.937321 100.39032 -200 45 -36.535561 -1.3510615 -12.729672 158.95581
13600000000 -14.608058 105.38879 -200 45 -36.371727 -66.646523 -14.601653 154.61716
13610000000 -14.458035 113.52036 -200 45 -36.195854 -133.26888 -17.04324 164.23515
13620000000 -13.4973 116.81376 -200 45 -36.14299 159.36693 -16.306498 -172.91524
13630000000 -12.660685 115.70686 -200 45 -36.265305 92.589958 -13.465508 -170.44705
13640000000 -12.307907 113.32487 -200 45 -36.248795 27.258081 -12.033161 -179.77956
13650000000 -12.062572 111.46168 -200 45 -36.260433 -39.252048 -11.917905 170.60275
13660000000 -11.888286 109.78325 -200 45 -36.220238 -105.42081 -12.466725 164.36264
13670000000 -11.675018 107.29156 -200 45 -36.29615 -172.48503 -13.28111 162.70132
13680000000 -11.617253 103.66564 -200 45 -36.426868 122.13238 -13.577111 166.76921
13690000000 -12.001652 99.68586 -200 45 -36.31385 57.214218 -12.652596 167.77844
13700000000 -12.7361 98.522148 -200 45 -36.122185 -8.3398027 -12.050623 159.80617
13710000000 -13.417459 101.89158 -200 45 -35.916676 -74.937141 -12.821194 150.19028
13720000000 -13.352998 106.39648 -200 45 -35.874702 -143.06757 -14.654438 147.07475
13730000000 -12.951198 108.42545 -200 45 -35.832962 148.15451 -16.576395 156.40871
13740000000 -12.640803 108.60806 -200 45 -36.153996 82.290512 -16.169868 174.76099
13750000000 -12.348404 108.53703 -200 45 -36.251911 17.710882 -13.658109 179.42978
13760000000 -12.051137 108.95711 -200 45 -36.151146 -49.212967 -12.042687 171.08131
13770000000 -11.480731 107.46978 -200 45 -36.131916 -115.70498 -11.860305 161.0394
13780000000 -11.032991 103.51882 -200 45 -36.202629 178.52545 -12.536205 155.21887
13790000000 -11.043674 97.784103 -200 45 -36.037224 112.02496 -13.170407 155.14693
13800000000 -11.49192 93.479393 -200 45 -35.919941 45.262444 -13.104716 156.69453
13810000000 -12.176581 91.565857 -200 45 -36.127823 -22.701551 -12.697816 154.9211
13820000000 -12.726888 92.310921 -200 45 -36.18111 -88.431023 -12.599987 148.65727
13830000000 -13.155619 93.769882 -200 45 -36.261852 -154.28322 -13.457951 140.98619
13840000000 -13.394096 97.149979 -200 45 -36.241756 138.77544 -15.517789 139.539
13850000000 -13.212657 100.43803 -200 45 -36.245716 72.993073 -17.178068 154.91411
13860000000 -12.791913 102.94604 -200 45 -36.196854 5.6587911 -15.663829 169.39313
13870000000 -12.068203 103.64681 -200 45 -36.373425 -61.123474 -13.888356 169.07721
13880000000 -11.317072 101.24789 -200 45 -36.717438 -127.87746 -12.959643 163.92967
13890000000 -10.863686 96.028351 -200 45 -36.809731 166.83592 -12.705061 157.54933
13900000000 -10.874786 90.240234 -200 45 -36.987328 102.60995 -13.118057 153.07513
13910000000 -11.244426 85.371696 -200 45 -36.615589 38.035973 -13.439758 153.75664
13920000000 -11.874381 82.519012 -200 45 -36.668034 -29.146688 -12.974885 153.18535
13930000000 -12.600155 81.768623 -200 45 -36.470806 -96.627312 -12.803187 147.04219
13940000000 -13.355256 84.002647 -200 45 -36.557072 -162.82962 -13.493464 141.51176
13950000000 -13.687492 88.607857 -200 45 -36.625732 129.8269 -14.601416 139.56723
13960000000 -13.574968 94.033134 -200 45 -36.710236 63.479244 -15.961065 142.4306
13970000000 -12.873649 98.505684 -200 45 -36.918312 -3.0185239 -16.627344 152.41319
13980000000 -11.820232 99.427551 -200 45 -37.055763 -67.733093 -15.886969 160.7032
13990000000 -10.833251 95.498695 -200 45 -37.10173 -134.64865 -14.697515 162.5473
14000000000 -10.473084 89.409302 -200 45 -37.15062 160.64366 -13.868236 159.45047
14010000000 -10.510615 83.472107 -200 45 -37.288448 94.717659 -13.561849 156.77971
14020000000 -10.924735 78.677521 -200 45 -37.190502 30.253384 -13.022966 154.95015
14030000000 -11.54924 75.617432 -200 45 -37.078968 -35.624805 -12.578435 148.62709
14040000000 -12.339993 74.9701 -200 45 -36.893444 -102.04662 -13.011947 141.88306
14050000000 -13.053066 76.820297 -200 45 -37.066288 -167.52399 -13.695448 139.32426
14060000000 -13.664756 81.76033 -200 45 -36.936543 126.71412 -14.335275 137.0638
14070000000 -13.468989 89.801842 -200 45 -36.793087 60.579735 -15.289648 137.48521
14080000000 -12.354781 94.150604 -200 45 -36.526764 -6.3387618 -15.708553 142.37527
14090000000 -11.15817 92.395035 -200 45 -36.602093 -73.737885 -15.580286 144.14087
14100000000 -10.440498 87.507683 -200 45 -36.815186 -140.62755 -16.025888 145.75273
14110000000 -10.114463 81.507927 -200 45 -36.890858 153.46362 -15.969934 153.89569
14120000000 -10.213624 75.406242 -200 45 -36.79911 88.213585 -14.590198 158.55479
14130000000 -10.629253 70.346535 -200 45 -36.984699 22.051247 -13.193194 155.46388
14140000000 -11.298796 67.625908 -200 45 -36.8661 -43.661419 -12.389546 147.67317
14150000000 -11.926419 66.124916 -200 45 -36.718769 -109.46167 -12.389296 138.17125
14160000000 -12.823649 67.046463 -200 45 -36.581608 -175.96202 -13.223794 129.81313
14170000000 -13.441993 72.519211 -200 45 -36.656685 116.50821 -14.804013 126.73582
14180000000 -13.104205 80.051353 -200 45 -36.771038 49.845428 -15.903183 133.04721
14190000000 -12.048944 82.812088 -200 45 -36.885139 -16.194653 -15.442743 137.75691
14200000000 -11.031569 80.709389 -200 45 -36.802891 -80.55481 -15.307568 134.98158
14210000000 -10.357624 75.708954 -200 45 -36.800552 -146.43692 -16.12628 133.34106
14220000000 -10.169287 69.167702 -200 45 -36.478798 146.8766 -17.132381 138.89223
14230000000 -10.419303 63.804062 -200 45 -36.546738 79.343681 -17.105904 150.77109
14240000000 -10.835908 60.158169 -200 45 -36.673199 12.137197 -15.292051 159.11932
14250000000 -11.241969 57.548717 -200 45 -36.715172 -54.183537 -13.094463 154.02853
14260000000 -11.829796 55.228146 -200 45 -36.780697 -120.07316 -12.232695 140.77499
14270000000 -12.665099 54.966381 -200 45 -36.901608 174.81065 -12.888562 128.46353
14280000000 -13.363865 59.723427 -200 45 -36.812737 108.08817 -14.304521 122.66573
14290000000 -13.198363 66.154297 -200 45 -36.929798 42.024288 -15.687451 123.24743
14300000000 -12.30399 69.470589 -200 45 -36.919708 -23.953514 -16.561552 128.90898
14310000000 -11.353453 67.664009 -200 45 -36.982651 -89.896957 -16.090216 134.89679
14320000000 -10.848915 62.617275 -200 45 -36.998806 -155.12379 -15.361396 130.40923
14330000000 -10.822269 57.896633 -200 45 -36.992569 138.80197 -16.442205 122.30547
14340000000 -11.007803 54.381161 -200 45 -36.825169 72.469521 -19.148663 129.22484
14350000000 -11.093301 51.809162 -200 45 -36.99044 6.3398514 -18.502741 152.13882
14360000000 -11.303143 48.180397 -200 45 -37.027584 -60.393017 -15.900023 155.76741
14370000000 -11.85224 44.544292 -200 45 -37.15604 -124.53838 -14.138825 150.1261
14380000000 -12.762302 44.345238 -200 45 -37.02787 169.96423 -13.061406 139.40857
14390000000 -13.429542 48.036304 -200 45 -36.889885 104.65694 -13.172914 124.56315
14400000000 -13.382347 54.328487 -200 45 -36.633125 38.117397 -14.915238 113.81611
14410000000 -12.621063 57.341808 -200 45 -36.66066 -29.080576 -17.058825 116.77888
14420000000 -11.848758 55.694221 -200 45 -36.766743 -95.788422 -17.38303 125.26596
14430000000 -11.555593 52.43961 -200 45 -36.820995 -160.43774 -17.088844 127.28478
14440000000 -11.439419 50.149914 -200 45 -36.614086 134.54233 -17.03299 125.66828
14450000000 -11.178592 48.139946 -200 45 -36.335136 67.994537 -17.724627 120.79842
14460000000 -10.912445 44.284866 -200 45 -36.274395 0.60351038 -19.982603 122.00368
14470000000 -10.943311 38.41288 -200 45 -36.181904 -66.850174 -20.834707 147.14156
14480000000 -11.612574 33.582317 -200 45 -36.311958 -133.03008 -17.281126 158.4832
14490000000 -12.50688 32.178127 -200 45 -36.450363 160.12288 -14.638763 149.14992
14500000000 -13.28312 35.692177 -200 45 -36.337597 94.759666 -13.671561 134.78896
14510000000 -13.222054 40.450413 -200 45 -36.126869 29.748343 -13.934319 120.64998
14520000000 -12.741624 41.990257 -200 45 -36.145409 -38.168102 -15.229527 108.6287
14530000000 -12.486089 41.326126 -200 45 -36.009892 -105.26105 -17.924881 102.35514
14540000000 -12.272392 41.750118 -200 45 -36.016171 -171.97638 -20.41334 117.48546
14550000000 -11.724595 41.865101 -200 45 -35.966572 121.12132 -18.810337 128.41306
14560000000 -11.035398 38.701729 -200 45 -36.101559 53.318401 -17.973505 119.55511
14570000000 -10.630478 32.300682 -200 45 -36.356815 -13.776652 -19.35059 110.62247
14580000000 -10.883266 25.176712 -200 45 -36.461239 -79.345535 -22.002388 114.46965
14590000000 -11.623313 19.779505 -200 45 -36.625881 -143.50195 -23.259159 142.22775
14600000000 -12.751835 18.608908 -200 45 -36.331036 150.89581 -19.199631 161.03534
14610000000 -13.381855 21.780993 -200 45 -36.319614 83.299995 -15.503136 151.09311
14620000000 -13.573789 24.364624 -200 45 -36.238796 16.27949 -14.040034 130.73257
14630000000 -13.787581 25.921297 -200 45 -36.425694 -48.873981 -14.622542 109.27148
14640000000 -13.927505 30.521114 -200 45 -36.372814 -116.06314 -16.944889 93.135071
14650000000 -13.242646 35.401894 -200 45 -36.431858 177.07056 -20.426508 90.364197
14660000000 -12.075915 35.017292 -200 45 -36.630398 110.83842 -22.81848 107.91791
14670000000 -11.198232 29.210093 -200 45 -36.620663 45.592941 -21.091845 122.98199
14680000000 -11.003377 21.312283 -200 45 -36.641441 -21.217077 -19.166115 114.62249
14690000000 -11.36609 14.225933 -200 45 -36.58189 -86.9505 -20.116503 94.359779
14700000000 -12.271991 9.0343552 -200 45 -36.748314 -153.0585 -27.169439 79.460991
14710000000 -13.188171 8.621314 -200 45 -36.952572 140.06699 -27.34668 -178.27527
14720000000 -13.884149 9.0538168 -200 45 -37.04158 74.89389 -19.365025 168.04291
14730000000 -14.514455 10.440799 -200 45 -37.019009 9.9219055 -16.500591 145.37898
14740000000 -15.385412 14.776988 -200 45 -37.184425 -54.177483 -15.474702 122.39425
14750000000 -15.333622 24.56745 -200 45 -36.89994 -120.09742 -15.929744 98.484093
14760000000 -14.035908 30.229582 -200 45 -36.49744 174.85152 -18.620235 75.720795
14770000000 -12.637787 27.749001 -200 45 -36.36758 107.3003 -25.373184 71.378349
14780000000 -11.80594 20.677191 -200 45 -36.601273 39.185925 -25.640511 126.58466
14790000000 -11.695261 12.583771 -200 45 -36.521816 -27.299734 -21.386765 116.92513
14800000000 -12.182019 5.2060766 -200 45 -36.730152 -92.4254 -21.597429 93.12677
14810000000 -13.022946 1.1960707 -200 45 -36.835236 -157.80417 -25.187712 69.42395
14820000000 -13.85412 -1.0162692 -200 45 -36.675808 137.12514 -38.68108 39.507248
14830000000 -14.774516 -1.8317498 -200 45 -36.39204 70.700386 -26.552988 -156.95665
14840000000 -16.075615 0.89760864 -200 45 -36.352528 4.9224143 -19.293381 170.0657
14850000000 -16.745667 10.19857 -200 45 -36.437519 -62.400963 -16.670424 136.58156
14860000000 -16.204588 21.203997 -200 45 -36.200478 -129.31862 -16.711584 105.81253
14870000000 -14.609768 24.903822 -200 45 -36.258026 164.30132 -18.796034 80.282738
14880000000 -13.199845 21.549856 -200 45 -36.337147 97.059647 -22.724323 61.698143
14890000000 -12.393392 13.922289 -200 45 -36.731239 30.416803 -29.160002 58.193699
14900000000 -12.266551 5.4963317 -200 45 -36.790501 -33.079758 -31.675293 108.83365
14910000000 -12.717836 -1.8502498 -200 45 -36.54118 -96.346405 -26.202406 106.30302
14920000000 -13.472198 -7.1537833 -200 45 -36.162865 -162.02649 -25.292719 70.088959
14930000000 -14.389398 -9.9409637 -200 45 -35.663544 129.31757 -29.20245 9.7204552
14940000000 -15.456491 -11.68648 -200 45 -35.550251 60.768059 -29.288134 -105.75311
14950000000 -16.596031 -8.4330025 -200 45 -35.807175 -8.3423548 -23.766167 -166.38632
14960000000 -17.503439 -0.93067712 -200 45 -36.167183 -74.756645 -21.344652 160.77559
14970000000 -16.997173 9.4491549 -200 45 -36.291264 -140.54671 -20.079071 133.81639
14980000000 -15.642804 13.475939 -200 45 -36.511379 155.85159 -19.930077 102.45395
14990000000 -14.348136 9.7893686 -200 45 -36.176399 90.596794 -21.875202 65.792534
15000000000 -13.649771 2.6995273 -200 45 -35.920986 22.802195 -26.876276 31.152401
15010000000 -13.634732 -5.7324915 -200 45 -35.793262 -44.443775 -35.453163 24.278275
15020000000 -14.21041 -12.413442 -200 45 -35.984394 -112.4043 -36.458328 45.450214
15030000000 -14.967854 -16.583138 -200 45 -36.263508 -179.32332 -36.065193 5.160274
15040000000 -15.834244 -18.895767 -200 45 -36.537067 115.7928 -34.843826 -48.645691
15050000000 -16.541641 -19.380127 -200 45 -36.599327 51.59903 -30.287891 -81.370964
15060000000 -17.587429 -20.641426 -200 45 -36.155079 -13.281306 -25.293953 -112.47083
15070000000 -18.778906 -14.251835 -200 45 -36.017185 -80.79882 -22.342628 -148.49074
15080000000 -18.741104 -3.7704775 -200 45 -35.96748 -147.27724 -21.766161 174.34331
15090000000 -17.33066 0.97218174 -200 45 -35.930088 144.2368 -23.277803 139.34558
15100000000 -16.186949 -2.4118814 -200 45 -36.093208 78.040108 -25.867794 108.39843
15110000000 -15.664063 -9.5494604 -200 45 -36.112766 11.716947 -28.120026 72.118149
15120000000 -15.921415 -15.9659 -200 45 -36.212799 -54.490986 -29.381105 14.084704
15130000000 -16.312084 -19.386423 -200 45 -36.265938 -121.42477 -28.983852 -51.087341
15140000000 -16.502241 -22.084518 -200 45 -36.262005 172.85333 -29.35626 -91.58342
15150000000 -16.683586 -26.406303 -200 45 -36.380917 107.21406 -30.357679 -92.042976
15160000000 -17.283363 -32.186924 -200 45 -36.179562 40.769825 -26.592531 -86.451195
15170000000 -18.55966 -35.398026 -200 45 -36.272808 -26.102665 -23.311943 -101.72025
15180000000 -19.948105 -31.894573 -200 45 -36.280647 -92.529144 -21.662455 -119.54839
15190000000 -20.224224 -23.322466 -200 45 -36.33149 -158.71663 -20.623846 -137.82768
15200000000 -19.528179 -19.266388 -200 45 -36.42197 134.95332 -20.517092 -162.46707
15210000000 -18.90419 -21.049456 -200 45 -36.367065 69.795349 -22.334637 166.10904
15220000000 -18.687426 -22.801279 -200 45 -36.320526 2.7497752 -27.671926 125.92509
15230000000 -18.367643 -24.894133 -200 45 -36.381794 -62.915585 -36.921223 12.678649
15240000000 -17.894178 -28.512741 -200 45 -36.218384 -130.03529 -28.517601 -65.757042
15250000000 -17.647083 -35.546787 -200 45 -36.131264 161.82109 -25.174269 -87.468491
15260000000 -17.813303 -44.652714 -200 45 -36.646656 94.93364 -23.405737 -98.901291
15270000000 -18.817661 -53.524494 -200 45 -36.922531 30.666079 -22.852495 -107.34269
15280000000 -20.185614 -59.33065 -200 45 -36.797485 -34.437725 -22.568743 -105.53431
15290000000 -22.178371 -61.622078 -200 45 -36.586704 -99.44912 -20.202511 -105.70867
15300000000 -24.244848 -55.978382 -200 45 -36.557091 -166.30006 -18.115217 -121.30454
15310000000 -25.018026 -40.85466 -200 45 -36.309566 126.54103 -17.935589 -141.94246
15320000000 -24.297112 -30.199099 -200 45 -36.34853 59.369453 -19.521671 -158.97752
15330000000 -22.659637 -25.084038 -200 45 -36.513752 -7.4483204 -22.503897 -167.54008
15340000000 -21.056484 -27.277912 -200 45 -36.659775 -76.041985 -27.278288 -158.93068
15350000000 -19.640505 -35.512005 -200 45 -36.984589 -140.51653 -27.650776 -110.42966
15360000000 -19.032803 -47.844112 -200 45 -36.951145 153.89824 -22.69488 -103.28551
