!Keysight Technologies,P9374A,MY57211810,A.19.30.04
!Date: Friday, May 02, 2025 08:56:31
!Correction: S11(Off) 
!S21(Off) 
!S12(Off) 
!S22(Off) 
!S2P File: Measurements: S11, S21, S12, S22:
# Hz S  dB   R 50
13000000000 -12.020771 110.25773 -200 45 -20.276182 30.44087 -13.215614 -178.03667
13010000000 -13.021761 107.22094 -200 45 -20.122389 -37.008732 -19.106266 -170.94196
13020000000 -14.003238 105.94422 -200 45 -20.084204 -104.60498 -18.775188 -122.64543
13030000000 -14.971286 108.75388 -200 45 -20.21258 -172.19228 -13.964329 -114.96989
13040000000 -15.328519 113.15919 -200 45 -20.448921 121.23604 -11.091107 -128.19337
13050000000 -15.744623 117.32959 -200 45 -20.520437 56.318447 -10.606199 -147.17099
13060000000 -15.396055 127.16855 -200 45 -20.326324 -9.4134445 -12.303242 -161.59064
13070000000 -13.914334 130.40227 -200 45 -20.223923 -76.918129 -15.336192 -159.32706
13080000000 -12.681706 127.22015 -200 45 -20.308207 -144.51938 -15.657986 -137.41632
13090000000 -11.931007 120.71999 -200 45 -20.503574 148.54312 -12.820086 -131.48645
13100000000 -11.790286 112.81493 -200 45 -20.740274 82.515549 -10.867777 -143.76591
13110000000 -12.246102 107.51377 -200 45 -20.84811 17.719124 -11.021247 -162.18636
13120000000 -12.648634 104.31882 -200 45 -20.718456 -47.030315 -13.568844 -177.10306
13130000000 -13.143674 101.01414 -200 45 -20.471525 -113.42989 -18.841028 -170.46605
13140000000 -13.980629 98.496002 -200 45 -20.424574 178.62605 -18.1649 -122.16988
13150000000 -15.094385 98.554733 -200 45 -20.608828 111.49676 -13.203289 -118.99257
13160000000 -16.368597 106.06997 -200 45 -20.751469 45.790291 -10.744663 -133.09099
13170000000 -15.887246 118.62598 -200 45 -20.782028 -19.481453 -10.163756 -150.77402
13180000000 -14.439671 122.56787 -200 45 -20.694963 -85.041954 -11.576326 -167.31775
13190000000 -13.443705 120.73929 -200 45 -20.57703 -151.50252 -15.330576 -167.62909
13200000000 -12.66991 117.79698 -200 45 -20.578823 141.45526 -15.176472 -139.70271
13210000000 -12.160045 112.4571 -200 45 -20.680363 75.142532 -12.146286 -140.80435
13220000000 -12.10091 107.13604 -200 45 -20.710352 9.5713253 -11.058771 -153.45404
13230000000 -12.174443 102.03132 -200 45 -20.681311 -56.030098 -11.18356 -167.79219
13240000000 -12.769725 95.582573 -200 45 -20.55402 -121.41452 -13.124931 175.60559
13250000000 -14.11892 93.475372 -200 45 -20.317965 172.15001 -19.602648 175.82704
13260000000 -15.311817 97.350395 -200 45 -20.240021 104.31602 -17.864239 -122.28727
13270000000 -16.08622 105.13553 -200 45 -20.351374 37.602154 -12.773583 -128.22319
13280000000 -15.798628 116.52905 -200 45 -20.339428 -28.34379 -10.910847 -142.96986
13290000000 -14.573872 121.8487 -200 45 -20.287035 -94.491882 -10.459218 -159.01347
13300000000 -13.383812 123.10342 -200 45 -20.191143 -160.73427 -11.990644 -174.08508
13310000000 -12.235111 120.31508 -200 45 -20.0774 132.26996 -15.196875 -169.07002
13320000000 -11.608863 113.94634 -200 45 -20.098166 64.793579 -13.82711 -150.10107
13330000000 -11.56787 108.52039 -200 45 -20.232832 -1.7534229 -11.676832 -156.53995
13340000000 -11.628786 102.71345 -200 45 -20.277817 -67.331184 -11.14111 -168.54031
13350000000 -12.335512 96.742172 -200 45 -20.174389 -133.24039 -11.677649 177.91254
13360000000 -13.881341 95.257584 -200 45 -20.06839 160.48108 -14.247113 164.94656
13370000000 -14.839772 101.80653 -200 45 -19.939411 93.348442 -19.6647 -178.67065
13380000000 -14.981857 108.89795 -200 45 -19.95648 26.064684 -16.101959 -138.59964
13390000000 -14.624148 115.18723 -200 45 -20.035778 -40.953571 -12.13793 -147.1624
13400000000 -13.945205 118.71404 -200 45 -20.077307 -107.11231 -10.948175 -162.94371
13410000000 -13.018293 121.54121 -200 45 -20.045124 -173.60951 -11.457247 -176.13571
13420000000 -11.866534 119.01689 -200 45 -20.067286 119.68455 -12.88287 177.67969
13430000000 -11.30849 112.25632 -200 45 -20.109823 52.935951 -14.491042 -176.72162
13440000000 -11.362561 106.34524 -200 45 -20.178289 -14.017395 -13.535935 -164.59244
13450000000 -11.648194 100.16875 -200 45 -20.350735 -79.932922 -11.284611 -169.53127
13460000000 -12.658484 95.430878 -200 45 -20.334202 -145.12996 -10.838573 174.77806
13470000000 -13.870413 97.182564 -200 45 -20.205746 148.91765 -12.31093 161.5782
13480000000 -14.374303 101.06629 -200 45 -20.095474 81.608986 -14.806512 159.05173
13490000000 -14.996674 105.82304 -200 45 -20.193203 14.599779 -17.856079 168.91721
13500000000 -14.67375 112.90621 -200 45 -20.28857 -52.013714 -16.734755 -157.80576
13510000000 -14.083568 115.30553 -200 45 -20.368956 -118.13679 -12.615874 -159.11119
13520000000 -13.622975 117.83636 -200 45 -20.470802 176.00113 -11.400572 -174.89499
13530000000 -12.533816 118.36562 -200 45 -20.458664 110.51803 -12.022055 174.9781
13540000000 -11.857389 112.73569 -200 45 -20.400127 44.492455 -12.850771 171.61482
13550000000 -11.818422 107.06399 -200 45 -20.365299 -22.127924 -13.767911 172.00398
13560000000 -12.132695 102.23741 -200 45 -20.416113 -88.397446 -13.695371 179.62354
13570000000 -12.940592 98.937439 -200 45 -20.439747 -154.48886 -12.293139 178.47586
13580000000 -13.804803 101.96943 -200 45 -20.447329 139.89938 -11.805583 168.30182
13590000000 -13.839165 105.51627 -200 45 -20.392176 74.215462 -12.747686 158.39127
13600000000 -13.817612 106.6228 -200 45 -20.270094 8.2969532 -14.760105 155.07373
13610000000 -14.088768 108.56192 -200 45 -20.102999 -58.819363 -16.89468 165.14041
13620000000 -14.049785 113.2333 -200 45 -20.104029 -126.54311 -16.338469 -174.78786
13630000000 -13.31804 118.3608 -200 45 -20.32593 166.50261 -13.671644 -169.30698
13640000000 -12.130507 117.23484 -200 45 -20.5138 101.25636 -11.788668 -178.74475
13650000000 -11.573399 111.99187 -200 45 -20.463537 36.606831 -11.755638 168.66078
13660000000 -11.634337 107.93864 -200 45 -20.310257 -29.494881 -12.890547 163.90593
13670000000 -11.691971 104.59388 -200 45 -20.228827 -96.272202 -13.174559 166.13281
13680000000 -12.132077 102.35593 -200 45 -20.200764 -162.41226 -13.160209 164.72258
13690000000 -12.373466 102.93162 -200 45 -20.151096 130.97095 -13.095715 166.51813
13700000000 -12.33509 101.79409 -200 45 -20.160517 64.775681 -12.113272 162.53926
13710000000 -12.953339 100.31531 -200 45 -20.140467 -1.3124487 -12.454318 149.77808
13720000000 -13.322783 103.64767 -200 45 -20.001009 -67.684883 -14.911319 144.90469
13730000000 -13.291958 106.69826 -200 45 -19.909273 -134.78941 -16.701048 158.54091
13740000000 -13.054307 110.04088 -200 45 -19.884369 157.74074 -15.988693 173.82275
13750000000 -12.253666 112.14964 -200 45 -20.044851 90.756783 -13.736644 179.93619
13760000000 -11.586499 109.03783 -200 45 -20.187567 24.818045 -11.861392 171.17072
13770000000 -11.290515 105.45097 -200 45 -20.192354 -41.068039 -11.927272 159.8002
13780000000 -11.182274 101.23148 -200 45 -20.192078 -107.38095 -12.766304 156.33598
13790000000 -11.434799 97.656029 -200 45 -20.181835 -173.39955 -12.881429 156.20796
13800000000 -11.683129 96.151192 -200 45 -20.145639 120.14275 -13.076187 154.58527
13810000000 -11.83571 93.698524 -200 45 -20.160877 53.667652 -12.979359 155.13074
13820000000 -12.367071 91.061584 -200 45 -20.23592 -12.531802 -12.526235 150.43652
13830000000 -13.116753 91.224945 -200 45 -20.183857 -78.37011 -13.162584 140.67186
13840000000 -13.823907 95.684067 -200 45 -20.114845 -145.18167 -15.711361 136.96141
13850000000 -13.564111 103.38866 -200 45 -20.140163 147.60493 -17.562656 157.84401
13860000000 -12.406587 105.1502 -200 45 -20.302963 81.114647 -15.172249 170.01559
13870000000 -11.772597 102.30946 -200 45 -20.399822 15.089229 -13.906481 166.54761
13880000000 -11.352122 99.564018 -200 45 -20.524315 -50.786179 -13.240883 164.58623
13890000000 -11.031386 95.44175 -200 45 -20.589245 -116.475 -12.530225 158.76981
13900000000 -11.082891 90.586174 -200 45 -20.601566 178.31607 -13.031452 152.04782
13910000000 -11.278114 87.414597 -200 45 -20.519451 112.30663 -13.546218 154.14964
13920000000 -11.55435 83.073082 -200 45 -20.464085 46.40456 -12.817478 153.46948
13930000000 -12.488183 79.75901 -200 45 -20.433384 -20.000227 -12.921196 146.04265
13940000000 -13.540417 83.28994 -200 45 -20.417717 -86.426773 -13.678052 143.15778
13950000000 -13.813165 89.120575 -200 45 -20.480122 -152.5719 -14.206633 139.68344
13960000000 -13.607619 94.977074 -200 45 -20.406084 141.01115 -16.229733 138.2393
13970000000 -12.727324 99.375504 -200 45 -20.488272 74.460075 -17.000059 156.62167
13980000000 -11.650108 98.581894 -200 45 -20.552206 8.6088438 -15.043676 161.13829
13990000000 -10.932291 94.640121 -200 45 -20.563765 -57.172714 -14.902494 157.7587
14000000000 -10.541915 89.411064 -200 45 -20.607204 -123.41659 -14.332397 162.43634
14010000000 -10.609831 83.825813 -200 45 -20.673771 171.12816 -13.103065 159.07576
14020000000 -10.884619 79.671516 -200 45 -20.6026 105.73811 -12.901425 151.89594
14030000000 -11.38521 75.673775 -200 45 -20.520947 39.754055 -12.96788 148.6149
14040000000 -12.275052 73.945686 -200 45 -20.470945 -26.147003 -12.974196 143.84169
14050000000 -13.190734 76.078964 -200 45 -20.372614 -91.853119 -13.456116 138.37395
14060000000 -13.802692 82.489586 -200 45 -20.226892 -158.31927 -14.438339 135.67728
14070000000 -13.417654 90.94368 -200 45 -20.141571 134.69336 -15.460002 138.30002
14080000000 -12.104451 93.940704 -200 45 -20.175123 67.82827 -15.478921 143.52348
14090000000 -11.198124 90.997162 -200 45 -20.194967 1.71031 -15.473444 142.65994
14100000000 -10.601516 87.46286 -200 45 -20.167042 -64.540634 -16.311068 146.30219
14110000000 -10.162344 82.363869 -200 45 -20.164207 -131.06381 -15.648473 155.6001
14120000000 -10.151649 75.863235 -200 45 -20.187508 162.5733 -14.648155 156.27138
14130000000 -10.526298 70.778374 -200 45 -20.215559 96.540878 -13.499717 156.91571
14140000000 -11.089921 66.483887 -200 45 -20.205296 30.586531 -12.082248 148.86461
14150000000 -12.183392 64.162048 -200 45 -20.123007 -35.091244 -12.264203 135.20378
14160000000 -13.197558 69.174294 -200 45 -20.011799 -101.67219 -13.724276 129.85602
14170000000 -13.072792 74.8713 -200 45 -19.960535 -168.62148 -14.520146 130.4185
14180000000 -12.845915 78.142738 -200 45 -19.961161 124.50932 -15.455771 129.57999
14190000000 -12.176239 81.566704 -200 45 -20.058369 57.90847 -16.113234 137.52754
14200000000 -11.197602 80.651871 -200 45 -20.096163 -7.9617977 -15.133242 138.71428
14210000000 -10.457877 76.421089 -200 45 -20.080259 -74.017662 -15.724551 131.2041
14220000000 -10.111842 70.299194 -200 45 -20.019274 -140.5638 -17.61237 137.84795
14230000000 -10.270007 63.986588 -200 45 -20.062622 152.966 -17.048746 153.11189
14240000000 -10.683025 59.634739 -200 45 -20.079981 86.520599 -15.114322 157.99829
14250000000 -11.267963 55.876682 -200 45 -20.140726 20.257545 -13.18926 153.5955
14260000000 -12.128719 54.852741 -200 45 -20.205322 -45.646843 -12.246173 141.20111
14270000000 -12.795649 57.160812 -200 45 -20.16103 -111.09105 -12.778451 128.35503
14280000000 -13.12209 60.679585 -200 45 -20.056385 -177.59697 -14.356936 121.97811
14290000000 -12.986266 65.654892 -200 45 -20.062859 115.51353 -15.807088 123.98643
14300000000 -12.214892 67.860809 -200 45 -20.126732 49.018959 -16.305531 129.97148
14310000000 -11.572768 66.046471 -200 45 -20.174404 -17.118757 -16.072506 132.49976
14320000000 -11.193618 63.912491 -200 45 -20.23423 -83.239487 -15.857514 131.15517
14330000000 -10.73465 60.522476 -200 45 -20.281076 -149.17909 -16.200199 126.10329
14340000000 -10.581166 54.790707 -200 45 -20.307484 144.83978 -18.444857 123.41492
14350000000 -10.899117 49.519089 -200 45 -20.321798 79.048805 -19.768059 153.63545
14360000000 -11.496176 45.680618 -200 45 -20.299335 13.291875 -15.324629 160.01404
14370000000 -12.37996 45.095627 -200 45 -20.257755 -52.451778 -13.697691 146.25682
14380000000 -12.841638 48.186687 -200 45 -20.17857 -118.94576 -13.594255 137.6548
14390000000 -12.834756 49.942127 -200 45 -20.238487 174.77029 -13.227407 127.9289
14400000000 -12.974528 50.675556 -200 45 -20.21814 109.09132 -14.442482 113.81335
14410000000 -13.037187 54.127373 -200 45 -20.127708 43.196106 -17.331457 114.71764
14420000000 -12.386481 57.291191 -200 45 -20.038288 -23.048897 -17.373251 126.69083
14430000000 -11.522902 55.896843 -200 45 -19.942139 -89.917717 -17.237043 126.37503
14440000000 -10.97479 51.146751 -200 45 -20.040226 -156.97778 -17.117474 127.52753
14450000000 -10.91057 45.91074 -200 45 -20.134998 137.18254 -17.090433 120.59547
14460000000 -11.042988 42.049854 -200 45 -20.09864 71.632133 -20.325239 115.73127
14470000000 -11.297556 38.000431 -200 45 -20.014458 5.5199361 -21.060944 155.45499
14480000000 -11.848789 35.537754 -200 45 -19.962751 -61.005871 -16.38452 157.79874
14490000000 -12.342591 35.133659 -200 45 -19.964451 -127.48779 -14.823676 145.3996
14500000000 -12.720186 35.160454 -200 45 -19.970867 166.14546 -14.188244 136.24091
14510000000 -13.186698 37.019619 -200 45 -20.007971 99.986221 -13.729769 123.56793
14520000000 -13.174778 40.835339 -200 45 -19.946064 34.329151 -14.820291 106.43757
14530000000 -12.752956 43.150402 -200 45 -19.801903 -32.435043 -18.293646 98.747711
14540000000 -12.17304 44.077282 -200 45 -19.835299 -99.771629 -20.659536 121.17077
14550000000 -11.340334 42.437305 -200 45 -19.987539 -166.27982 -18.279903 128.50938
14560000000 -10.783605 36.670212 -200 45 -20.068626 128.26904 -17.850895 117.66634
14570000000 -10.838037 29.991201 -200 45 -20.000746 62.471062 -19.558231 110.59474
14580000000 -11.276737 25.083084 -200 45 -19.923256 -3.7873297 -22.127312 116.51803
14590000000 -11.868227 22.616573 -200 45 -19.902853 -70.184067 -23.239557 143.93547
14600000000 -12.283097 21.466171 -200 45 -19.879 -136.84581 -19.077015 160.79187
14610000000 -12.819354 19.20866 -200 45 -19.93874 156.66479 -15.563514 149.74596
14620000000 -13.861969 19.909723 -200 45 -19.944483 90.623718 -14.274258 130.30876
14630000000 -14.473652 27.398426 -200 45 -19.926054 24.220835 -14.614745 111.22416
14640000000 -13.865917 34.792542 -200 45 -19.950459 -42.306099 -16.383581 93.813446
14650000000 -12.679708 35.969234 -200 45 -19.982754 -108.57835 -20.483845 83.924736
14660000000 -11.865743 32.044018 -200 45 -20.024647 -175.27786 -23.956633 117.53587
14670000000 -11.496328 27.321611 -200 45 -20.195368 118.66447 -19.787745 125.64159
14680000000 -11.306646 22.311865 -200 45 -20.227009 53.4058 -19.091711 106.38647
14690000000 -11.42651 16.234226 -200 45 -20.156469 -12.260056 -21.754541 93.210709
14700000000 -11.950398 10.738479 -200 45 -20.11842 -78.435562 -26.705315 96.52375
14710000000 -12.843074 6.5334053 -200 45 -20.10055 -144.73573 -28.616417 162.21169
14720000000 -14.10206 6.3655128 -200 45 -20.138943 149.05923 -19.971445 170.49597
14730000000 -14.979084 11.368935 -200 45 -20.118658 82.958893 -16.225958 148.27953
14740000000 -15.280439 17.723635 -200 45 -20.134794 16.914988 -14.982016 122.57653
14750000000 -14.963681 24.597933 -200 45 -20.125957 -49.12587 -15.85512 95.955902
14760000000 -13.943416 28.435837 -200 45 -20.111227 -115.26917 -19.402319 73.456306
14770000000 -12.804716 26.898689 -200 45 -20.116634 178.35551 -25.599411 81.774162
14780000000 -11.938895 21.1378 -200 45 -20.152962 112.28648 -25.184223 115.46544
14790000000 -11.730249 13.240478 -200 45 -20.160427 46.316673 -22.542992 116.84804
14800000000 -12.13203 6.1207104 -200 45 -20.186665 -19.457798 -21.185619 99.626923
14810000000 -12.829008 1.4233905 -200 45 -20.131754 -85.151802 -23.5186 66.159065
14820000000 -13.708994 -2.2747014 -200 45 -20.068354 -151.25716 -38.998123 -16.482622
14830000000 -14.947585 -3.4876866 -200 45 -20.008263 142.34276 -24.740316 -165.86623
14840000000 -16.413322 1.4135599 -200 45 -20.000626 75.835556 -19.808025 164.58151
14850000000 -16.791414 13.683681 -200 45 -20.047298 9.3563061 -17.274654 140.14574
14860000000 -15.615885 21.437561 -200 45 -20.083015 -56.325172 -16.374699 109.95097
14870000000 -14.476565 21.701162 -200 45 -20.04603 -122.10355 -17.977999 77.045929
14880000000 -13.617089 19.845524 -200 45 -19.99246 171.72084 -23.311653 51.127811
14890000000 -12.721945 15.72855 -200 45 -19.988295 105.42966 -30.530474 74.4683
14900000000 -12.177978 7.9916577 -200 45 -19.97237 39.399952 -28.731493 102.05732
14910000000 -12.308824 -1.0420986 -200 45 -19.917421 -26.520311 -27.175505 98.234184
14920000000 -13.143015 -9.3731909 -200 45 -19.87405 -92.768471 -26.374838 76.924026
14930000000 -14.620259 -13.409016 -200 45 -19.819723 -158.98755 -29.324389 20.895269
14940000000 -16.160467 -10.856935 -200 45 -19.778763 134.74867 -28.89398 -95.793556
14950000000 -16.635408 -3.2491908 -200 45 -19.712948 68.143677 -23.047518 -163.03795
14960000000 -16.675173 -0.19597982 -200 45 -19.727592 1.3267275 -21.060448 158.02884
14970000000 -16.864105 5.2564306 -200 45 -19.773222 -64.930199 -20.511293 131.0369
14980000000 -16.031677 11.744728 -200 45 -19.784866 -131.09818 -20.171041 104.46867
14990000000 -14.653226 11.079636 -200 45 -19.788322 162.6857 -21.277782 68.243408
15000000000 -13.633338 4.5388889 -200 45 -19.79302 96.632858 -25.986666 26.615101
15010000000 -13.463838 -4.7662635 -200 45 -19.732775 30.235497 -39.536884 9.6594925
15020000000 -14.004733 -12.683561 -200 45 -19.750175 -36.209137 -35.126144 67.60392
15030000000 -14.799999 -17.63295 -200 45 -19.807425 -102.52609 -33.096008 6.6281681
15040000000 -15.850907 -21.191036 -200 45 -19.821651 -168.23944 -32.580227 -60.297623
15050000000 -17.080807 -20.693241 -200 45 -19.750862 125.84017 -30.941093 -89.656433
15060000000 -17.975739 -16.105736 -200 45 -19.650454 59.365818 -25.954079 -110.65707
15070000000 -18.164129 -10.67697 -200 45 -19.651411 -7.4927955 -22.29104 -147.00839
15080000000 -17.938955 -6.1037431 -200 45 -19.667675 -73.806328 -21.743479 172.54063
15090000000 -17.502829 -5.1057463 -200 45 -19.657145 -140.33469 -23.510052 140.45517
15100000000 -17.138479 -3.3120208 -200 45 -19.692963 153.28114 -25.467628 112.90984
15110000000 -16.098082 -3.8918381 -200 45 -19.696856 86.9422 -26.856016 70.876724
15120000000 -15.276827 -11.537833 -200 45 -19.733353 20.432884 -28.463985 -0.70822352
15130000000 -15.462191 -21.343107 -200 45 -19.75205 -45.553333 -29.85487 -67.602951
15140000000 -16.438293 -27.958914 -200 45 -19.743477 -111.91251 -32.789772 -85.677383
15150000000 -17.4575 -29.432791 -200 45 -19.772629 -178.33762 -28.186796 -74.200531
15160000000 -18.152178 -28.387323 -200 45 -19.82004 115.59565 -25.155554 -98.641075
15170000000 -18.227633 -27.630417 -200 45 -19.791986 49.315578 -24.981144 -108.05647
15180000000 -18.599987 -32.283291 -200 45 -19.847368 -17.042124 -22.269623 -110.85033
15190000000 -20.098049 -32.384865 -200 45 -19.874561 -83.042381 -19.719553 -135.68839
15200000000 -20.666492 -21.073479 -200 45 -19.870556 -149.08501 -20.004717 -167.35762
15210000000 -19.320623 -15.782269 -200 45 -19.862473 144.56964 -22.867313 161.54543
15220000000 -18.269016 -19.408791 -200 45 -19.889931 78.282997 -29.004549 128.95544
15230000000 -17.846174 -25.391891 -200 45 -19.911848 12.002489 -39.669796 13.568355
15240000000 -17.84693 -31.036493 -200 45 -19.931484 -54.145 -29.060448 -61.816177
15250000000 -17.719107 -36.830704 -200 45 -19.975853 -120.27525 -24.829782 -84.386864
15260000000 -18.082247 -45.716846 -200 45 -19.975187 173.81625 -23.237305 -100.52309
15270000000 -19.176472 -52.57114 -200 45 -19.980812 107.71225 -23.167006 -108.91675
15280000000 -20.31682 -55.306587 -200 45 -19.923773 41.64518 -22.548756 -104.03957
15290000000 -21.456123 -59.593525 -200 45 -19.921692 -24.914289 -20.01329 -107.00005
15300000000 -23.689459 -59.223476 -200 45 -19.930878 -91.146324 -18.31398 -121.95915
15310000000 -25.397499 -47.286297 -200 45 -19.968643 -157.56071 -18.009586 -139.6447
15320000000 -25.395054 -28.434219 -200 45 -19.981024 136.29755 -19.038664 -158.57965
15330000000 -22.665865 -17.499397 -200 45 -20.018185 69.957932 -22.559887 -173.80919
15340000000 -20.018011 -25.67293 -200 45 -20.032892 3.8915277 -29.35516 -154.22585
15350000000 -19.154581 -40.413765 -200 45 -20.058493 -62.491657 -25.698595 -111.21104
15360000000 -19.445869 -52.226215 -200 45 -20.118025 -128.72801 -23.213276 -112.52518
