!Keysight Technologies,P9374A,MY57211810,A.19.30.04
!Date: Friday, May 02, 2025 08:58:15
!Correction: S11(Off) 
!S21(Off) 
!S12(Off) 
!S22(Off) 
!S2P File: Measurements: S11, S21, S12, S22:
# Hz S  dB   R 50
13000000000 -11.937414 113.4006 -200 45 -27.586323 -3.6621165 -13.098927 -175.55496
13010000000 -12.555409 107.30743 -200 45 -27.414095 -69.548668 -18.561214 -174.00983
13020000000 -13.80978 103.56415 -200 45 -27.300005 -137.49777 -19.5397 -120.63255
13030000000 -15.225378 106.5737 -200 45 -27.482815 155.21884 -13.600965 -113.42589
13040000000 -15.805219 113.60941 -200 45 -27.628702 89.480339 -10.969247 -129.56009
13050000000 -15.74138 121.53065 -200 45 -27.453743 23.50342 -10.763155 -147.9012
13060000000 -14.869006 127.05966 -200 45 -27.494812 -43.472672 -12.352964 -160.61253
13070000000 -13.805109 127.62936 -200 45 -27.431574 -110.51621 -15.25491 -159.35632
13080000000 -12.955437 125.83167 -200 45 -27.487482 -177.43037 -15.754577 -137.32994
13090000000 -12.222919 121.3396 -200 45 -27.729347 115.05334 -12.711212 -131.25313
13100000000 -11.845384 115.22215 -200 45 -27.99762 49.700058 -10.912545 -144.60097
13110000000 -11.93174 108.62022 -200 45 -28.015936 -14.603568 -11.14362 -161.80933
13120000000 -12.292356 103.05763 -200 45 -27.702375 -80.5336 -13.465311 -176.11113
13130000000 -13.274856 97.764915 -200 45 -27.781855 -147.86734 -18.643414 -172.42146
13140000000 -14.438044 98.390198 -200 45 -27.772562 145.22188 -18.508034 -120.68444
13150000000 -15.3071 102.03388 -200 45 -27.897638 79.283882 -13.016946 -117.81332
13160000000 -15.747781 107.56915 -200 45 -27.955688 13.09684 -10.565573 -133.94035
13170000000 -15.745788 115.5071 -200 45 -27.940502 -51.957291 -10.287838 -152.37297
13180000000 -14.769779 121.18803 -200 45 -27.82268 -118.16999 -11.890299 -166.16034
13190000000 -13.551736 122.36124 -200 45 -27.697088 174.832 -14.904366 -165.29622
13200000000 -12.618093 118.23178 -200 45 -27.832226 107.37733 -15.235705 -143.50888
13210000000 -12.074739 112.591 -200 45 -28.015013 41.479591 -12.454246 -139.2635
13220000000 -12.048016 107.13142 -200 45 -28.034081 -23.330484 -10.836176 -152.15742
13230000000 -12.180357 101.14807 -200 45 -27.970984 -88.193085 -10.982496 -169.28049
13240000000 -12.871617 96.223312 -200 45 -27.615469 -154.29756 -13.519926 174.38289
13250000000 -14.022258 93.290276 -200 45 -27.471144 138.36923 -19.442579 -179.5378
13260000000 -15.339705 97.484146 -200 45 -27.477129 69.987549 -18.008661 -125.27581
13270000000 -16.094894 104.99002 -200 45 -27.63517 4.1923022 -12.904901 -126.5974
13280000000 -15.825329 115.65118 -200 45 -27.648212 -61.836761 -10.65134 -143.03922
13290000000 -14.736611 123.29676 -200 45 -27.49329 -127.97698 -10.554591 -160.5853
13300000000 -13.199961 123.31154 -200 45 -27.422083 165.80405 -12.29626 -172.77307
13310000000 -12.13663 119.85175 -200 45 -27.287319 97.640427 -14.642211 -167.80995
13320000000 -11.636121 113.24284 -200 45 -27.615627 30.820751 -14.107881 -152.76723
13330000000 -11.587503 107.75938 -200 45 -27.601326 -35.372631 -11.890363 -154.78758
13340000000 -11.96311 102.85571 -200 45 -27.685783 -100.48072 -10.848223 -167.47749
13350000000 -12.321409 99.260277 -200 45 -27.550724 -166.7901 -11.624722 175.67229
13360000000 -13.319711 96.293716 -200 45 -27.383289 127.683 -14.59138 164.88857
13370000000 -14.507327 97.571518 -200 45 -27.251549 59.838058 -19.382141 -175.01105
13380000000 -15.579469 106.72618 -200 45 -27.222473 -7.9329524 -16.188051 -140.82518
13390000000 -15.081699 117.35656 -200 45 -27.395357 -74.927322 -12.221914 -146.90125
13400000000 -13.739867 122.55431 -200 45 -27.541258 -141.81419 -10.964742 -162.10425
13410000000 -12.515387 121.23272 -200 45 -27.585239 153.384 -11.332813 -176.72583
13420000000 -11.751432 116.25694 -200 45 -27.441565 86.250534 -12.931102 177.34485
13430000000 -11.522971 110.78593 -200 45 -27.476131 19.134109 -14.701721 -175.63495
13440000000 -11.650946 106.06828 -200 45 -27.674297 -48.470135 -13.251251 -165.07845
13450000000 -11.937185 102.06113 -200 45 -27.756037 -113.14448 -11.395257 -170.57535
13460000000 -12.43356 98.814774 -200 45 -27.715633 179.88686 -11.040689 175.74335
13470000000 -13.240153 96.188766 -200 45 -27.829573 114.08176 -11.979589 162.63057
13480000000 -14.381444 96.880386 -200 45 -27.854218 47.757801 -14.835358 156.16158
13490000000 -15.493516 104.79498 -200 45 -27.773113 -18.040478 -18.537395 171.26195
13500000000 -15.069995 114.36662 -200 45 -27.914066 -84.836525 -15.978755 -157.87773
13510000000 -13.979393 119.75618 -200 45 -27.722366 -151.1602 -12.815567 -161.38164
13520000000 -12.91168 117.769 -200 45 -27.891088 141.69188 -11.66295 -173.89398
13530000000 -12.361608 114.40932 -200 45 -28.094845 74.645447 -11.728084 176.36024
13540000000 -12.294071 110.3099 -200 45 -28.305868 10.741035 -12.870574 169.50232
13550000000 -12.225334 108.25438 -200 45 -28.08779 -54.482834 -14.003688 172.76897
13560000000 -12.349486 105.08395 -200 45 -27.986111 -120.82352 -13.468204 -179.34268
13570000000 -12.494471 102.07104 -200 45 -28.023163 171.86365 -12.339692 177.23914
13580000000 -13.079491 100.29278 -200 45 -28.0485 106.15893 -11.897231 168.68671
13590000000 -13.935751 99.644188 -200 45 -28.114475 39.949268 -12.686467 159.13527
13600000000 -14.65681 105.97414 -200 45 -28.047064 -25.314688 -14.682192 153.78789
13610000000 -14.496338 113.24762 -200 45 -27.89608 -91.94503 -17.195139 165.62244
13620000000 -13.437353 116.94371 -200 45 -27.844643 -159.42487 -16.166294 -173.16466
13630000000 -12.725129 116.05077 -200 45 -28.036228 134.1385 -13.550632 -170.83138
13640000000 -12.197165 112.82792 -200 45 -28.100607 68.432243 -12.001825 -179.47862
13650000000 -12.137248 111.66888 -200 45 -28.08127 2.8104162 -11.861899 170.39612
13660000000 -11.847841 109.79981 -200 45 -28.060068 -63.395283 -12.512547 163.97069
13670000000 -11.640279 107.21152 -200 45 -27.96846 -129.72096 -13.323133 163.67799
13680000000 -11.717725 103.33104 -200 45 -28.002441 163.70738 -13.479771 166.68974
13690000000 -11.993828 100.36194 -200 45 -28.001204 97.346107 -12.713176 167.33688
13700000000 -12.709018 98.916855 -200 45 -28.065884 31.789217 -12.13955 160.25568
13710000000 -13.281515 101.2812 -200 45 -27.953257 -33.847916 -12.719741 150.45328
13720000000 -13.418759 105.71896 -200 45 -27.84277 -100.7734 -14.728944 146.36444
13730000000 -13.103773 108.22676 -200 45 -27.81555 -167.72014 -16.71401 156.49487
13740000000 -12.639617 109.62206 -200 45 -27.740458 125.56351 -16.029478 175.57001
13750000000 -12.279884 109.17784 -200 45 -27.863102 58.222786 -13.616291 178.97623
13760000000 -11.917367 108.42701 -200 45 -28.036089 -8.0335112 -12.038754 170.75093
13770000000 -11.494912 106.92695 -200 45 -28.02371 -73.651909 -11.921725 161.44685
13780000000 -11.124631 103.14698 -200 45 -28.027473 -139.61539 -12.48728 155.34145
13790000000 -11.120016 98.10363 -200 45 -27.964293 153.53328 -13.114039 154.99629
13800000000 -11.483261 94.377174 -200 45 -28.086046 87.459648 -13.240505 156.42914
13810000000 -12.042974 91.423607 -200 45 -27.989843 21.432657 -12.66526 155.52724
13820000000 -12.681359 91.759766 -200 45 -28.162138 -45.846458 -12.48334 148.5562
13830000000 -13.237311 93.450539 -200 45 -28.161583 -110.56724 -13.530465 140.20702
13840000000 -13.40901 97.087204 -200 45 -28.027918 -177.07555 -15.67256 140.29918
13850000000 -13.317713 101.35539 -200 45 -27.981339 115.74902 -17.086962 155.60582
13860000000 -12.643579 103.06881 -200 45 -28.16581 48.27734 -15.625807 168.45836
13870000000 -12.011968 103.48637 -200 45 -28.331526 -16.698538 -13.939813 169.63866
13880000000 -11.33624 100.50111 -200 45 -28.332092 -82.702408 -12.857319 163.86516
13890000000 -10.934074 95.913559 -200 45 -28.456079 -148.58389 -12.692274 156.77055
13900000000 -11.007858 90.613754 -200 45 -28.362431 145.62483 -13.272016 153.9191
13910000000 -11.142159 86.386154 -200 45 -28.504347 79.530304 -13.212782 154.05357
13920000000 -11.743572 82.512032 -200 45 -28.418617 14.134768 -12.994334 152.34297
13930000000 -12.508494 80.305405 -200 45 -28.381599 -51.739071 -12.995642 147.7939
13940000000 -13.493374 83.48185 -200 45 -28.289503 -118.54937 -13.332531 142.00336
13950000000 -13.952403 88.806 -200 45 -28.400534 174.96658 -14.613409 138.30531
13960000000 -13.504451 96.169456 -200 45 -28.394707 109.22712 -16.295635 141.99062
13970000000 -12.61188 98.857201 -200 45 -28.330297 42.229652 -16.34478 153.84586
13980000000 -11.653497 97.707527 -200 45 -28.505047 -23.326313 -15.690782 159.77588
13990000000 -11.028656 94.360008 -200 45 -28.463652 -89.661247 -14.850595 161.65752
14000000000 -10.669869 89.587456 -200 45 -28.626213 -155.71828 -13.842132 161.09424
14010000000 -10.597865 85.058922 -200 45 -28.602781 139.21039 -13.464009 157.04677
14020000000 -10.743144 79.852768 -200 45 -28.534672 73.170334 -13.030357 153.77777
14030000000 -11.256642 75.200562 -200 45 -28.48859 7.7180815 -12.719695 149.13573
14040000000 -12.334628 72.527702 -200 45 -28.421986 -59.018574 -12.980971 142.42459
14050000000 -13.41304 76.257484 -200 45 -28.399345 -123.90076 -13.529385 138.3156
14060000000 -13.856637 83.83197 -200 45 -28.208925 168.71088 -14.543234 136.66249
14070000000 -13.227939 91.212761 -200 45 -28.296946 101.8225 -15.292402 138.53273
14080000000 -12.118149 93.440483 -200 45 -28.21179 35.913902 -15.457274 142.79004
14090000000 -11.140969 91.103485 -200 45 -28.332928 -30.928156 -15.686554 142.88872
14100000000 -10.558213 86.660263 -200 45 -28.299183 -96.018326 -16.121012 146.85927
14110000000 -10.288404 81.598328 -200 45 -28.165047 -162.89558 -15.680069 154.58112
14120000000 -10.329497 76.552071 -200 45 -28.111729 130.30508 -14.789989 157.52873
14130000000 -10.477607 71.908928 -200 45 -28.369246 63.131329 -13.205224 156.32639
14140000000 -10.969908 67.082191 -200 45 -28.390654 -1.6945682 -12.300171 147.93198
14150000000 -11.943737 63.802315 -200 45 -28.332533 -67.529594 -12.365875 136.60742
14160000000 -13.173644 66.337013 -200 45 -28.236256 -133.23874 -13.392448 130.2907
14170000000 -13.638109 74.841881 -200 45 -28.076725 159.63058 -14.659686 127.73306
14180000000 -12.827732 81.306641 -200 45 -28.066881 92.591202 -15.811434 131.41754
14190000000 -11.834742 82.102737 -200 45 -28.146618 25.542206 -15.620804 138.69127
14200000000 -11.006248 79.075104 -200 45 -28.311884 -40.518661 -15.222578 136.15677
14210000000 -10.590247 75.045219 -200 45 -28.270159 -106.21596 -15.97773 131.93953
14220000000 -10.344124 70.240509 -200 45 -28.280638 -173.23418 -17.39855 139.25363
14230000000 -10.341111 65.289398 -200 45 -28.33403 120.71062 -17.109663 151.79001
14240000000 -10.629546 60.272587 -200 45 -28.360535 54.112972 -15.099326 158.55379
14250000000 -11.125062 56.418308 -200 45 -28.468979 -11.653972 -13.16602 153.12025
14260000000 -11.900579 54.080204 -200 45 -28.474266 -77.580467 -12.323078 141.16859
14270000000 -12.883414 54.662754 -200 45 -28.501085 -143.40651 -12.740095 128.90036
14280000000 -13.483734 61.228664 -200 45 -28.352634 150.56766 -14.30129 121.9762
14290000000 -13.004036 67.652206 -200 45 -28.462921 82.83725 -15.748571 122.90041
14300000000 -12.005253 68.490196 -200 45 -28.610851 17.684328 -16.637789 130.6781
14310000000 -11.416919 65.723656 -200 45 -28.559082 -47.968307 -15.846911 134.00114
14320000000 -11.137531 62.20668 -200 45 -28.470613 -114.07276 -15.597123 130.05693
14330000000 -10.980882 59.903683 -200 45 -28.566883 178.75211 -16.541319 122.93409
14340000000 -10.761312 55.724678 -200 45 -28.605011 113.67448 -18.876835 129.84395
14350000000 -10.809775 50.918026 -200 45 -28.600618 46.487888 -18.717695 150.18524
14360000000 -11.388945 45.927074 -200 45 -28.810972 -19.106333 -15.950699 157.15732
14370000000 -12.121809 44.589203 -200 45 -28.873056 -83.98027 -13.933302 150.20232
14380000000 -12.89689 45.759132 -200 45 -28.697817 -148.92982 -13.052117 137.91182
14390000000 -13.209423 49.460636 -200 45 -28.618486 144.51143 -13.316483 124.72525
14400000000 -13.182965 53.711716 -200 45 -28.507782 77.927879 -14.894554 115.54636
14410000000 -12.629569 55.3895 -200 45 -28.627087 12.055449 -16.81184 115.27649
14420000000 -12.136178 56.055294 -200 45 -28.492661 -53.849586 -17.697693 124.90965
14430000000 -11.557343 53.426743 -200 45 -28.424368 -120.18704 -17.221815 129.0168
14440000000 -11.306064 50.901722 -200 45 -28.434555 172.80412 -16.705748 125.51373
14450000000 -11.067064 47.457081 -200 45 -28.629307 105.92307 -17.701918 118.26524
14460000000 -10.869528 43.327099 -200 45 -28.462219 40.398026 -20.432522 123.8499
14470000000 -11.177675 37.727276 -200 45 -28.452127 -26.655161 -20.242319 147.66467
14480000000 -11.719955 34.982521 -200 45 -28.512926 -92.486877 -17.264648 157.49792
14490000000 -12.433144 33.510857 -200 45 -28.427048 -158.49843 -14.8036 149.46153
14500000000 -12.911846 35.658966 -200 45 -28.493902 134.68855 -13.591075 135.8158
14510000000 -13.195063 37.92178 -200 45 -28.49135 69.440804 -13.851903 119.98584
14520000000 -13.074362 40.911835 -200 45 -28.367443 2.8668764 -15.335904 107.03625
14530000000 -12.78614 43.649784 -200 45 -28.372055 -63.941269 -18.142302 103.27608
14540000000 -11.998118 43.819321 -200 45 -28.430641 -129.56247 -20.107311 117.90296
14550000000 -11.348146 41.126049 -200 45 -28.343451 163.47424 -18.67976 126.41735
14560000000 -11.038106 35.999119 -200 45 -28.440241 96.8908 -18.219143 120.26205
14570000000 -10.945166 31.918222 -200 45 -28.528513 31.394804 -19.060501 112.44183
14580000000 -11.075921 26.075857 -200 45 -28.373442 -34.47514 -21.965441 112.7693
14590000000 -11.583506 22.000069 -200 45 -28.345587 -101.05054 -23.883934 145.92738
14600000000 -12.368381 18.901203 -200 45 -28.31275 -167.56889 -18.780514 161.8373
14610000000 -13.178027 19.076611 -200 45 -28.366375 125.93504 -15.490304 149.25424
14620000000 -14.051222 22.636713 -200 45 -28.401731 58.904469 -14.305926 129.6716
14630000000 -14.050351 28.203114 -200 45 -28.508715 -6.748539 -14.611238 111.01756
14640000000 -13.709049 33.120243 -200 45 -28.493969 -72.697922 -16.573776 93.129646
14650000000 -12.853667 34.805214 -200 45 -28.504126 -138.65584 -20.648458 86.224319
14660000000 -11.958611 32.875656 -200 45 -28.461388 154.29242 -23.023506 115.94278
14670000000 -11.464231 27.451212 -200 45 -28.623425 88.189972 -20.483311 122.83801
14680000000 -11.359007 21.916784 -200 45 -28.707706 22.530031 -19.380754 110.15419
14690000000 -11.506582 16.883192 -200 45 -28.707361 -42.851372 -21.029583 95.793709
14700000000 -11.898789 11.298003 -200 45 -28.57445 -108.40857 -26.486008 85.497787
14710000000 -12.643756 7.2981868 -200 45 -28.546745 -175.35712 -28.575623 173.17781
14720000000 -13.849069 4.0635757 -200 45 -28.539228 118.35754 -19.4632 170.35013
14730000000 -15.395284 9.1345158 -200 45 -28.572372 51.559441 -16.112694 146.34627
14740000000 -15.770493 20.509729 -200 45 -28.6681 -13.813736 -15.173159 121.02901
14750000000 -14.612802 27.652666 -200 45 -28.561352 -80.761391 -16.216755 97.295631
14760000000 -13.507227 27.468966 -200 45 -28.793964 -146.62416 -19.077766 76.540588
14770000000 -12.732657 23.934763 -200 45 -28.775303 148.28847 -25.12039 76.173721
14780000000 -12.293926 19.621098 -200 45 -28.616447 82.721992 -26.130075 119.11974
14790000000 -12.101851 14.65081 -200 45 -28.544506 15.689334 -21.829769 118.4666
14800000000 -12.037223 8.8159981 -200 45 -28.634323 -51.08778 -21.225615 95.75087
14810000000 -12.51935 1.7150034 -200 45 -28.690672 -116.48032 -24.334969 67.136032
14820000000 -13.52908 -3.6091831 -200 45 -28.627146 177.0218 -39.991245 20.565289
14830000000 -15.055551 -5.044436 -200 45 -28.753531 111.2278 -25.393404 -159.48323
14840000000 -16.559753 1.0803818 -200 45 -28.563684 45.735065 -19.284325 166.56003
14850000000 -16.984249 13.984538 -200 45 -28.46834 -21.351583 -16.996035 137.61914
14860000000 -15.716965 23.023397 -200 45 -28.58972 -88.875282 -16.716812 107.19603
14870000000 -14.256103 23.554615 -200 45 -28.870775 -153.89539 -18.496904 80.011948
14880000000 -13.144354 18.82271 -200 45 -28.724089 140.97928 -22.546875 55.821194
14890000000 -12.73209 12.249866 -200 45 -28.721729 74.612183 -30.385761 60.356026
14900000000 -12.682617 6.4280992 -200 45 -28.678425 8.95156 -29.576117 111.22947
14910000000 -12.817291 1.6489712 -200 45 -28.591421 -57.281681 -26.063072 100.07059
14920000000 -12.959987 -4.8018541 -200 45 -28.533976 -123.70786 -26.112368 69.646088
14930000000 -13.796744 -12.45647 -200 45 -28.60873 169.68695 -30.784847 13.375795
14940000000 -15.566656 -16.647837 -200 45 -28.550072 104.5061 -30.507074 -100.20957
14950000000 -17.559212 -9.8003607 -200 45 -28.374996 36.576469 -23.636507 -160.1293
14960000000 -17.879274 6.1349692 -200 45 -28.653997 -30.33214 -20.871971 160.96352
14970000000 -16.114 12.26047 -200 45 -28.727432 -95.45768 -19.96328 130.93587
14980000000 -15.055568 9.9651632 -200 45 -28.63958 -161.04773 -20.059767 99.521477
14990000000 -14.599055 5.0872507 -200 45 -28.574537 132.79755 -22.29936 66.478134
15000000000 -14.27667 2.5046878 -200 45 -28.420086 66.274651 -26.585152 36.008244
15010000000 -14.004404 -2.464452 -200 45 -28.455343 -2.0179534 -35.336674 24.823753
15020000000 -13.873597 -9.0566311 -200 45 -28.828903 -68.190475 -36.431808 33.760502
15030000000 -14.40602 -16.590021 -200 45 -28.965551 -132.47939 -39.75779 2.9656713
15040000000 -15.468499 -22.567537 -200 45 -28.6408 163.01605 -34.850254 -32.17522
15050000000 -17.059141 -23.348866 -200 45 -28.501242 95.17173 -28.876102 -77.20842
15060000000 -18.368362 -18.98728 -200 45 -28.538034 28.218882 -24.647764 -117.09287
15070000000 -18.716696 -8.2391129 -200 45 -28.647667 -38.116844 -22.894674 -153.30647
15080000000 -17.933775 -2.7109694 -200 45 -28.669378 -104.05206 -22.466082 175.00244
15090000000 -16.888058 -2.8856542 -200 45 -28.719931 -170.35551 -23.114025 145.21577
15100000000 -16.555723 -6.6019959 -200 45 -28.71269 124.42023 -24.570198 107.72839
15110000000 -16.331408 -9.2613869 -200 45 -28.526937 57.495823 -27.935068 63.176895
15120000000 -16.214968 -11.637482 -200 45 -28.657211 -10.015639 -30.349159 0.83539915
15130000000 -15.819356 -15.558551 -200 45 -28.78167 -75.780197 -31.135246 -52.647724
15140000000 -15.695017 -23.640848 -200 45 -28.827181 -141.19046 -29.689066 -77.937836
15150000000 -16.577126 -32.386192 -200 45 -28.750622 152.36234 -28.382591 -89.947823
15160000000 -18.19179 -35.578587 -200 45 -28.834379 85.889114 -27.053534 -96.613808
15170000000 -19.459255 -29.785223 -200 45 -28.903725 19.720078 -24.110418 -97.911705
15180000000 -19.20649 -24.486917 -200 45 -28.986246 -44.985504 -21.435188 -115.89222
15190000000 -19.047733 -26.301474 -200 45 -28.788437 -111.20016 -20.13875 -140.13342
15200000000 -19.606024 -27.351553 -200 45 -28.711275 -178.20743 -20.705233 -165.85466
15210000000 -20.037403 -21.811937 -200 45 -28.808262 114.93176 -22.86735 166.14438
15220000000 -19.093475 -17.645863 -200 45 -29.011459 48.876225 -27.999006 132.93654
15230000000 -17.844612 -20.361307 -200 45 -28.985817 -16.363993 -37.047001 27.282835
15240000000 -17.171267 -30.22035 -200 45 -28.94313 -82.127022 -28.291536 -59.046104
15250000000 -17.564611 -39.701836 -200 45 -28.92701 -148.8037 -24.229998 -86.709076
15260000000 -18.365324 -47.345505 -200 45 -28.99802 145.30034 -23.657349 -103.4006
15270000000 -19.325497 -51.298107 -200 45 -28.937639 79.382057 -23.388145 -106.8216
15280000000 -20.304543 -55.189335 -200 45 -28.90657 13.353507 -22.288641 -103.15661
15290000000 -21.375538 -58.698578 -200 45 -28.860346 -53.516148 -20.020523 -108.07719
15300000000 -23.513153 -59.585449 -200 45 -28.975239 -119.54105 -18.300259 -121.73306
15310000000 -25.543379 -49.035229 -200 45 -28.949446 174.63284 -17.972799 -140.18686
15320000000 -25.224972 -25.618887 -200 45 -28.907055 108.04578 -19.236019 -159.39777
15330000000 -22.676493 -20.091204 -200 45 -29.016142 41.360943 -22.749216 -169.95195
15340000000 -20.355429 -24.3451 -200 45 -29.003426 -23.889433 -28.184694 -158.315
15350000000 -19.050411 -37.944393 -200 45 -28.94363 -91.355324 -26.86227 -110.9485
15360000000 -18.840216 -53.079559 -200 45 -29.235861 -157.18704 -22.866201 -106.63351
