!Keysight Technologies,P9374A,MY57211810,A.19.30.04
!Date: Friday, May 02, 2025 09:03:14
!Correction: S11(Off) 
!S21(Off) 
!S12(Off) 
!S22(Off) 
!S2P File: Measurements: S11, S21, S12, S22:
# Hz S  dB   R 50
13000000000 -12.336164 112.9396 -200 45 -48.5858 147.04428 -13.007006 -175.72502
13010000000 -12.707891 109.95789 -200 45 -47.917793 73.700211 -18.616461 -175.45496
13020000000 -13.471956 105.73338 -200 45 -48.094868 8.5574131 -19.34367 -119.00165
13030000000 -14.658473 103.87067 -200 45 -47.385876 -64.222336 -13.595721 -114.37546
13040000000 -16.272858 110.22243 -200 45 -47.744911 -130.74567 -11.121842 -129.69679
13050000000 -16.151705 123.29837 -200 45 -46.635227 160.55035 -10.793703 -146.87198
13060000000 -14.751255 129.81116 -200 45 -46.966808 86.543655 -12.225498 -160.43703
13070000000 -13.451026 128.1451 -200 45 -47.243263 13.614544 -15.17672 -160.24088
13080000000 -12.762767 123.57322 -200 45 -47.689396 -54.408897 -15.826504 -137.10782
13090000000 -12.384012 119.96357 -200 45 -48.36908 -125.27811 -12.746758 -131.51346
13100000000 -12.143313 115.20774 -200 45 -48.973312 169.22778 -10.962403 -144.05948
13110000000 -11.968785 110.41699 -200 45 -49.914467 103.85437 -11.060449 -161.23399
13120000000 -12.249314 103.70229 -200 45 -50.322701 34.129791 -13.345309 -176.80267
13130000000 -13.002762 98.570999 -200 45 -51.328354 -25.407534 -18.838352 -173.09622
13140000000 -14.313499 96.448463 -200 45 -51.546352 -84.583015 -18.40419 -119.89444
13150000000 -15.559312 100.23677 -200 45 -50.164154 -145.41315 -13.012309 -118.39244
13160000000 -16.068033 109.29017 -200 45 -49.895416 142.60721 -10.648888 -134.08345
13170000000 -15.498656 117.2098 -200 45 -49.792633 73.551254 -10.322796 -151.6922
13180000000 -14.600091 120.60953 -200 45 -50.603596 5.4710422 -11.821914 -165.87376
13190000000 -13.511992 120.97612 -200 45 -49.959618 -52.195156 -14.792008 -165.45332
13200000000 -12.746362 117.85209 -200 45 -49.597866 -127.37933 -15.347952 -144.10378
13210000000 -12.171298 113.28282 -200 45 -49.692768 166.18535 -12.547696 -139.19728
13220000000 -11.982439 107.19806 -200 45 -49.717983 95.633972 -10.82274 -151.4957
13230000000 -12.166835 101.37965 -200 45 -50.85038 27.242697 -10.939547 -169.19046
13240000000 -12.848884 95.853447 -200 45 -50.611813 -33.337105 -13.402905 174.21393
13250000000 -13.98101 93.741844 -200 45 -50.907982 -104.84042 -19.466162 179.56715
13260000000 -15.392407 96.078407 -200 45 -51.499142 -172.77899 -18.119287 -124.22457
13270000000 -16.09679 106.31941 -200 45 -52.670715 124.3431 -12.778617 -126.73133
13280000000 -15.841844 116.12689 -200 45 -51.825714 67.979561 -10.708509 -143.49818
13290000000 -14.487178 122.67125 -200 45 -52.088692 4.6560798 -10.662691 -160.27663
13300000000 -13.254292 122.48891 -200 45 -51.258518 -57.865417 -12.203349 -171.92767
13310000000 -12.29442 119.30776 -200 45 -50.264309 -128.7585 -14.597961 -168.58684
13320000000 -11.735634 114.39207 -200 45 -49.833927 158.91901 -14.118445 -152.84578
13330000000 -11.499405 108.94496 -200 45 -50.358803 87.644028 -11.890615 -154.62004
13340000000 -11.680993 102.53584 -200 45 -51.228168 16.663389 -10.913632 -167.6143
13350000000 -12.316969 97.746353 -200 45 -52.155861 -46.023468 -11.584441 176.50801
13360000000 -13.524805 94.954308 -200 45 -53.311893 -107.95322 -14.509315 164.70937
13370000000 -14.813762 99.516518 -200 45 -52.455154 -168.14459 -19.409872 -176.61307
13380000000 -15.397455 108.56456 -200 45 -52.067345 124.96652 -16.18655 -140.28107
13390000000 -14.660027 117.13879 -200 45 -52.723515 56.482788 -12.272806 -146.46185
13400000000 -13.702134 120.2829 -200 45 -52.821735 -1.0450016 -10.871509 -162.33009
13410000000 -12.751719 119.52711 -200 45 -52.36557 -69.206932 -11.328578 -176.83818
13420000000 -12.105074 117.50039 -200 45 -51.921562 -125.46587 -13.130898 176.90154
13430000000 -11.496395 113.19958 -200 45 -51.061817 163.54156 -14.476196 -174.17516
13440000000 -11.290819 106.75974 -200 45 -50.733475 97.836739 -13.186897 -165.90265
13450000000 -11.654495 100.36531 -200 45 -49.643726 30.618803 -11.564849 -171.18166
13460000000 -12.540068 95.872993 -200 45 -49.422035 -43.052475 -11.040896 176.72519
13470000000 -13.755894 96.08429 -200 45 -49.092907 -115.71915 -11.940588 163.20061
13480000000 -14.647584 100.53497 -200 45 -49.705067 169.50652 -14.692053 154.83861
13490000000 -14.821013 106.91051 -200 45 -51.381535 99.739021 -18.517559 172.14977
13500000000 -14.745751 111.64867 -200 45 -52.220417 32.985725 -16.162573 -158.35258
13510000000 -14.243052 116.52538 -200 45 -54.502842 -22.253029 -12.852773 -161.10973
13520000000 -13.395888 118.79549 -200 45 -54.726326 -78.219505 -11.541852 -173.09943
13530000000 -12.42712 116.9333 -200 45 -53.46841 -134.29701 -11.730402 175.27342
13540000000 -11.955339 111.96223 -200 45 -52.515491 165.90804 -12.956725 169.69449
13550000000 -11.962962 106.87198 -200 45 -50.059288 99.634666 -13.948735 173.92464
13560000000 -12.310109 102.98205 -200 45 -49.510143 26.378239 -13.421317 179.60385
13570000000 -12.816859 101.03917 -200 45 -48.997494 -45.234852 -12.370549 177.18547
13580000000 -13.361399 101.15888 -200 45 -48.751255 -118.2177 -11.980653 168.88872
13590000000 -13.865758 102.81767 -200 45 -49.917377 167.86487 -12.640995 159.41754
13600000000 -14.315909 106.07202 -200 45 -50.488415 108.98869 -14.580875 154.03719
13610000000 -14.217353 111.47083 -200 45 -50.468697 44.270187 -17.117456 164.37291
13620000000 -13.720012 115.00694 -200 45 -49.43808 -22.469738 -16.283129 -173.23186
13630000000 -12.964977 116.11583 -200 45 -49.877499 -95.44812 -13.528918 -170.40147
13640000000 -12.342415 115.07892 -200 45 -49.958698 -158.98737 -11.99608 -179.29655
13650000000 -11.857012 112.61425 -200 45 -50.494286 133.22708 -11.801198 170.36336
13660000000 -11.619888 109.24963 -200 45 -50.648808 70.404816 -12.546546 163.51442
13670000000 -11.607849 105.08504 -200 45 -50.755493 3.575881 -13.448502 163.64998
13680000000 -11.935755 102.52553 -200 45 -50.062603 -54.716866 -13.387223 167.65872
13690000000 -12.273527 101.23896 -200 45 -49.283436 -129.22311 -12.59385 166.61095
13700000000 -12.632437 101.2005 -200 45 -49.469963 164.19174 -12.225069 159.60034
13710000000 -12.930202 101.80644 -200 45 -49.015915 87.620872 -12.856934 151.29016
13720000000 -13.263596 103.39465 -200 45 -49.915066 18.091135 -14.510731 146.91982
13730000000 -13.305125 107.00189 -200 45 -51.335468 -52.552338 -16.657209 155.18259
13740000000 -12.946476 110.42855 -200 45 -53.33823 -108.12793 -16.20857 175.26118
13750000000 -12.187435 110.7936 -200 45 -52.992958 -167.85434 -13.596465 179.4686
13760000000 -11.726207 108.72614 -200 45 -52.140572 140.69066 -12.035542 171.08746
13770000000 -11.366852 105.56433 -200 45 -50.03315 73.043694 -11.837112 161.13492
13780000000 -11.27754 102.38775 -200 45 -49.664974 1.6565337 -12.504045 155.04863
13790000000 -11.222239 98.619568 -200 45 -49.674435 -71.590828 -13.261851 154.93466
13800000000 -11.464666 94.761406 -200 45 -48.813019 -135.36887 -13.164186 157.37007
13810000000 -11.984282 91.937775 -200 45 -48.993652 150.62331 -12.565455 155.15041
13820000000 -12.644455 91.028473 -200 45 -49.295258 78.495811 -12.540029 147.78653
13830000000 -13.224756 93.651451 -200 45 -50.469059 10.030739 -13.62824 140.63931
13840000000 -13.424043 96.750336 -200 45 -50.823215 -55.084541 -15.587144 141.20863
13850000000 -13.301917 100.42413 -200 45 -50.350895 -118.23991 -16.895666 154.08986
13860000000 -12.871206 103.58637 -200 45 -51.081463 171.2845 -15.85884 168.22466
13870000000 -11.930431 104.4178 -200 45 -51.82568 98.338043 -13.95323 170.18401
13880000000 -11.201931 100.80855 -200 45 -53.603821 37.250687 -12.808418 164.0089
13890000000 -10.827017 95.233185 -200 45 -54.452972 -6.0357246 -12.713969 156.85179
13900000000 -11.003187 89.369591 -200 45 -53.066608 -72.453415 -13.166663 153.5529
13910000000 -11.434314 85.95607 -200 45 -51.250832 -124.8018 -13.355729 153.74577
13920000000 -11.874336 84.024727 -200 45 -49.352032 157.57037 -13.06404 152.88911
13930000000 -12.357583 82.650772 -200 45 -48.922386 79.861984 -12.82962 148.0385
13940000000 -13.089749 82.005936 -200 45 -50.578888 8.2054911 -13.349567 141.24376
13950000000 -13.947877 86.497162 -200 45 -51.423119 -56.604382 -14.707721 138.24669
13960000000 -13.972855 95.502792 -200 45 -52.003731 -119.64337 -16.110519 143.03171
13970000000 -12.692017 101.33318 -200 45 -51.191151 -174.53465 -16.444582 152.95299
13980000000 -11.483302 98.776672 -200 45 -49.817249 119.71502 -15.723706 159.73056
13990000000 -10.796815 93.791763 -200 45 -48.910305 47.752609 -14.816523 161.77277
14000000000 -10.683479 88.300789 -200 45 -48.793957 -25.220974 -13.997055 160.86754
14010000000 -10.74603 84.204697 -200 45 -48.939259 -96.421921 -13.373847 157.62979
14020000000 -10.90521 80.543907 -200 45 -49.366619 -164.3613 -12.964428 153.54001
14030000000 -11.249258 76.267891 -200 45 -49.806259 125.11441 -12.802998 148.24585
14040000000 -12.105131 73.014984 -200 45 -49.835403 55.637527 -13.034703 143.06015
14050000000 -13.376946 74.818695 -200 45 -51.053596 -12.027752 -13.531798 138.99374
14060000000 -13.994772 83.525009 -200 45 -51.715878 -75.734985 -14.352382 136.14882
14070000000 -13.240617 92.07193 -200 45 -51.860004 -137.99059 -15.340128 138.06535
14080000000 -12.042833 93.035385 -200 45 -52.420753 157.68938 -15.596087 142.50931
14090000000 -11.222987 90.79245 -200 45 -53.835487 99.368492 -15.61654 144.0672
14100000000 -10.638997 87.149414 -200 45 -51.955032 39.821777 -15.967237 146.37492
14110000000 -10.263441 82.605614 -200 45 -51.765724 -27.219238 -15.951001 153.481
14120000000 -10.088127 76.798317 -200 45 -50.318001 -86.432602 -14.721586 158.86348
14130000000 -10.355226 70.15406 -200 45 -48.7854 -160.27007 -13.202684 156.17439
14140000000 -11.213551 65.559418 -200 45 -48.856247 125.6862 -12.295718 147.53526
14150000000 -12.312323 65.385109 -200 45 -48.640358 52.956882 -12.370859 137.07211
14160000000 -12.977406 69.145905 -200 45 -49.001312 -18.98332 -13.385878 129.49649
14170000000 -13.140822 73.962723 -200 45 -50.047703 -95.929451 -14.774966 128.34328
14180000000 -12.86593 78.164825 -200 45 -52.414967 -156.14104 -15.616811 132.78049
14190000000 -12.218869 81.534752 -200 45 -52.054344 140.26044 -15.591846 136.38928
14200000000 -11.203604 81.226738 -200 45 -53.715523 75.452271 -15.474504 136.14308
14210000000 -10.352298 76.514977 -200 45 -53.404415 20.257141 -15.91581 134.12477
14220000000 -10.067801 69.459366 -200 45 -53.195736 -43.073063 -17.18173 137.3114
14230000000 -10.354336 63.275063 -200 45 -53.001404 -106.37826 -17.285793 151.84998
14240000000 -10.853379 59.572563 -200 45 -52.415882 -168.53336 -15.101741 158.9951
14250000000 -11.311453 57.684158 -200 45 -51.961483 128.00471 -13.158127 153.08069
14260000000 -11.800909 55.216251 -200 45 -51.227032 61.584587 -12.33865 141.40492
14270000000 -12.696597 54.656086 -200 45 -50.735439 -12.422744 -12.733253 129.21005
14280000000 -13.143812 59.988834 -200 45 -51.245197 -78.751488 -14.204811 121.18082
14290000000 -13.128169 65.221863 -200 45 -51.277798 -144.54932 -16.01885 123.11852
14300000000 -12.324022 68.841019 -200 45 -51.518028 149.86765 -16.392847 131.84698
14310000000 -11.462231 67.361687 -200 45 -52.008877 83.945091 -15.73233 133.29112
14320000000 -10.949362 63.070023 -200 45 -51.302441 23.277117 -15.707514 128.34982
14330000000 -10.797457 58.791203 -200 45 -50.506958 -43.143089 -16.787489 124.84124
14340000000 -10.868616 54.499352 -200 45 -51.282696 -107.04205 -18.529461 130.1241
14350000000 -11.016219 51.194733 -200 45 -49.910892 -176.8801 -18.746994 148.39615
14360000000 -11.338697 47.206123 -200 45 -49.42313 112.53199 -16.153547 157.61829
14370000000 -12.005096 44.28339 -200 45 -49.588497 44.431511 -13.895345 150.86725
14380000000 -12.916911 45.395931 -200 45 -49.992142 -31.649246 -12.955596 137.93683
14390000000 -13.280804 49.547749 -200 45 -50.94463 -96.980705 -13.352664 124.39926
14400000000 -13.07983 53.74017 -200 45 -51.460838 -159.40044 -14.90039 115.4426
14410000000 -12.634019 55.146526 -200 45 -52.445244 138.83519 -16.868443 115.99603
14420000000 -12.180506 55.039463 -200 45 -51.424877 75.112 -17.683832 124.89334
14430000000 -11.755817 54.374172 -200 45 -51.762455 9.3627968 -17.046286 129.01044
14440000000 -11.242455 51.946159 -200 45 -51.761139 -52.688824 -16.764038 124.29539
14450000000 -10.838117 47.616844 -200 45 -51.223869 -114.64974 -17.953037 118.72284
14460000000 -10.873247 41.939686 -200 45 -50.100174 175.81216 -20.130255 124.86491
14470000000 -11.241817 37.312351 -200 45 -49.664146 108.05505 -20.332083 146.45944
14480000000 -11.912412 34.883854 -200 45 -50.446987 38.649406 -17.409117 157.45621
14490000000 -12.421962 34.812325 -200 45 -50.316483 -28.08054 -14.774545 150.05283
14500000000 -12.846075 36.123394 -200 45 -50.249901 -95.368912 -13.620813 135.74467
14510000000 -12.989056 37.562435 -200 45 -50.092827 -161.70525 -13.8093 120.13453
14520000000 -13.131312 39.760818 -200 45 -49.799355 128.84222 -15.360578 106.78146
14530000000 -12.901926 43.226765 -200 45 -50.169476 59.872776 -18.148609 103.50622
14540000000 -12.13527 44.433449 -200 45 -50.972366 -8.2468748 -19.952209 117.43295
14550000000 -11.324583 41.956871 -200 45 -51.217983 -70.743401 -18.85323 126.49104
14560000000 -10.87738 36.434189 -200 45 -51.497696 -133.02588 -18.050825 120.79559
14570000000 -10.83858 30.81246 -200 45 -51.279766 165.30402 -19.095024 111.60284
14580000000 -11.195011 25.219831 -200 45 -50.52924 100.8776 -22.143808 112.69874
14590000000 -11.746748 22.155788 -200 45 -50.473137 29.725712 -23.628738 145.95671
14600000000 -12.432148 20.155428 -200 45 -50.608055 -36.755306 -18.908678 161.27086
14610000000 -13.021921 20.125193 -200 45 -50.424435 -100.52036 -15.573036 149.08456
14620000000 -13.722034 21.546804 -200 45 -50.598862 -168.76469 -14.285733 130.28987
14630000000 -14.210186 26.238045 -200 45 -50.503128 126.63039 -14.634052 110.83772
14640000000 -13.993601 33.047836 -200 45 -50.798664 61.196297 -16.559269 93.896965
14650000000 -12.949165 36.38879 -200 45 -50.210659 2.5489948 -20.419197 86.961342
14660000000 -11.867594 33.715683 -200 45 -49.114182 -66.202583 -23.403282 112.07365
14670000000 -11.265364 27.839043 -200 45 -48.557178 -135.427 -20.529617 124.94383
14680000000 -11.201366 20.79891 -200 45 -48.697861 150.728 -19.157568 111.33663
14690000000 -11.538129 15.237332 -200 45 -48.741909 82.720451 -20.811613 92.484421
14700000000 -12.192131 10.757859 -200 45 -49.732769 11.518339 -27.129894 85.671349
14710000000 -12.882392 8.6389093 -200 45 -50.428627 -50.424221 -28.040331 172.73485
14720000000 -13.795429 7.0759058 -200 45 -50.066883 -111.22095 -19.639141 169.09627
14730000000 -14.808649 9.5056858 -200 45 -49.64909 -179.02615 -16.203634 146.67786
14740000000 -15.543198 16.209028 -200 45 -49.711712 110.93755 -15.240191 121.56145
14750000000 -15.215866 25.59779 -200 45 -49.467678 43.228325 -16.181833 97.3694
14760000000 -13.859747 29.977745 -200 45 -50.289696 -24.708378 -19.111242 77.212189
14770000000 -12.617013 26.969458 -200 45 -51.236069 -90.397301 -24.791332 74.91835
14780000000 -11.862439 20.149569 -200 45 -51.658665 -147.34531 -26.257996 118.58813
14790000000 -11.808547 12.663771 -200 45 -51.881424 152.00191 -21.975996 118.83784
14800000000 -12.206327 5.8248868 -200 45 -50.99379 91.77523 -21.15193 96.605453
14810000000 -12.964315 1.7711142 -200 45 -49.409294 31.47109 -24.08659 67.441704
14820000000 -13.743259 -1.3806373 -200 45 -48.361301 -39.700329 -38.517048 11.083179
14830000000 -14.819078 -2.3740172 -200 45 -47.451439 -110.3433 -25.308371 -159.3584
14840000000 -16.085089 1.073697 -200 45 -47.096191 174.83597 -19.25812 167.36617
14850000000 -16.807251 9.6624031 -200 45 -47.445877 105.64939 -16.950239 136.92574
14860000000 -16.262436 21.874607 -200 45 -47.570496 38.554771 -16.797344 107.32446
14870000000 -14.543179 25.27759 -200 45 -47.282524 -31.776049 -18.598902 79.735924
14880000000 -13.093514 21.174324 -200 45 -47.614147 -103.00238 -22.584351 58.116844
14890000000 -12.433146 13.505567 -200 45 -48.210342 -173.73787 -29.861761 59.649376
14900000000 -12.29046 5.4161949 -200 45 -49.319469 120.22226 -29.80002 111.22422
14910000000 -12.778912 -1.808884 -200 45 -49.948788 54.567028 -25.997847 100.13397
14920000000 -13.475784 -6.7955565 -200 45 -50.402676 -4.4927859 -26.44063 69.277802
14930000000 -14.317972 -9.6094389 -200 45 -50.488544 -67.552345 -31.086548 16.169655
14940000000 -15.397772 -11.944148 -200 45 -50.2183 -129.78572 -30.811102 -98.875313
14950000000 -16.619091 -9.2783327 -200 45 -49.912395 168.5206 -23.958569 -158.15186
14960000000 -17.625076 -0.41795507 -200 45 -48.72887 106.05801 -20.722273 163.77278
14970000000 -16.968697 9.6584854 -200 45 -47.841335 37.558598 -19.591074 129.97719
14980000000 -15.591702 13.801961 -200 45 -47.387543 -32.218185 -20.257891 97.4431
14990000000 -14.292973 9.296133 -200 45 -46.844395 -102.65342 -22.677505 66.959595
15000000000 -13.69298 2.195215 -200 45 -46.547195 -174.3768 -26.931442 41.110401
15010000000 -13.757662 -5.5425191 -200 45 -47.154503 115.5362 -33.180145 24.162163
15020000000 -14.15214 -11.747366 -200 45 -47.201313 43.784134 -39.065136 29.564655
15030000000 -14.896604 -16.458862 -200 45 -48.131138 -22.924032 -38.237267 15.646432
15040000000 -15.740053 -19.440928 -200 45 -48.951237 -87.360474 -33.905327 -36.297119
15050000000 -16.662527 -20.622347 -200 45 -48.733559 -152.2654 -28.844748 -81.297165
15060000000 -17.829517 -19.502083 -200 45 -48.895733 143.26802 -25.234743 -117.7933
15070000000 -18.576845 -13.050099 -200 45 -48.61768 79.022606 -23.029919 -150.7702
15080000000 -18.565784 -4.1514959 -200 45 -48.511452 12.919009 -22.252796 177.31334
15090000000 -17.310293 -0.62129277 -200 45 -48.251823 -54.13776 -22.776108 144.02972
15100000000 -16.436831 -2.9590385 -200 45 -48.077587 -123.17458 -24.721634 107.55585
15110000000 -15.825448 -7.9513597 -200 45 -48.783863 170.34305 -27.914413 62.137974
15120000000 -15.715925 -14.486434 -200 45 -48.619888 106.91495 -30.779356 1.6599674
15130000000 -16.084982 -20.353794 -200 45 -47.923939 41.300732 -30.840672 -52.594105
15140000000 -16.530226 -23.475668 -200 45 -47.653801 -28.580635 -30.046425 -79.503242
15150000000 -16.865744 -26.804346 -200 45 -48.047764 -98.469833 -28.730396 -88.855568
15160000000 -17.484083 -31.411665 -200 45 -48.690247 -165.78255 -26.686808 -93.407639
15170000000 -18.474493 -33.35305 -200 45 -49.363052 137.7124 -24.030933 -100.81943
15180000000 -19.5837 -32.247299 -200 45 -47.97028 75.901924 -21.635908 -116.32314
15190000000 -20.187658 -25.853483 -200 45 -46.864861 5.7348204 -20.298374 -138.7838
15200000000 -19.88216 -19.624062 -200 45 -46.217934 -68.339462 -20.520878 -164.77264
15210000000 -19.049595 -19.303476 -200 45 -46.545914 -141.78061 -22.665466 166.73636
15220000000 -18.471952 -21.463591 -200 45 -47.457947 147.96236 -27.783756 131.4635
15230000000 -18.167959 -25.626099 -200 45 -48.208862 80.7826 -36.706429 29.070095
15240000000 -17.875467 -30.063644 -200 45 -48.538902 22.432653 -27.887278 -58.597088
15250000000 -17.907904 -36.208664 -200 45 -48.077045 -44.644024 -24.345825 -88.679977
15260000000 -17.965124 -43.386253 -200 45 -47.723911 -111.7705 -23.771313 -104.18602
15270000000 -18.665478 -51.932697 -200 45 -47.974892 178.93019 -23.695074 -104.88531
15280000000 -19.928743 -60.387146 -200 45 -48.052792 113.61492 -22.033789 -102.44044
15290000000 -22.30027 -63.03088 -200 45 -48.086098 43.580204 -19.892986 -108.85188
15300000000 -24.368086 -55.642357 -200 45 -48.358704 -22.35696 -18.381769 -122.30099
15310000000 -25.134066 -40.446159 -200 45 -48.651962 -87.681023 -18.052826 -139.97844
15320000000 -24.195524 -28.816647 -200 45 -48.681282 -153.70097 -19.360807 -157.94823
15330000000 -22.421942 -26.125999 -200 45 -48.422012 139.69241 -22.509842 -169.69794
15340000000 -21.118881 -28.429871 -200 45 -48.056248 75.258179 -27.827721 -159.33951
15350000000 -19.908787 -35.593845 -200 45 -47.933266 4.1362414 -27.370703 -110.89907
15360000000 -19.015169 -46.118835 -200 45 -48.313461 -66.41114 -22.779367 -105.01194
