!Keysight Technologies,P9374A,MY57211810,A.19.30.04
!Date: Friday, May 02, 2025 08:59:28
!Correction: S11(Off) 
!S21(Off) 
!S12(Off) 
!S22(Off) 
!S2P File: Measurements: S11, S21, S12, S22:
# Hz S  dB   R 50
13000000000 -12.054276 109.52184 -200 45 -39.170319 -85.094162 -12.979641 -175.28337
13010000000 -13.231402 106.67233 -200 45 -39.840992 -150.56648 -18.593714 -176.10222
13020000000 -14.212008 108.11012 -200 45 -39.343773 150.24477 -19.452644 -118.02346
13030000000 -14.565909 110.67132 -200 45 -38.596127 78.205193 -13.463312 -113.95567
13040000000 -15.071858 110.34576 -200 45 -38.998333 7.2644663 -11.043015 -130.33183
13050000000 -16.052401 115.82284 -200 45 -39.721241 -57.742722 -10.837765 -147.12036
13060000000 -15.714054 128.37381 -200 45 -39.608448 -122.03217 -12.224536 -160.71684
13070000000 -13.872122 132.57193 -200 45 -39.568878 171.95293 -15.373577 -160.14841
13080000000 -12.30856 127.93164 -200 45 -39.265266 105.42313 -15.666821 -135.91997
13090000000 -11.703987 118.84827 -200 45 -39.148911 37.088398 -12.659896 -132.17418
13100000000 -11.930851 110.82914 -200 45 -39.490261 -33.625553 -10.990646 -144.5327
13110000000 -12.635776 107.22892 -200 45 -40.533958 -97.25486 -11.15389 -161.30759
13120000000 -12.807707 106.73945 -200 45 -40.188568 -158.58034 -13.330633 -176.25687
13130000000 -12.938979 103.44798 -200 45 -39.692822 134.84413 -18.910385 -173.87318
13140000000 -13.453654 98.149719 -200 45 -39.726536 66.671906 -18.223513 -118.81795
13150000000 -14.85843 94.814003 -200 45 -39.405666 -0.028829524 -12.99804 -118.90529
13160000000 -17.024887 103.18523 -200 45 -39.79501 -69.929138 -10.632744 -133.9035
13170000000 -16.398455 122.29659 -200 45 -40.535 -134.63686 -10.282952 -152.12312
13180000000 -14.080527 126.38628 -200 45 -40.261307 165.83832 -11.85428 -166.26106
13190000000 -12.841602 119.79675 -200 45 -39.57748 97.272865 -14.934067 -165.57033
13200000000 -12.533951 114.30202 -200 45 -39.503311 27.747957 -15.254974 -142.90532
13210000000 -12.603077 110.31992 -200 45 -40.000183 -39.205029 -12.43021 -139.71227
13220000000 -12.561824 108.54761 -200 45 -40.011204 -104.53828 -10.842512 -152.00078
13230000000 -12.234715 105.49577 -200 45 -40.242519 -170.60146 -10.973888 -169.37225
13240000000 -12.294409 98.092575 -200 45 -40.220375 125.97882 -13.514377 174.02458
13250000000 -13.411475 90.981926 -200 45 -39.500477 60.284092 -19.553167 -178.65291
13260000000 -15.570427 90.810844 -200 45 -39.466465 -9.5752974 -17.969233 -125.2821
13270000000 -17.22381 106.47086 -200 45 -39.740654 -76.932899 -12.866599 -126.99038
13280000000 -15.811416 122.76615 -200 45 -39.830986 -142.53897 -10.683215 -142.94743
13290000000 -13.726007 124.22272 -200 45 -39.952393 150.93597 -10.535039 -160.69843
13300000000 -12.871764 118.92773 -200 45 -39.848766 87.545738 -12.336293 -172.85796
13310000000 -12.572151 115.7684 -200 45 -39.182541 19.843336 -14.608191 -167.31682
13320000000 -12.263617 114.87074 -200 45 -39.316437 -49.706188 -14.111325 -153.51802
13330000000 -11.724234 111.4704 -200 45 -39.693657 -117.61024 -11.924721 -153.97781
13340000000 -11.442642 105.51215 -200 45 -40.138622 177.59039 -10.749711 -167.74802
13350000000 -11.784663 97.379326 -200 45 -40.054501 114.35187 -11.637073 175.19229
13360000000 -13.24096 91.565483 -200 45 -39.614712 48.371174 -14.766383 165.24129
13370000000 -15.381564 96.221977 -200 45 -39.220078 -18.952837 -19.191298 -174.8869
13380000000 -15.932452 111.12257 -200 45 -39.323967 -88.529541 -16.1555 -141.17406
13390000000 -14.5443 121.10255 -200 45 -39.51099 -156.39369 -12.340982 -146.59326
13400000000 -13.204771 120.63207 -200 45 -39.91013 138.10115 -10.816924 -162.03085
13410000000 -12.478123 117.31181 -200 45 -39.679802 74.178871 -11.349512 -177.3009
13420000000 -12.306667 114.68313 -200 45 -39.568283 5.724822 -13.12071 177.41946
13430000000 -11.926038 113.37994 -200 45 -39.503979 -60.674881 -14.39018 -175.1595
13440000000 -11.503226 109.35075 -200 45 -39.601372 -131.00989 -13.383187 -165.61986
13450000000 -11.402885 103.04716 -200 45 -40.188408 164.46263 -11.481128 -170.30196
13460000000 -12.035678 95.620369 -200 45 -40.410061 100.55744 -10.869371 176.24133
13470000000 -13.588889 92.204041 -200 45 -40.118073 35.91613 -12.054294 161.50139
13480000000 -15.185774 98.064377 -200 45 -39.7248 -29.053736 -14.963909 156.18884
13490000000 -15.397349 110.31907 -200 45 -39.281982 -98.500854 -18.239197 173.3858
13500000000 -14.409397 115.47693 -200 45 -39.597702 -168.92763 -16.208992 -159.08075
13510000000 -13.593561 115.86745 -200 45 -40.382496 124.30009 -12.819824 -160.94585
13520000000 -13.31667 114.60255 -200 45 -40.345078 63.265789 -11.550925 -173.5208
13530000000 -12.906278 115.03447 -200 45 -40.094372 -4.031395 -11.805786 175.43118
13540000000 -12.408539 114.51263 -200 45 -40.045219 -69.666824 -12.85241 170.22987
13550000000 -11.788208 110.13702 -200 45 -39.961758 -136.67448 -13.956086 172.69543
13560000000 -11.803689 103.64336 -200 45 -40.021812 155.21434 -13.564942 -179.92841
13570000000 -12.533401 97.74514 -200 45 -40.519421 90.008102 -12.266246 177.87961
13580000000 -13.720251 98.058006 -200 45 -40.313473 27.533485 -11.885931 168.23569
13590000000 -14.555703 104.30955 -200 45 -39.843975 -39.174019 -12.737699 158.7886
13600000000 -14.111028 110.51857 -200 45 -39.609924 -109.60732 -14.664233 154.57005
13610000000 -13.649943 111.5869 -200 45 -40.361706 -174.24736 -17.189837 164.45515
13620000000 -13.456817 111.31638 -200 45 -39.724411 120.70282 -16.156536 -171.94638
13630000000 -13.44562 114.3167 -200 45 -39.749542 51.254948 -13.424962 -171.6312
13640000000 -12.76055 116.66161 -200 45 -40.139816 -15.062407 -12.165854 -179.56306
13650000000 -11.753969 115.7196 -200 45 -40.108047 -81.852722 -11.768418 171.29507
13660000000 -11.248721 109.8158 -200 45 -40.552086 -145.34526 -12.445242 162.93474
13670000000 -11.306457 103.10888 -200 45 -39.87899 147.02084 -13.499167 163.58183
13680000000 -12.137449 99.772041 -200 45 -40.255547 82.187401 -13.406228 167.63992
13690000000 -12.774713 101.26692 -200 45 -39.954395 14.067629 -12.618555 166.76732
13700000000 -12.777163 104.62988 -200 45 -40.218655 -50.474304 -12.212073 159.78268
13710000000 -12.560887 103.57061 -200 45 -40.043064 -116.12547 -12.803032 151.10483
13720000000 -12.800813 102.02215 -200 45 -39.608711 176.52261 -14.568809 146.41719
13730000000 -13.429791 103.63834 -200 45 -39.717991 107.10679 -16.800993 155.84697
13740000000 -13.430987 109.81542 -200 45 -39.981258 39.536793 -16.100876 176.5054
13750000000 -12.447766 113.85046 -200 45 -40.407349 -24.682003 -13.436205 178.52937
13760000000 -11.396614 111.02668 -200 45 -40.151016 -90.946609 -12.185806 170.36052
13770000000 -10.970327 104.81047 -200 45 -40.247871 -158.37036 -11.895682 162.23651
13780000000 -11.209289 99.473663 -200 45 -40.491539 138.41643 -12.372989 154.71799
13790000000 -11.649498 96.969521 -200 45 -40.157368 71.503441 -13.339322 154.63815
13800000000 -11.796725 97.250839 -200 45 -40.106422 3.8207617 -13.097774 157.70917
13810000000 -11.831779 94.424255 -200 45 -40.018406 -61.968861 -12.602964 154.4359
13820000000 -12.11456 91.589508 -200 45 -40.331364 -129.83479 -12.631698 148.46271
13830000000 -13.077298 89.613846 -200 45 -40.42733 165.07034 -13.51239 141.04315
13840000000 -13.922517 94.59774 -200 45 -40.281445 100.55046 -15.587185 140.05145
13850000000 -13.753276 104.61837 -200 45 -39.909637 31.75885 -17.13508 155.17091
13860000000 -12.4302 106.13703 -200 45 -40.356121 -37.465553 -15.674148 169.2823
13870000000 -11.468162 102.98893 -200 45 -40.900707 -100.93951 -13.840991 169.29179
13880000000 -11.245942 97.89035 -200 45 -40.617546 -166.00523 -12.896927 163.69984
13890000000 -11.216138 93.844475 -200 45 -40.534496 128.55783 -12.718877 156.95012
13900000000 -11.394289 91.582695 -200 45 -40.614361 59.739212 -13.214454 153.63998
13910000000 -11.2294 89.041656 -200 45 -40.791561 -5.1669831 -13.292681 154.33446
13920000000 -11.361836 84.492317 -200 45 -40.881969 -71.281662 -12.947384 152.32799
13930000000 -12.073255 78.512459 -200 45 -40.714851 -135.2516 -12.953032 147.27127
13940000000 -13.594656 79.430954 -200 45 -40.410072 158.22505 -13.472466 142.35405
13950000000 -14.619154 88.924278 -200 45 -40.504349 88.933792 -14.499612 138.57608
13960000000 -13.656965 99.75679 -200 45 -40.900543 22.592411 -16.251402 141.52376
13970000000 -12.159081 100.87325 -200 45 -40.874584 -41.588753 -16.520779 154.49042
13980000000 -11.235049 95.822914 -200 45 -40.493668 -108.20966 -15.574059 159.45206
13990000000 -11.123696 91.150093 -200 45 -40.951088 -177.06236 -14.888719 161.82927
14000000000 -11.164589 89.282059 -200 45 -41.078373 118.86137 -13.846081 161.07275
14010000000 -10.798736 87.327675 -200 45 -41.041698 52.641937 -13.396057 156.59006
14020000000 -10.551417 82.211891 -200 45 -41.169243 -13.542858 -13.127828 154.2594
14030000000 -10.84948 75.007881 -200 45 -41.349205 -76.769119 -12.635977 149.1581
14040000000 -12.07193 69.995659 -200 45 -40.869263 -139.87277 -12.96304 141.98427
14050000000 -13.890015 72.791122 -200 45 -40.105053 150.29364 -13.678881 138.61588
14060000000 -14.414894 87.099701 -200 45 -40.569904 80.152519 -14.402838 136.79329
14070000000 -12.905336 94.915329 -200 45 -41.019585 13.731678 -15.320739 138.23537
14080000000 -11.598493 92.516884 -200 45 -41.281666 -48.708683 -15.542087 142.73036
14090000000 -11.046927 88.277206 -200 45 -40.803726 -113.90292 -15.537737 143.30156
14100000000 -10.923184 84.749763 -200 45 -40.711853 177.51532 -16.229885 146.73502
14110000000 -10.705983 83.310272 -200 45 -40.770103 111.9399 -15.676252 154.71245
14120000000 -10.219335 79.622971 -200 45 -40.645859 44.529842 -14.690928 157.58057
14130000000 -10.075095 72.31739 -200 45 -41.193901 -22.049242 -13.288918 156.12773
14140000000 -10.701994 65.089279 -200 45 -40.914158 -85.347862 -12.278468 147.87981
14150000000 -12.104379 60.827591 -200 45 -40.706779 -151.78114 -12.354891 137.07401
14160000000 -13.737573 66.446007 -200 45 -40.687588 140.24208 -13.36255 129.62708
14170000000 -13.68443 78.865623 -200 45 -40.448746 73.733566 -14.714013 127.62072
14180000000 -12.382471 82.380447 -200 45 -40.671104 6.6439157 -15.816903 132.63495
14190000000 -11.518883 80.208885 -200 45 -40.745182 -60.986214 -15.567831 137.71001
14200000000 -11.131444 76.489136 -200 45 -41.084545 -125.39979 -15.294464 135.9176
14210000000 -11.005536 74.522125 -200 45 -40.895706 169.21149 -16.016899 133.17903
14220000000 -10.57664 72.698563 -200 45 -40.763683 102.55939 -17.231127 137.98323
14230000000 -10.115655 67.645943 -200 45 -40.834595 36.056755 -17.246817 152.31216
14240000000 -10.136041 60.000168 -200 45 -40.728153 -31.31217 -15.007565 159.03362
14250000000 -10.976814 53.145569 -200 45 -41.056347 -99.070694 -13.145402 152.37851
14260000000 -12.352789 51.240681 -200 45 -41.282326 -163.31308 -12.397258 141.46776
14270000000 -13.534876 57.712963 -200 45 -41.091328 132.19783 -12.709033 129.11026
14280000000 -13.166765 65.551903 -200 45 -41.068604 66.419151 -14.224528 121.52773
14290000000 -12.313755 67.008209 -200 45 -40.73164 -0.99054968 -15.884576 122.65397
14300000000 -11.914705 64.480057 -200 45 -40.805588 -68.573273 -16.591253 131.35803
14310000000 -11.868618 63.721985 -200 45 -41.102295 -136.47313 -15.736809 133.94473
14320000000 -11.54611 64.434273 -200 45 -41.531601 159.58626 -15.663581 129.07494
14330000000 -10.881328 62.187378 -200 45 -41.253147 94.56208 -16.628584 124.01694
14340000000 -10.430997 56.80127 -200 45 -40.930027 29.558962 -18.810392 129.6389
14350000000 -10.547914 49.13892 -200 45 -40.608704 -40.041828 -18.610182 149.67328
14360000000 -11.41598 43.698997 -200 45 -41.198311 -109.57468 -16.110762 157.16383
14370000000 -12.635469 43.543701 -200 45 -42.037872 -171.87126 -13.855841 151.01755
14380000000 -13.076752 49.030544 -200 45 -41.639771 128.68156 -12.908301 137.20755
14390000000 -12.922496 51.882889 -200 45 -40.520576 62.172848 -13.511998 124.08521
14400000000 -12.611403 51.979237 -200 45 -40.468365 -11.589615 -14.868154 116.8872
14410000000 -12.754329 52.120998 -200 45 -41.055012 -77.722778 -16.651903 114.50758
14420000000 -12.658041 54.940331 -200 45 -41.266277 -143.12138 -17.990559 124.79382
14430000000 -11.844988 56.923256 -200 45 -41.357018 154.53531 -16.974613 130.07593
14440000000 -10.980529 53.346405 -200 45 -40.64896 87.663307 -16.730814 123.74836
14450000000 -10.571198 46.677826 -200 45 -40.514122 18.714375 -18.018089 118.98023
14460000000 -10.850791 40.149349 -200 45 -40.69902 -49.795273 -20.004957 125.46763
14470000000 -11.53142 36.145332 -200 45 -41.278835 -117.15227 -20.464752 145.3179
14480000000 -12.168117 36.626007 -200 45 -41.827839 -178.8672 -17.385525 159.01245
14490000000 -12.298731 37.039997 -200 45 -41.119267 119.74671 -14.553478 149.76924
14500000000 -12.387976 35.713619 -200 45 -40.300911 50.773602 -13.664242 134.34651
14510000000 -12.990886 34.782398 -200 45 -40.363358 -20.819935 -13.970982 120.51883
14520000000 -13.528923 39.044693 -200 45 -40.916115 -88.805298 -15.259833 107.41667
14530000000 -13.065829 45.139927 -200 45 -41.300709 -152.25272 -18.2171 102.49284
14540000000 -11.980943 46.238983 -200 45 -40.871124 141.95738 -19.942589 118.81415
14550000000 -10.991096 41.593792 -200 45 -41.141056 74.98909 -18.783266 125.04022
14560000000 -10.838296 34.525032 -200 45 -41.023018 8.719305 -18.335642 121.39025
14570000000 -11.086227 29.423025 -200 45 -40.919674 -56.532516 -18.846796 113.30554
14580000000 -11.474011 26.524002 -200 45 -40.934616 -123.88042 -22.065161 109.26577
14590000000 -11.720022 24.244261 -200 45 -40.985142 167.95865 -23.864494 150.22983
14600000000 -12.035074 21.284119 -200 45 -41.200924 104.02686 -18.580784 160.69453
14610000000 -12.741089 17.610577 -200 45 -41.080147 36.071739 -15.620006 148.3532
14620000000 -14.07382 18.75906 -200 45 -41.096771 -27.9571 -14.295643 130.59436
14630000000 -14.738706 28.119625 -200 45 -40.951958 -95.467163 -14.549553 110.44172
14640000000 -13.870794 36.373436 -200 45 -40.920849 -164.29597 -16.628153 92.665886
14650000000 -12.455967 36.692856 -200 45 -41.291653 129.65858 -20.816496 88.23262
14660000000 -11.688796 31.165176 -200 45 -41.443211 62.278328 -22.863838 113.01658
14670000000 -11.465806 25.774332 -200 45 -41.809113 -1.3147818 -20.654896 123.03157
14680000000 -11.607057 21.050579 -200 45 -41.822746 -66.730766 -19.383455 112.30443
14690000000 -11.706197 17.801907 -200 45 -41.701702 -129.78589 -20.628401 93.997566
14700000000 -11.893554 13.106155 -200 45 -41.06192 162.36598 -27.107801 83.388466
14710000000 -12.429049 7.4233928 -200 45 -41.139507 92.761497 -27.793886 176.35194
14720000000 -13.669108 3.7610664 -200 45 -41.668365 25.612198 -19.468056 168.07831
14730000000 -15.406898 6.9650011 -200 45 -41.911289 -39.368523 -16.227142 146.45853
14740000000 -16.016525 20.303314 -200 45 -42.124062 -102.85326 -15.215981 121.42609
14750000000 -14.801697 29.442354 -200 45 -41.396618 -167.32443 -16.078644 97.389015
14760000000 -13.293368 28.574446 -200 45 -41.309566 121.72273 -19.12554 75.523804
14770000000 -12.539619 23.973835 -200 45 -41.951324 54.5938 -25.374922 76.376808
14780000000 -12.19776 17.70808 -200 45 -42.373245 -8.344039 -25.749996 119.60425
14790000000 -12.346586 13.688905 -200 45 -42.05698 -71.230949 -21.939486 117.85847
14800000000 -12.29802 9.6064777 -200 45 -41.62405 -139.36305 -21.222969 95.858467
14810000000 -12.459184 4.1252613 -200 45 -41.720612 154.46754 -24.361952 67.537697
14820000000 -13.148693 -3.0721436 -200 45 -41.83614 86.58345 -39.37278 15.813456
14830000000 -14.773413 -7.4971514 -200 45 -41.804489 20.884506 -25.167469 -159.52736
14840000000 -17.032715 -1.77732 -200 45 -42.137257 -44.584938 -19.188702 166.27116
14850000000 -17.441259 16.687071 -200 45 -41.853748 -108.76245 -17.032948 136.73369
14860000000 -15.414591 26.231001 -200 45 -41.436039 -177.73712 -16.785395 107.75582
14870000000 -13.789946 22.458605 -200 45 -42.179802 113.02184 -18.433199 80.074524
14880000000 -13.096446 16.021742 -200 45 -42.438133 51.425377 -22.469299 55.385422
14890000000 -13.100052 10.959882 -200 45 -42.126587 -13.256046 -31.096783 61.019901
14900000000 -12.989017 8.435214 -200 45 -42.105267 -78.447067 -28.948263 110.32748
14910000000 -12.684392 3.9062903 -200 45 -41.579445 -144.23303 -26.26128 98.515953
14920000000 -12.616718 -4.4597335 -200 45 -41.411613 144.47958 -26.30913 70.569229
14930000000 -13.522634 -14.549836 -200 45 -42.017731 77.080833 -30.773859 14.895001
14940000000 -15.760443 -19.811342 -200 45 -42.577225 15.173579 -30.420362 -100.43757
14950000000 -18.28933 -8.9129181 -200 45 -41.70612 -48.558853 -23.547474 -159.97308
14960000000 -17.674625 10.751753 -200 45 -41.413162 -117.9573 -20.775141 160.49829
14970000000 -15.643806 12.985062 -200 45 -41.67643 172.66829 -19.963976 130.46368
14980000000 -14.685515 7.0869174 -200 45 -42.13467 107.07715 -20.156893 99.213135
14990000000 -14.845228 1.8275189 -200 45 -42.267578 42.251301 -22.360174 66.809029
15000000000 -14.909603 2.5679398 -200 45 -42.271664 -20.208685 -26.748478 37.6287
15010000000 -14.165166 1.3333938 -200 45 -41.677227 -86.879875 -34.029461 24.648911
15020000000 -13.501837 -6.121892 -200 45 -41.413139 -154.93913 -38.06752 26.729094
15030000000 -13.717096 -17.673134 -200 45 -41.746021 136.84224 -40.892307 15.640211
15040000000 -15.343314 -27.850245 -200 45 -41.965302 70.831551 -33.948933 -26.103939
15050000000 -17.989235 -27.439724 -200 45 -41.767719 4.6841726 -28.265505 -80.597549
15060000000 -19.197805 -11.488789 -200 45 -42.154739 -61.333542 -24.968884 -119.49275
15070000000 -17.860693 -2.8344061 -200 45 -41.958969 -125.22331 -23.016092 -152.22823
15080000000 -16.873926 -5.6965108 -200 45 -41.751152 167.61356 -22.395443 175.9772
15090000000 -17.029104 -10.277204 -200 45 -41.581589 100.49435 -22.886393 143.74146
15100000000 -17.594788 -8.2027388 -200 45 -41.672127 31.056976 -24.791386 106.82678
15110000000 -16.903793 -3.2603931 -200 45 -42.384422 -33.344593 -28.107828 62.814995
15120000000 -15.578264 -6.7415075 -200 45 -41.829857 -95.03627 -30.889677 4.4694686
15130000000 -14.968554 -17.185646 -200 45 -41.252735 -164.98001 -30.351372 -48.151562
15140000000 -15.606283 -28.856798 -200 45 -41.640011 126.29684 -29.05493 -82.587669
15150000000 -17.152714 -35.432518 -200 45 -41.831013 59.634144 -29.193413 -93.864326
15160000000 -19.012119 -33.003651 -200 45 -42.070324 -5.8130288 -27.094572 -90.411102
15170000000 -19.266655 -24.055696 -200 45 -42.0131 -71.315964 -23.686407 -99.45369
15180000000 -18.43552 -23.879293 -200 45 -42.010132 -138.51463 -21.486191 -118.19226
15190000000 -18.605417 -30.010506 -200 45 -42.112202 155.31436 -20.466133 -139.52779
15200000000 -19.921665 -31.675232 -200 45 -42.42231 90.113853 -20.5676 -164.4445
15210000000 -20.792959 -21.716913 -200 45 -42.115685 27.234037 -22.60915 165.11095
15220000000 -19.352724 -12.928967 -200 45 -41.736469 -42.031586 -28.41663 129.49152
15230000000 -17.377254 -17.569611 -200 45 -41.844666 -109.78352 -38.106262 25.722828
15240000000 -16.61517 -30.83572 -200 45 -42.112324 -178.84657 -28.114088 -58.936398
15250000000 -17.250837 -43.624199 -200 45 -42.688427 117.02065 -24.454407 -87.237694
15260000000 -18.751108 -51.693542 -200 45 -42.438934 53.17844 -23.483685 -102.60851
15270000000 -20.305719 -50.778419 -200 45 -42.412884 -12.668336 -23.462944 -107.74585
15280000000 -20.57321 -47.942974 -200 45 -42.092121 -80.045341 -22.386023 -102.59293
15290000000 -20.49317 -53.753532 -200 45 -42.377522 -147.75287 -19.769632 -107.89568
15300000000 -22.087095 -64.673767 -200 45 -42.427952 148.01224 -18.363661 -123.08829
15310000000 -26.205875 -62.021439 -200 45 -42.517616 81.056709 -18.077122 -139.70346
15320000000 -27.198507 -20.894245 -200 45 -42.211517 15.846712 -19.228521 -158.54068
15330000000 -22.204988 -10.759733 -200 45 -42.111778 -54.252396 -22.635853 -171.21013
15340000000 -19.419289 -24.200218 -200 45 -43.064465 -121.21454 -28.380625 -157.6691
15350000000 -18.598587 -40.97794 -200 45 -42.971134 178.16176 -26.788153 -109.6619
15360000000 -18.962847 -57.004738 -200 45 -42.479206 110.17599 -22.878063 -107.54878
