!Keysight Technologies,P9374A,MY57211810,A.19.30.04
!Date: Friday, May 02, 2025 09:01:27
!Correction: S11(Off) 
!S21(Off) 
!S12(Off) 
!S22(Off) 
!S2P File: Measurements: S11, S21, S12, S22:
# Hz S  dB   R 50
13000000000 -11.828441 112.73975 -200 45 -25.749613 0.91677874 -12.923586 -176.08577
13010000000 -12.588505 106.68656 -200 45 -25.492559 -65.705963 -18.733282 -175.53131
13020000000 -13.888241 103.50089 -200 45 -25.41729 -133.81178 -19.255241 -119.31424
13030000000 -15.223248 106.5573 -200 45 -25.699318 158.36151 -13.705987 -114.79895
13040000000 -15.923419 113.64915 -200 45 -25.909136 93.660103 -11.177402 -128.99294
13050000000 -15.657054 123.02732 -200 45 -25.77492 28.293795 -10.654065 -146.40186
13060000000 -14.651126 126.35844 -200 45 -25.597704 -38.546898 -12.141145 -161.45897
13070000000 -13.856808 126.73232 -200 45 -25.574707 -105.08904 -15.471638 -160.49933
13080000000 -13.061118 125.83865 -200 45 -25.530888 -172.80383 -15.661408 -135.56763
13090000000 -12.238252 121.78648 -200 45 -25.65288 120.21058 -12.646421 -132.6274
13100000000 -11.861654 115.49768 -200 45 -25.847948 53.01701 -11.088975 -144.64876
13110000000 -11.832823 108.84888 -200 45 -26.005342 -12.201097 -11.165382 -160.53801
13120000000 -12.319134 102.36434 -200 45 -25.916872 -77.393768 -13.238692 -175.58725
13130000000 -13.306688 98.132942 -200 45 -25.785898 -144.15543 -18.522232 -174.69765
13140000000 -14.41431 98.257645 -200 45 -25.942009 148.47377 -18.728176 -119.47487
13150000000 -15.396399 102.00134 -200 45 -26.140078 82.423218 -12.943676 -117.34077
13160000000 -15.712148 108.42099 -200 45 -26.139091 17.841429 -10.551171 -134.30122
13170000000 -15.541304 115.15239 -200 45 -25.885273 -47.836803 -10.347231 -152.14871
13180000000 -14.856397 120.24037 -200 45 -25.872396 -115.07123 -11.904088 -165.65688
13190000000 -13.718616 122.26111 -200 45 -25.812263 178.26617 -14.660245 -165.13225
13200000000 -12.668841 119.41489 -200 45 -25.877089 111.28114 -15.377484 -144.96422
13210000000 -11.941314 113.4538 -200 45 -26.055235 44.565491 -12.610065 -138.72588
13220000000 -11.82189 106.24091 -200 45 -26.250315 -20.323668 -10.7442 -151.198
13230000000 -12.246272 99.578201 -200 45 -26.130383 -84.853539 -10.911689 -169.67725
13240000000 -13.164693 95.641861 -200 45 -25.826172 -150.44017 -13.537376 174.06555
13250000000 -14.223321 95.936958 -200 45 -25.63802 142.42786 -19.469725 -178.31921
13260000000 -14.959997 98.730461 -200 45 -25.554499 74.420395 -17.99922 -126.37152
13270000000 -15.791368 103.53871 -200 45 -25.677366 7.9561853 -13.008153 -127.09889
13280000000 -16.017036 113.78167 -200 45 -25.652588 -59.143715 -10.765298 -142.31882
13290000000 -14.943144 122.9357 -200 45 -25.761889 -125.05597 -10.485778 -159.66925
13300000000 -13.358505 125.19279 -200 45 -25.678415 169.35881 -12.084317 -173.34126
13310000000 -11.998783 120.80964 -200 45 -25.525175 102.33929 -14.916934 -168.89468
13320000000 -11.43066 113.33984 -200 45 -25.557587 35.024418 -14.021417 -151.48297
13330000000 -11.494611 106.75611 -200 45 -25.653519 -31.674719 -11.767164 -155.17603
13340000000 -11.972398 101.83096 -200 45 -25.72595 -97.70874 -10.977376 -168.27202
13350000000 -12.615603 98.844025 -200 45 -25.676559 -163.37869 -11.681603 177.06291
13360000000 -13.388365 97.982674 -200 45 -25.628002 130.36337 -14.383368 165.32109
13370000000 -14.364383 99.118378 -200 45 -25.499355 63.673203 -19.419697 -177.93904
13380000000 -15.237898 105.37273 -200 45 -25.467073 -3.4644194 -16.227818 -139.87703
13390000000 -15.198336 115.92659 -200 45 -25.486151 -70.972267 -12.225575 -146.57785
13400000000 -13.948658 122.37455 -200 45 -25.610338 -137.03142 -10.929924 -162.59457
13410000000 -12.58986 122.17017 -200 45 -25.546692 156.52762 -11.38142 -176.09543
13420000000 -11.708605 117.16386 -200 45 -25.544653 89.442009 -12.929948 177.25781
13430000000 -11.366035 110.91883 -200 45 -25.665884 22.279131 -14.473391 -176.22559
13440000000 -11.589653 105.39056 -200 45 -25.811535 -44.054092 -13.452364 -164.95366
13450000000 -11.93632 101.36443 -200 45 -25.955151 -109.71323 -11.419634 -169.90811
13460000000 -12.582385 98.187363 -200 45 -25.837221 -174.85725 -10.880912 175.77061
13470000000 -13.418388 97.16172 -200 45 -25.709673 118.03689 -12.112432 162.04662
13480000000 -14.260951 98.898788 -200 45 -25.819159 50.966286 -14.883376 156.64194
13490000000 -15.123543 103.67493 -200 45 -25.845581 -14.764455 -17.989 172.40147
13500000000 -15.182686 112.87085 -200 45 -25.74439 -81.973106 -16.422398 -160.16435
13510000000 -14.219307 119.29401 -200 45 -25.993208 -149.46616 -12.987003 -159.78705
13520000000 -13.019001 119.35188 -200 45 -26.266518 145.35623 -11.396448 -172.53957
13530000000 -12.231608 115.23795 -200 45 -26.198345 80.87043 -11.661937 174.46481
13540000000 -12.118459 110.25764 -200 45 -26.021591 14.505739 -13.132932 169.48238
13550000000 -12.181456 107.16233 -200 45 -25.993128 -52.962296 -13.902922 175.12816
13560000000 -12.408738 104.17519 -200 45 -26.210062 -119.44905 -13.26901 178.4283
13570000000 -12.721113 102.49381 -200 45 -26.301044 175.3176 -12.566663 176.50792
13580000000 -13.078979 100.93518 -200 45 -26.248421 109.99097 -12.035168 170.45648
13590000000 -13.830083 100.45339 -200 45 -26.19623 44.365612 -12.396042 159.63445
13600000000 -14.575017 105.49659 -200 45 -26.013948 -21.297993 -14.589262 152.07294
13610000000 -14.413555 112.71423 -200 45 -25.769693 -88.805336 -17.458328 165.2829
13620000000 -13.548122 116.31387 -200 45 -25.909103 -157.28926 -16.062799 -172.04474
13630000000 -12.79334 115.98343 -200 45 -26.218239 136.51686 -13.385756 -171.58745
13640000000 -12.326468 113.95176 -200 45 -26.268764 71.914841 -12.161758 179.85783
13650000000 -11.959871 112.2036 -200 45 -26.192001 6.2283401 -11.939038 171.29541
13660000000 -11.757361 109.2211 -200 45 -26.100214 -59.952702 -12.39273 164.74651
13670000000 -11.658761 106.21266 -200 45 -26.02927 -127.0061 -13.209419 162.23372
13680000000 -11.828005 103.01306 -200 45 -26.087624 166.55821 -13.67877 166.50049
13690000000 -12.145773 101.0959 -200 45 -26.156382 100.5041 -12.70692 168.4438
13700000000 -12.565119 99.818504 -200 45 -26.204794 35.097157 -11.959783 160.27415
13710000000 -13.213649 100.84454 -200 45 -26.061674 -30.52553 -12.770968 149.3201
13720000000 -13.414491 105.15128 -200 45 -25.87678 -97.314095 -14.860243 146.85481
13730000000 -13.160717 108.32669 -200 45 -25.802935 -165.01518 -16.492439 157.51076
13740000000 -12.641272 109.71353 -200 45 -25.860161 128.03363 -16.113148 173.39366
13750000000 -12.255707 108.91433 -200 45 -25.976107 60.89315 -13.732153 179.75252
13760000000 -11.996951 108.45725 -200 45 -26.209633 -5.463274 -11.95044 171.41463
13770000000 -11.499394 107.44733 -200 45 -26.271624 -69.846535 -11.879895 160.59285
13780000000 -11.040562 103.33609 -200 45 -26.058786 -135.88515 -12.610791 155.77008
13790000000 -11.039576 97.817223 -200 45 -26.022429 156.46973 -13.062668 155.47636
13800000000 -11.515554 93.281006 -200 45 -26.09812 89.434784 -13.122703 155.68451
13810000000 -12.233272 91.6632 -200 45 -26.318296 23.369982 -12.8604 155.18062
13820000000 -12.756242 93.173935 -200 45 -26.45966 -42.019627 -12.514792 149.96605
13830000000 -12.940027 94.141251 -200 45 -26.405046 -106.82916 -13.233265 139.97995
13840000000 -13.289442 95.350891 -200 45 -26.180033 -172.74768 -15.839585 137.87755
13850000000 -13.523228 99.588425 -200 45 -26.052736 120.29493 -17.227819 158.22401
13860000000 -12.90715 104.64725 -200 45 -26.078255 52.135311 -15.228387 167.95689
13870000000 -11.877919 104.92342 -200 45 -26.222225 -14.741327 -14.200627 167.3062
13880000000 -11.093402 100.425 -200 45 -26.516626 -81.559059 -13.093271 165.91339
13890000000 -10.889944 94.602684 -200 45 -26.849236 -147.11841 -12.401545 158.13144
13900000000 -11.079891 89.69532 -200 45 -27.043139 149.30753 -13.09475 151.00638
13910000000 -11.404647 86.453659 -200 45 -26.734316 85.38839 -13.722334 154.63881
13920000000 -11.828262 84.057182 -200 45 -26.477839 19.243551 -12.793963 154.52902
13930000000 -12.304956 82.265709 -200 45 -26.382544 -47.994915 -12.69489 145.99109
13940000000 -13.091164 81.957008 -200 45 -26.327816 -114.75008 -13.716988 141.04117
13950000000 -13.995303 85.895088 -200 45 -26.413046 178.36043 -14.642086 140.74669
13960000000 -14.05081 95.570404 -200 45 -26.447035 112.11324 -15.784863 141.6669
13970000000 -12.773076 101.69587 -200 45 -26.502905 45.588497 -16.776102 151.32397
13980000000 -11.429584 99.683983 -200 45 -26.583309 -20.595451 -15.842722 161.7505
13990000000 -10.674351 94.196266 -200 45 -26.705795 -86.106407 -14.530568 162.14644
14000000000 -10.495073 87.675201 -200 45 -26.704325 -151.60724 -13.950101 159.16154
14010000000 -10.756541 82.963135 -200 45 -26.670002 142.49997 -13.607813 157.62657
14020000000 -11.091569 79.717758 -200 45 -26.693497 77.053894 -12.952475 154.92926
14030000000 -11.454717 77.126549 -200 45 -26.519512 11.789622 -12.610631 148.27933
14040000000 -12.094905 74.917145 -200 45 -26.358042 -55.125217 -13.083449 141.86725
14050000000 -12.989848 74.974228 -200 45 -26.381554 -121.57143 -13.67441 139.59052
14060000000 -13.955541 81.178482 -200 45 -26.345985 171.9462 -14.247555 136.60149
14070000000 -13.575599 91.459236 -200 45 -26.36219 105.68565 -15.358987 136.96626
14080000000 -12.147011 94.90506 -200 45 -26.303268 39.389935 -15.672334 143.31285
14090000000 -11.03994 91.835251 -200 45 -26.314592 -27.103819 -15.454354 143.92972
14100000000 -10.393723 86.397079 -200 45 -26.288067 -92.967537 -16.078287 145.73856
14110000000 -10.292646 80.569389 -200 45 -26.209003 -159.60249 -15.973907 154.61977
14120000000 -10.440224 76.124847 -200 45 -26.223471 133.29387 -14.58189 158.72388
14130000000 -10.602508 72.393021 -200 45 -26.352068 67.168762 -13.233335 155.22287
14140000000 -10.97664 67.745445 -200 45 -26.361322 1.4410543 -12.416636 147.63591
14150000000 -11.83129 64.487328 -200 45 -26.348093 -64.447166 -12.376659 138.20624
14160000000 -13.015688 65.95639 -200 45 -26.261499 -130.28242 -13.182368 129.6095
14170000000 -13.603693 73.297897 -200 45 -26.132212 163.48416 -14.804912 126.66638
14180000000 -13.079987 81.162346 -200 45 -26.040827 96.190773 -15.873899 133.24593
14190000000 -11.928924 83.166428 -200 45 -26.015213 29.239204 -15.456692 138.08337
14200000000 -10.895704 80.247116 -200 45 -26.080978 -37.981167 -15.282416 135.00218
14210000000 -10.387282 74.749199 -200 45 -26.240316 -104.59043 -16.194159 133.23175
14220000000 -10.265163 68.924011 -200 45 -26.336676 -170.49568 -17.146524 139.52695
14230000000 -10.473754 64.389992 -200 45 -26.36734 123.70359 -17.062342 150.24435
14240000000 -10.717191 60.356102 -200 45 -26.348465 57.641716 -15.377893 158.72476
14250000000 -11.240808 56.518684 -200 45 -26.343327 -8.6594486 -13.122798 154.47816
14260000000 -12.00919 54.807949 -200 45 -26.376602 -74.848557 -12.124658 141.02374
14270000000 -12.769103 56.190388 -200 45 -26.40078 -140.80652 -12.818995 127.6577
14280000000 -13.279383 60.195347 -200 45 -26.341719 152.64862 -14.506537 122.5066
14290000000 -13.146532 66.483856 -200 45 -26.488386 86.083191 -15.63994 125.04472
14300000000 -12.197248 69.622971 -200 45 -26.535419 20.583086 -16.249844 127.76059
14310000000 -11.321246 67.043251 -200 45 -26.512682 -45.228477 -16.412399 133.46317
14320000000 -10.891363 62.518715 -200 45 -26.445618 -111.2559 -15.560416 133.04855
14330000000 -10.864653 58.182224 -200 45 -26.460384 -177.72444 -15.96744 123.23609
14340000000 -10.904596 54.902069 -200 45 -26.442551 115.46948 -19.180822 123.41978
14350000000 -10.994778 51.305412 -200 45 -26.543196 48.784893 -19.057436 156.32207
14360000000 -11.3341 47.326496 -200 45 -26.735371 -17.502459 -15.300188 157.02538
14370000000 -11.955381 44.937939 -200 45 -26.932928 -82.198204 -14.058948 146.56668
14380000000 -12.662435 44.657825 -200 45 -26.825247 -146.55823 -13.537723 139.64879
14390000000 -13.348416 47.577076 -200 45 -26.575718 147.99791 -13.062044 127.66946
14400000000 -13.433537 53.548584 -200 45 -26.43462 80.926872 -14.42003 112.65189
14410000000 -12.684126 56.975658 -200 45 -26.405205 13.409822 -17.52824 113.89419
14420000000 -12.019268 55.944195 -200 45 -26.557444 -52.863152 -17.479731 128.9753
14430000000 -11.559596 53.657692 -200 45 -26.591209 -118.08445 -16.716063 126.31042
14440000000 -11.227047 50.507191 -200 45 -26.553503 176.03676 -17.29151 124.07144
14450000000 -11.079386 46.615067 -200 45 -26.430847 109.83981 -17.706442 122.47718
14460000000 -11.071869 43.147118 -200 45 -26.288652 43.492401 -19.677675 120.71865
14470000000 -11.181052 38.909294 -200 45 -26.304235 -24.102869 -21.161407 148.14278
14480000000 -11.63762 34.868633 -200 45 -26.488199 -91.297234 -17.003223 159.4706
14490000000 -12.400007 33.228977 -200 45 -26.712418 -156.32518 -14.590508 148.00575
14500000000 -13.040094 34.981487 -200 45 -26.713449 139.21211 -13.898787 134.78273
14510000000 -13.313853 38.677208 -200 45 -26.548468 73.341148 -13.93967 121.99923
14520000000 -13.086042 42.1059 -200 45 -26.341494 7.3425064 -15.032707 108.22063
14530000000 -12.563462 43.945587 -200 45 -26.256058 -59.519238 -17.923798 100.11369
14540000000 -11.92524 43.243412 -200 45 -26.203991 -126.31764 -20.760708 118.33389
14550000000 -11.377844 40.354191 -200 45 -26.199465 166.10378 -18.500832 129.86597
14560000000 -11.075715 36.10508 -200 45 -26.345478 99.338776 -17.678459 118.23868
14570000000 -11.015371 31.459459 -200 45 -26.495411 33.630329 -19.63818 108.86207
14580000000 -11.137682 26.685631 -200 45 -26.561548 -32.293797 -22.345579 119.20354
14590000000 -11.603156 22.418825 -200 45 -26.514591 -98.022713 -22.59165 141.33273
14600000000 -12.233973 19.650537 -200 45 -26.527723 -163.68629 -19.603016 159.25261
14610000000 -13.036536 18.414148 -200 45 -26.475969 130.33804 -15.720502 152.29675
14620000000 -14.022891 20.632463 -200 45 -26.406019 63.416454 -13.92997 131.71231
14630000000 -14.437857 28.223419 -200 45 -26.426435 -2.3950365 -14.359671 108.82652
14640000000 -13.801297 34.619602 -200 45 -26.394539 -68.619698 -16.91902 91.160538
14650000000 -12.747374 35.863735 -200 45 -26.364962 -135.67096 -20.983091 91.425743
14660000000 -11.87216 32.727833 -200 45 -26.452314 158.00708 -22.310474 112.55508
14670000000 -11.384268 27.509052 -200 45 -26.48526 91.666916 -20.838717 119.03873
14680000000 -11.273311 21.550234 -200 45 -26.613079 25.732239 -19.910652 113.56065
14690000000 -11.549553 15.94473 -200 45 -26.687984 -40.38102 -20.342678 98.636139
14700000000 -12.013334 11.679448 -200 45 -26.659758 -105.51587 -25.590309 80.372719
14710000000 -12.73383 7.563417 -200 45 -26.699078 -170.94678 -29.150867 -176.06299
14720000000 -13.867239 5.779985 -200 45 -26.55764 123.31139 -19.054239 170.50319
14730000000 -15.056188 9.8001575 -200 45 -26.386024 56.861729 -16.131662 144.56232
14740000000 -15.483526 17.962612 -200 45 -26.321957 -9.726861 -15.483644 121.60107
14750000000 -14.93195 25.727867 -200 45 -26.341578 -77.003899 -16.124067 98.570435
14760000000 -13.805364 28.409149 -200 45 -26.474924 -144.06142 -18.851807 76.80172
14770000000 -12.736195 26.204775 -200 45 -26.582661 150.74442 -25.013844 72.747704
14780000000 -11.995355 20.439363 -200 45 -26.599968 85.105583 -26.211319 121.28915
14790000000 -11.843766 13.393287 -200 45 -26.586185 19.10685 -21.688711 119.26067
14800000000 -12.102175 7.0170975 -200 45 -26.527796 -46.524784 -21.039665 94.516685
14810000000 -12.704816 1.1984078 -200 45 -26.393452 -112.63515 -24.691948 65.387154
14820000000 -13.690036 -2.8165331 -200 45 -26.392092 -179.67085 -43.382168 28.468496
14830000000 -14.936152 -3.592634 -200 45 -26.455336 113.83199 -26.112242 -164.3105
14840000000 -16.308729 0.53529918 -200 45 -26.472439 47.833969 -19.775934 169.28767
14850000000 -17.005167 11.657604 -200 45 -26.469727 -17.815046 -16.811991 139.95029
14860000000 -16.070934 22.609165 -200 45 -26.405418 -84.262726 -16.29277 107.16605
14870000000 -14.396366 25.309834 -200 45 -26.360765 -150.79951 -18.492373 75.38324
14880000000 -13.001748 20.13567 -200 45 -26.405252 142.50072 -23.905409 58.092442
14890000000 -12.501668 11.94203 -200 45 -26.521774 76.530388 -28.275944 74.943947
14900000000 -12.623091 5.194489 -200 45 -26.528732 10.520205 -30.008228 87.672363
14910000000 -12.937697 0.33441842 -200 45 -26.498486 -54.990711 -28.505667 109.35779
14920000000 -13.228569 -4.2779646 -200 45 -26.416941 -120.91559 -25.283644 85.019035
14930000000 -13.839983 -10.506452 -200 45 -26.320732 172.54544 -27.064152 21.637474
14940000000 -15.185211 -14.891692 -200 45 -26.269844 105.57508 -26.854343 -92.813522
14950000000 -17.075445 -12.662951 -200 45 -26.379833 38.903481 -22.06209 -166.09065
14960000000 -18.260744 1.4028528 -200 45 -26.381693 -27.042587 -21.131315 151.97772
14970000000 -16.860165 14.542598 -200 45 -26.376842 -93.558395 -21.299862 131.31886
14980000000 -14.984537 13.708761 -200 45 -26.380123 -159.97546 -20.333456 108.65653
14990000000 -14.016006 6.4144073 -200 45 -26.407682 133.38841 -20.889469 71.081841
15000000000 -13.966245 -1.229436 -200 45 -26.537451 66.871101 -25.151134 26.130281
15010000000 -14.33804 -5.5635991 -200 45 -26.590073 1.2136338 -38.056591 -17.361324
15020000000 -14.475672 -8.1720009 -200 45 -26.625715 -64.340805 -35.465641 85.625374
15030000000 -14.53657 -13.417035 -200 45 -26.556072 -130.35509 -32.027843 15.964514
15040000000 -15.200846 -19.939106 -200 45 -26.484459 163.30147 -31.209658 -58.144112
15050000000 -16.526327 -24.068748 -200 45 -26.467657 96.608772 -30.525358 -97.268333
15060000000 -18.227528 -21.862873 -200 45 -26.511799 30.418596 -26.619646 -111.33607
15070000000 -19.256313 -10.674094 -200 45 -26.584553 -35.968231 -22.469391 -144.22337
15080000000 -18.184353 0.48462343 -200 45 -26.547131 -101.64848 -21.365971 175.15781
15090000000 -16.720238 -1.3102336 -200 45 -26.480419 -167.74094 -23.004227 137.45131
15100000000 -16.303228 -6.7160316 -200 45 -26.46277 125.89032 -26.025517 107.3987
15110000000 -16.308229 -10.018838 -200 45 -26.35446 59.122917 -28.33564 73.19381
15120000000 -16.219606 -12.223767 -200 45 -26.303627 -7.7485518 -29.469053 12.986604
15130000000 -15.925639 -15.962204 -200 45 -26.403835 -74.998863 -28.986757 -52.163429
15140000000 -15.873049 -22.707706 -200 45 -26.526955 -141.99915 -29.562027 -89.856728
15150000000 -16.43392 -30.024132 -200 45 -26.790857 151.92435 -29.9641 -90.603165
15160000000 -17.686693 -36.068336 -200 45 -26.852755 86.936096 -26.618311 -87.544235
15170000000 -19.346418 -34.220219 -200 45 -26.848721 21.523218 -23.483568 -101.16734
15180000000 -19.985846 -26.243914 -200 45 -26.779409 -44.493713 -21.635361 -119.14651
15190000000 -19.478754 -21.959696 -200 45 -26.73938 -110.67526 -20.6966 -138.70651
15200000000 -19.118425 -23.231714 -200 45 -26.72472 -177.22664 -20.614178 -162.30621
15210000000 -19.375986 -23.781961 -200 45 -26.734657 116.33179 -22.127909 168.25134
15220000000 -19.087427 -21.425438 -200 45 -26.794943 49.883842 -27.037888 125.53368
15230000000 -18.408575 -22.139006 -200 45 -26.861053 -16.596127 -34.628307 9.3921576
15240000000 -17.62804 -27.147112 -200 45 -26.99975 -82.628471 -27.680828 -68.679451
15250000000 -17.284689 -35.766819 -200 45 -27.032351 -148.00603 -25.486794 -90.62326
15260000000 -17.682076 -47.037045 -200 45 -27.014767 145.84584 -23.984203 -96.801506
15270000000 -19.102051 -55.748459 -200 45 -27.03628 80.040115 -22.574173 -104.82993
15280000000 -20.772642 -57.248497 -200 45 -26.987373 13.769699 -22.205498 -108.75832
15290000000 -21.872988 -56.238441 -200 45 -27.072823 -52.715549 -20.591209 -107.216
15300000000 -23.043758 -55.563187 -200 45 -27.13656 -118.13491 -18.263783 -119.02008
15310000000 -24.732359 -51.145 -200 45 -27.151363 176.2627 -17.637392 -139.88943
15320000000 -25.605669 -33.31255 -200 45 -27.041904 110.88602 -19.149399 -161.20761
15330000000 -23.347818 -19.218042 -200 45 -26.822199 44.440811 -23.245459 -172.14891
15340000000 -20.63586 -23.072882 -200 45 -26.764509 -23.117905 -27.803135 -149.01495
15350000000 -19.147045 -35.253864 -200 45 -26.893847 -91.088356 -26.446104 -118.2744
15360000000 -18.695322 -50.603237 -200 45 -27.206539 -157.86551 -23.784679 -106.80348
