!Keysight Technologies,P9374A,MY57211810,A.19.30.04
!Date: Friday, May 02, 2025 08:58:56
!Correction: S11(Off) 
!S21(Off) 
!S12(Off) 
!S22(Off) 
!S2P File: Measurements: S11, S21, S12, S22:
# Hz S  dB   R 50
13000000000 -11.468934 114.10996 -200 45 -36.9286 -44.3988 -12.993536 -175.51903
13010000000 -12.336893 104.80608 -200 45 -36.391075 -108.76437 -18.569998 -175.41792
13020000000 -13.964903 100.83233 -200 45 -35.970306 -176.9334 -19.503086 -118.44518
13030000000 -15.926896 107.2565 -200 45 -35.966724 111.8876 -13.500749 -113.85488
13040000000 -15.721169 118.41716 -200 45 -36.567955 45.047794 -11.000317 -130.19264
13050000000 -15.105659 121.77012 -200 45 -36.835819 -19.567551 -10.842628 -147.34521
13060000000 -14.724548 123.25639 -200 45 -36.415932 -83.564346 -12.248545 -160.6458
13070000000 -14.107113 126.97333 -200 45 -36.405357 -153.39085 -15.332394 -159.8587
13080000000 -13.148682 126.07581 -200 45 -36.332325 140.25798 -15.709122 -136.26518
13090000000 -12.290188 122.26475 -200 45 -36.602463 70.743896 -12.665237 -131.95747
13100000000 -11.853082 116.44022 -200 45 -37.148071 4.6586142 -10.967482 -144.49742
13110000000 -11.765002 109.19855 -200 45 -37.446404 -56.1096 -11.150116 -161.53568
13120000000 -12.11148 102.60098 -200 45 -36.71645 -122.86127 -13.382153 -176.10445
13130000000 -13.22622 96.430679 -200 45 -36.751457 169.50557 -18.792435 -173.39839
13140000000 -14.71142 97.405136 -200 45 -36.800186 102.15691 -18.378288 -119.37321
13150000000 -15.496273 104.03148 -200 45 -36.751312 35.499237 -12.973022 -118.33138
13160000000 -15.395689 109.02595 -200 45 -37.134327 -32.050064 -10.5856 -134.14995
13170000000 -15.435473 113.2953 -200 45 -37.284527 -96.9711 -10.320107 -152.33344
13180000000 -15.177703 118.97082 -200 45 -37.323029 -159.5952 -11.887921 -165.95132
13190000000 -13.891113 123.69059 -200 45 -36.736885 131.71623 -14.839714 -165.44629
13200000000 -12.545605 121.11562 -200 45 -37.040298 64.445595 -15.315993 -143.64467
13210000000 -11.743128 113.25803 -200 45 -37.146088 -1.5966921 -12.453091 -139.08427
13220000000 -11.763588 105.39611 -200 45 -37.202702 -67.059189 -10.77141 -152.03642
13230000000 -12.357314 99.207001 -200 45 -37.469158 -132.0018 -11.001191 -169.80441
13240000000 -13.116905 96.200279 -200 45 -36.990337 163.99892 -13.597788 174.57111
13250000000 -14.179631 95.293617 -200 45 -36.56749 97.010536 -19.329754 -178.65895
13260000000 -15.093752 97.809349 -200 45 -36.539547 26.506052 -18.150578 -125.44938
13270000000 -15.824205 104.58244 -200 45 -37.025013 -39.104214 -12.833161 -126.34586
13280000000 -16.013531 113.58473 -200 45 -37.184269 -104.44437 -10.625611 -143.32729
13290000000 -14.909655 123.63578 -200 45 -36.750458 -168.97171 -10.615511 -160.9335
13300000000 -13.328012 124.88937 -200 45 -36.596134 124.34481 -12.315216 -172.04247
13310000000 -12.009075 120.56374 -200 45 -36.402794 55.049488 -14.515551 -168.31192
13320000000 -11.527063 113.97952 -200 45 -36.828136 -11.926843 -14.2409 -152.94553
13330000000 -11.417806 106.98959 -200 45 -37.100697 -79.051498 -11.839383 -153.88925
13340000000 -11.860009 101.42228 -200 45 -37.111931 -140.55443 -10.769317 -168.16833
13350000000 -12.665426 97.903244 -200 45 -36.767368 152.17221 -11.707084 175.5092
13360000000 -13.4462 98.091805 -200 45 -36.531078 86.060707 -14.660877 165.41345
13370000000 -14.411143 99.663155 -200 45 -36.432556 17.0422 -19.245279 -175.66643
13380000000 -15.110603 104.84453 -200 45 -36.754025 -50.755577 -16.17782 -140.44327
13390000000 -15.305379 115.7346 -200 45 -36.900372 -113.49985 -12.270996 -146.90202
13400000000 -14.126284 122.89303 -200 45 -36.557125 178.24197 -10.870247 -162.21078
13410000000 -12.430703 123.31289 -200 45 -36.780724 111.67125 -11.395636 -176.88747
13420000000 -11.632822 116.60257 -200 45 -36.810043 45.251732 -12.976858 177.3333
13430000000 -11.36996 110.4208 -200 45 -36.575443 -20.941086 -14.535236 -175.54628
13440000000 -11.665976 105.62952 -200 45 -36.92281 -90.517998 -13.351112 -164.99025
13450000000 -11.923285 101.6907 -200 45 -37.092518 -154.06862 -11.406702 -170.76234
13460000000 -12.429967 98.580688 -200 45 -37.045883 141.13133 -10.970238 176.13538
13470000000 -13.384228 95.747406 -200 45 -36.898369 74.307961 -12.030152 162.02206
13480000000 -14.479092 98.174767 -200 45 -36.882477 8.6145477 -14.847509 155.96165
13490000000 -15.219163 105.50071 -200 45 -36.623142 -60.030125 -18.471664 173.03105
13500000000 -15.077418 112.37529 -200 45 -37.213211 -126.97211 -16.058819 -158.75166
13510000000 -14.190406 119.34897 -200 45 -37.19017 169.06436 -12.837464 -161.47351
13520000000 -13.106482 119.56628 -200 45 -37.01844 104.57987 -11.631391 -173.26527
13530000000 -12.110872 115.6976 -200 45 -36.899353 35.856274 -11.719854 175.66443
13540000000 -12.011247 109.6587 -200 45 -37.003971 -29.859377 -12.876461 169.74513
13550000000 -12.337267 105.83905 -200 45 -37.073269 -95.58535 -14.012927 172.98602
13560000000 -12.583517 105.91219 -200 45 -37.114635 -162.12119 -13.459886 -179.84456
13570000000 -12.528476 103.023 -200 45 -37.127758 133.88469 -12.327953 177.45311
13580000000 -12.855314 100.30412 -200 45 -36.601929 67.20359 -11.909206 168.66444
13590000000 -14.0504 98.895355 -200 45 -36.861053 -2.5642557 -12.66057 158.83598
13600000000 -14.720667 105.67618 -200 45 -37.22406 -67.248024 -14.721519 154.01582
13610000000 -14.4506 115.07442 -200 45 -36.966393 -129.73607 -17.199894 165.27646
13620000000 -13.310671 116.0736 -200 45 -36.392048 161.19336 -16.084221 -172.51743
13630000000 -12.691397 115.32584 -200 45 -36.720772 93.78521 -13.523662 -171.5455
13640000000 -12.449381 112.82124 -200 45 -36.906109 27.896807 -12.10624 -179.23192
13650000000 -12.00526 112.08002 -200 45 -36.740768 -38.031677 -11.768032 170.90855
13660000000 -11.870727 110.04807 -200 45 -36.971859 -103.64767 -12.493488 163.05672
13670000000 -11.612723 106.5243 -200 45 -36.723705 -169.09526 -13.44494 163.76965
13680000000 -11.741288 103.98367 -200 45 -36.657608 123.67513 -13.415881 167.33098
13690000000 -11.977102 100.11807 -200 45 -36.527882 57.216343 -12.651996 166.86482
13700000000 -12.62298 98.717026 -200 45 -36.811913 -10.54783 -12.196863 160.00414
13710000000 -13.490012 100.63702 -200 45 -36.750542 -72.952011 -12.767229 150.86322
13720000000 -13.452722 106.53741 -200 45 -36.276142 -141.44896 -14.616317 146.31458
13730000000 -12.918163 109.8945 -200 45 -36.511765 149.93266 -16.775293 156.21109
13740000000 -12.429278 108.05416 -200 45 -36.677704 85.899979 -16.054548 176.12503
13750000000 -12.419621 107.27108 -200 45 -36.235863 19.719439 -13.505098 178.55772
13760000000 -12.246857 109.68089 -200 45 -36.323475 -50.003265 -12.151505 170.65289
13770000000 -11.386626 108.27773 -200 45 -36.580353 -117.00666 -11.87155 161.94797
13780000000 -10.947906 103.55583 -200 45 -36.77853 179.67311 -12.420153 154.70767
13790000000 -10.968889 96.874153 -200 45 -36.478146 111.90052 -13.282033 154.9744
13800000000 -11.578596 93.25518 -200 45 -36.712616 45.599358 -13.114884 157.18045
13810000000 -12.278412 91.705742 -200 45 -36.608353 -19.213608 -12.639422 154.87402
13820000000 -12.690693 92.59935 -200 45 -36.533787 -87.808563 -12.559477 148.39688
13830000000 -13.202355 94.507568 -200 45 -36.799351 -153.40883 -13.569208 140.66489
13840000000 -13.174644 96.746178 -200 45 -36.53986 141.91422 -15.569275 140.58583
13850000000 -13.275673 99.900261 -200 45 -36.534664 72.990295 -17.117579 154.83615
13860000000 -12.938295 102.49877 -200 45 -36.800419 6.7936497 -15.7051 169.2124
13870000000 -12.054254 104.65932 -200 45 -36.629677 -58.354317 -13.833399 169.49068
13880000000 -11.264965 101.67903 -200 45 -36.807663 -127.15549 -12.881467 163.65254
13890000000 -10.717873 95.79351 -200 45 -37.070683 167.76968 -12.726867 156.81883
13900000000 -10.896213 89.372757 -200 45 -37.162052 102.26682 -13.232631 153.90642
13910000000 -11.312096 84.855583 -200 45 -37.160461 37.518208 -13.248372 154.17061
13920000000 -12.013663 82.834679 -200 45 -36.940159 -28.408022 -12.985322 152.17361
13930000000 -12.66874 82.596291 -200 45 -36.817894 -94.153969 -12.959308 147.70976
13940000000 -13.074265 85.015129 -200 45 -36.747784 -163.42476 -13.408651 141.98521
13950000000 -13.607369 86.926224 -200 45 -37.135071 130.72966 -14.582368 138.50061
13960000000 -13.750031 93.149086 -200 45 -37.109455 66.424385 -16.214615 142.15823
13970000000 -13.044479 99.893547 -200 45 -36.876328 -0.92574579 -16.462671 153.60867
13980000000 -11.620823 100.37048 -200 45 -37.024349 -68.548019 -15.681771 159.94843
13990000000 -10.687196 94.946846 -200 45 -37.34882 -134.08775 -14.807027 161.91379
14000000000 -10.515569 87.918495 -200 45 -37.340401 161.84729 -13.858419 160.57257
14010000000 -10.714767 83.524345 -200 45 -37.268902 94.751595 -13.449018 157.00754
14020000000 -10.953038 79.866356 -200 45 -37.328392 29.929026 -13.061417 154.16284
14030000000 -11.471133 75.972534 -200 45 -37.141396 -34.928074 -12.663081 148.90067
14040000000 -12.277036 74.685349 -200 45 -36.960709 -103.32188 -12.991249 142.34763
14050000000 -13.088025 77.078491 -200 45 -37.167221 -169.20111 -13.599431 138.34973
14060000000 -13.452467 81.691299 -200 45 -37.306503 125.10261 -14.47558 136.73314
14070000000 -13.572234 88.121529 -200 45 -37.031864 60.777443 -15.290244 138.58684
14080000000 -12.6295 94.63131 -200 45 -36.802017 -6.2622409 -15.495512 142.24864
14090000000 -11.093004 94.307182 -200 45 -36.796673 -74.918816 -15.618434 143.60896
14100000000 -10.222569 87.264755 -200 45 -36.988583 -141.75055 -16.164112 146.7235
14110000000 -10.05364 80.380333 -200 45 -37.366161 152.75375 -15.67912 154.34
14120000000 -10.378007 74.756355 -200 45 -37.097984 89.177284 -14.739468 157.9798
14130000000 -10.758542 71.055748 -200 45 -37.005981 22.573618 -13.232793 155.95384
14140000000 -11.199425 68.853874 -200 45 -36.662243 -44.581589 -12.30899 147.82268
14150000000 -11.790259 65.799606 -200 45 -37.00898 -111.18714 -12.35936 137.19963
14160000000 -12.791348 66.184387 -200 45 -37.020351 -177.66016 -13.342536 129.59988
14170000000 -13.594476 72.169991 -200 45 -36.987015 118.35838 -14.713043 127.65262
14180000000 -13.182869 80.564796 -200 45 -36.606438 50.860714 -15.841846 132.47292
14190000000 -11.982205 83.710945 -200 45 -36.598282 -17.410149 -15.530396 137.75142
14200000000 -10.940612 80.319176 -200 45 -37.169777 -84.476944 -15.315495 136.06401
14210000000 -10.386696 75.571259 -200 45 -36.872135 -148.27937 -15.99299 132.91835
14220000000 -10.122613 69.095932 -200 45 -37.194195 144.47951 -17.257858 138.18304
14230000000 -10.450998 63.272797 -200 45 -36.967957 80.462219 -17.213223 152.30054
14240000000 -10.947397 60.3405 -200 45 -36.804543 13.958938 -15.03196 158.85933
14250000000 -11.249151 58.715366 -200 45 -36.673023 -55.244709 -13.143453 152.52257
14260000000 -11.580267 55.229897 -200 45 -37.107822 -120.61982 -12.395763 141.49161
14270000000 -12.646886 53.194736 -200 45 -37.158207 173.94702 -12.690987 128.9713
14280000000 -13.670466 59.491146 -200 45 -36.938248 109.00755 -14.274995 121.66663
14290000000 -13.171906 68.253632 -200 45 -37.178581 40.733486 -15.803808 122.64163
14300000000 -12.075454 69.251534 -200 45 -36.766846 -22.567719 -16.65506 131.2301
14310000000 -11.31344 66.769455 -200 45 -36.897503 -92.179962 -15.720658 134.07622
14320000000 -10.942494 62.175102 -200 45 -37.150013 -156.05046 -15.649112 129.06366
14330000000 -10.927032 58.191853 -200 45 -36.930687 138.14864 -16.630669 123.8494
14340000000 -10.981657 55.224674 -200 45 -36.769066 69.935341 -18.790583 129.94043
14350000000 -10.966757 51.529968 -200 45 -37.091557 3.2257965 -18.647257 149.30147
14360000000 -11.328379 47.705914 -200 45 -37.393372 -61.133327 -16.087309 157.57907
14370000000 -11.944854 44.676208 -200 45 -36.860554 -125.72629 -13.832436 150.59767
14380000000 -12.687005 44.902622 -200 45 -36.97049 166.69725 -12.976254 137.40916
14390000000 -13.397285 47.40519 -200 45 -36.862343 100.96107 -13.452135 124.35112
14400000000 -13.467639 54.336483 -200 45 -36.947224 34.467751 -14.850494 116.47755
14410000000 -12.601412 58.11517 -200 45 -36.921124 -31.346167 -16.745201 114.46532
14420000000 -11.75636 55.375755 -200 45 -36.840103 -97.262138 -17.898592 125.36325
14430000000 -11.621322 51.783283 -200 45 -36.671936 -163.24091 -16.972614 129.28993
14440000000 -11.523153 50.740284 -200 45 -36.468311 129.14757 -16.815998 124.3504
14450000000 -11.09173 48.573833 -200 45 -36.576279 61.598759 -17.878685 118.91714
14460000000 -10.821625 43.822437 -200 45 -36.813961 -5.6216049 -20.116899 124.93822
14470000000 -11.014833 37.855309 -200 45 -37.042622 -68.812431 -20.424723 145.94185
14480000000 -11.693728 33.711594 -200 45 -36.571838 -133.70103 -17.354233 158.59457
14490000000 -12.528769 33.232582 -200 45 -36.204098 158.13536 -14.627024 149.74577
14500000000 -13.122749 35.964119 -200 45 -36.37574 88.068832 -13.629625 134.78624
14510000000 -13.103003 39.219894 -200 45 -36.730171 22.673182 -13.929543 120.08645
14520000000 -13.017389 41.342472 -200 45 -37.06329 -42.023178 -15.345129 107.41088
14530000000 -12.511567 42.720634 -200 45 -36.661728 -106.18685 -18.122766 103.1098
14540000000 -12.099974 42.067524 -200 45 -36.389935 -173.70235 -19.990704 117.99011
14550000000 -11.688366 40.843357 -200 45 -36.373108 118.37341 -18.826111 125.67849
14560000000 -11.112406 38.734692 -200 45 -36.622074 50.71265 -18.221189 121.46342
14570000000 -10.610751 32.742935 -200 45 -36.739243 -15.029239 -18.913343 112.29494
14580000000 -10.880038 24.57007 -200 45 -36.655106 -80.166916 -22.132959 110.97231
14590000000 -11.739837 19.940033 -200 45 -36.771187 -147.58818 -23.706398 148.12527
14600000000 -12.663113 19.692108 -200 45 -36.688145 147.09062 -18.747332 161.17598
14610000000 -13.197295 20.938852 -200 45 -36.695751 79.878433 -15.514021 148.86966
14620000000 -13.755818 23.42436 -200 45 -36.80397 13.537753 -14.275912 130.073
14630000000 -13.918969 26.774494 -200 45 -36.788063 -52.100597 -14.614998 110.46203
14640000000 -13.816678 31.382738 -200 45 -36.699127 -119.0834 -16.60796 93.275948
14650000000 -13.083591 35.169147 -200 45 -36.856552 174.10143 -20.743126 87.37841
14660000000 -12.1068 33.860672 -200 45 -36.919224 107.27253 -22.901863 113.44011
14670000000 -11.367704 29.322166 -200 45 -37.145546 41.758659 -20.61931 123.53667
14680000000 -11.017284 22.231153 -200 45 -37.160633 -23.444534 -19.344294 111.61947
14690000000 -11.25752 14.700937 -200 45 -37.149437 -88.716072 -20.748495 94.244987
14700000000 -12.143069 8.3557959 -200 45 -36.885578 -156.16385 -26.978376 84.815544
14710000000 -13.333734 7.8151436 -200 45 -37.121922 137.18698 -28.18708 175.29095
14720000000 -13.907953 9.5490704 -200 45 -37.111504 70.157227 -19.414713 168.76396
14730000000 -14.504193 10.957869 -200 45 -37.526356 4.6649213 -16.196085 146.45053
14740000000 -15.313218 14.890193 -200 45 -37.62664 -58.770786 -15.210988 121.00952
14750000000 -15.28253 24.273483 -200 45 -36.97683 -123.58347 -16.141727 97.725052
14760000000 -14.097013 29.869879 -200 45 -36.92786 166.28078 -19.044243 75.82357
14770000000 -12.677888 27.930876 -200 45 -37.423664 99.17437 -25.34944 75.533058
14780000000 -11.832287 20.84692 -200 45 -37.48698 36.350143 -25.77873 120.51813
14790000000 -11.688476 13.039134 -200 45 -37.305412 -30.529829 -21.886599 117.39041
14800000000 -12.031596 5.4309063 -200 45 -37.519402 -96.641144 -21.287941 95.884361
14810000000 -12.969386 -0.2218648 -200 45 -37.368626 -161.3174 -24.353212 68.217949
14820000000 -14.142805 -1.6006942 -200 45 -37.106236 131.04321 -38.447838 18.161276
14830000000 -14.910434 0.90977907 -200 45 -37.548111 62.948368 -25.041199 -158.73849
14840000000 -15.560007 1.3158476 -200 45 -37.698483 1.1946355 -19.193781 165.7739
14850000000 -16.782726 7.3456063 -200 45 -37.27858 -65.061295 -17.051401 136.98798
14860000000 -16.511787 21.205433 -200 45 -37.259838 -133.58478 -16.763815 107.74699
14870000000 -14.669854 26.090508 -200 45 -37.762978 161.89436 -18.450104 79.998756
14880000000 -13.10358 22.191555 -200 45 -37.005104 97.735359 -22.470104 55.865307
14890000000 -12.301549 14.030461 -200 45 -37.179863 27.612444 -30.948015 60.219902
14900000000 -12.1196 5.0351052 -200 45 -37.508629 -37.88113 -29.09639 110.29401
14910000000 -12.776044 -3.3377485 -200 45 -37.61219 -101.05497 -26.268326 99.898109
14920000000 -13.726886 -7.0186019 -200 45 -37.166103 -168.8559 -26.02109 70.016647
14930000000 -14.459376 -8.3580894 -200 45 -37.571861 125.41404 -30.812109 11.727412
14940000000 -15.224472 -10.357275 -200 45 -37.286598 62.64785 -30.683434 -103.02481
14950000000 -16.37413 -9.6182413 -200 45 -36.586014 -6.5836854 -23.71632 -159.45081
14960000000 -17.599039 -3.2708921 -200 45 -37.249508 -76.318962 -20.775986 160.97221
14970000000 -17.396194 10.351435 -200 45 -37.381458 -138.79903 -19.914677 130.79036
14980000000 -15.497087 15.430214 -200 45 -37.137028 155.42128 -20.092686 98.453293
14990000000 -14.193298 9.4932842 -200 45 -37.166527 88.638855 -22.584209 66.756538
15000000000 -13.594377 2.2620239 -200 45 -36.971355 24.373753 -26.511204 39.442257
15010000000 -13.64881 -6.2984438 -200 45 -36.58606 -44.901924 -34.034748 20.825047
15020000000 -14.261229 -12.944556 -200 45 -37.179268 -112.902 -38.322109 29.363216
15030000000 -15.151972 -16.352413 -200 45 -37.289639 -176.56366 -40.554092 18.337507
15040000000 -15.803477 -17.190104 -200 45 -37.143307 118.21197 -33.67149 -27.384447
15050000000 -16.320337 -19.481524 -200 45 -37.187878 51.319527 -28.370234 -81.697243
15060000000 -17.549625 -22.1255 -200 45 -36.945568 -12.714368 -25.079277 -118.68701
15070000000 -19.019775 -14.571756 -200 45 -36.747009 -80.630905 -22.906389 -151.71638
15080000000 -18.717381 -2.4304123 -200 45 -36.680782 -147.9128 -22.371386 175.10338
15090000000 -17.220633 0.86054176 -200 45 -36.869572 145.82654 -22.998213 144.07509
15100000000 -16.218639 -2.7970264 -200 45 -36.743992 79.351082 -24.814829 107.18459
15110000000 -15.664311 -9.3000145 -200 45 -36.969948 13.897051 -28.043243 63.952518
15120000000 -15.886018 -16.111141 -200 45 -36.471043 -51.782787 -30.495981 3.948698
15130000000 -16.339378 -19.655865 -200 45 -36.607601 -122.2543 -30.396067 -50.959126
15140000000 -16.510632 -21.773438 -200 45 -37.076996 172.14613 -29.514473 -82.085312
15150000000 -16.689257 -26.603693 -200 45 -36.947906 109.15514 -28.801512 -91.063957
15160000000 -17.324095 -31.95907 -200 45 -36.813572 41.369946 -27.087595 -93.538185
15170000000 -18.480576 -34.695724 -200 45 -36.711605 -25.054392 -23.88719 -98.481255
15180000000 -19.88413 -32.935898 -200 45 -36.939594 -93.174774 -21.401665 -117.37348
15190000000 -20.352039 -23.345694 -200 45 -37.062794 -157.3013 -20.338362 -140.07976
15200000000 -19.527666 -18.721855 -200 45 -36.870411 137.60681 -20.676487 -165.10463
15210000000 -18.880243 -20.853991 -200 45 -36.475197 69.935432 -22.727764 166.22258
15220000000 -18.717424 -22.767885 -200 45 -36.863834 0.58330125 -28.042854 130.85139
15230000000 -18.237625 -24.592091 -200 45 -37.110538 -63.800579 -37.268787 24.68248
15240000000 -17.903833 -29.96748 -200 45 -36.979778 -128.81743 -28.094305 -59.449795
15250000000 -17.928606 -34.979187 -200 45 -36.707569 164.8121 -24.419033 -87.359619
15260000000 -17.731342 -42.503033 -200 45 -36.77446 95.928391 -23.544716 -102.74899
15270000000 -18.443666 -54.471298 -200 45 -36.979561 29.391121 -23.460087 -107.26478
15280000000 -20.461792 -61.643017 -200 45 -37.279579 -36.618263 -22.32688 -102.95124
15290000000 -22.45907 -59.422504 -200 45 -37.21846 -101.10549 -19.873808 -107.84468
15300000000 -23.878321 -53.610706 -200 45 -36.895725 -166.68655 -18.343822 -122.5677
15310000000 -24.998037 -44.32851 -200 45 -36.853561 124.29215 -18.01815 -139.89536
15320000000 -24.394112 -28.698561 -200 45 -37.172882 57.083706 -19.286959 -159.08083
15330000000 -22.616312 -25.447628 -200 45 -37.481571 -8.0730228 -22.669516 -170.18739
15340000000 -21.173534 -27.341955 -200 45 -37.194069 -72.398949 -28.187643 -158.68098
15350000000 -19.655117 -33.623459 -200 45 -37.257504 -141.30295 -26.944254 -108.86971
15360000000 -18.686333 -48.133129 -200 45 -37.40781 153.95413 -22.758343 -107.51625
