!Keysight Technologies,P9374A,MY57211810,A.19.30.04
!Date: Friday, May 02, 2025 09:01:52
!Correction: S11(Off) 
!S21(Off) 
!S12(Off) 
!S22(Off) 
!S2P File: Measurements: S11, S21, S12, S22:
# Hz S  dB   R 50
13000000000 -11.942786 112.51869 -200 45 -33.423038 -23.835098 -13.059908 -176.26729
13010000000 -12.682464 107.53742 -200 45 -32.800793 -88.840141 -18.64245 -173.89102
13020000000 -13.792689 104.18108 -200 45 -32.744171 -157.95248 -19.333248 -121.1289
13030000000 -15.121043 106.25366 -200 45 -32.693275 133.46152 -13.825346 -114.07093
13040000000 -15.879764 113.64349 -200 45 -33.173916 66.316422 -11.098738 -128.65569
13050000000 -15.671186 121.10438 -200 45 -33.540154 1.7493886 -10.591576 -146.84949
13060000000 -15.02196 127.05119 -200 45 -33.132469 -61.745579 -12.202179 -162.00154
13070000000 -13.770814 129.25063 -200 45 -32.721428 -130.35078 -15.561326 -159.40938
13080000000 -12.704923 125.37903 -200 45 -32.922504 160.6586 -15.448743 -135.83875
13090000000 -12.286635 120.07741 -200 45 -33.3615 94.805336 -12.712687 -133.52687
13100000000 -11.999853 115.36899 -200 45 -33.418159 28.686806 -11.206429 -143.96071
13110000000 -11.91496 109.18449 -200 45 -33.420116 -36.379864 -11.087578 -159.58235
13120000000 -12.365619 102.99019 -200 45 -33.441296 -101.07591 -13.085216 -176.51929
13130000000 -13.184827 99.196083 -200 45 -33.123379 -168.20406 -18.869604 -176.45673
13140000000 -14.209141 97.470642 -200 45 -33.153 124.53184 -18.491102 -117.5133
13150000000 -15.478677 100.49079 -200 45 -33.206757 58.042847 -12.83658 -118.56945
13160000000 -15.921626 108.70138 -200 45 -33.179981 -9.6917639 -10.657016 -134.89027
13170000000 -15.617687 115.91905 -200 45 -33.453678 -76.784988 -10.454688 -151.4594
13180000000 -14.763711 121.55292 -200 45 -33.671623 -140.12071 -11.748344 -164.65196
13190000000 -13.497966 121.84164 -200 45 -33.352726 154.56161 -14.563788 -167.18155
13200000000 -12.659094 118.08725 -200 45 -33.32489 86.265938 -15.69978 -144.01309
13210000000 -12.130346 113.00904 -200 45 -33.485649 19.026646 -12.389958 -137.90407
13220000000 -11.918557 107.05933 -200 45 -33.756126 -45.519318 -10.65889 -152.37971
13230000000 -12.243151 100.3078 -200 45 -33.610161 -109.58637 -11.073395 -170.08569
13240000000 -13.049019 96.57563 -200 45 -33.272858 -175.03256 -13.601512 175.7368
13250000000 -13.964046 95.092545 -200 45 -33.073647 116.84232 -19.022915 -178.96341
13260000000 -15.109158 96.509857 -200 45 -33.07003 49.546261 -18.423241 -126.30034
13270000000 -16.160946 104.12099 -200 45 -33.068378 -16.732504 -12.945971 -125.86741
13280000000 -15.98235 116.4314 -200 45 -33.096447 -84.991241 -10.636361 -142.80212
13290000000 -14.634369 123.23973 -200 45 -33.28616 -149.91104 -10.545622 -160.73705
13300000000 -13.194633 123.71407 -200 45 -33.291672 144.42708 -12.252769 -172.60721
13310000000 -12.170782 119.42539 -200 45 -32.96825 77.72123 -14.611993 -167.96855
13320000000 -11.668149 113.79443 -200 45 -33.026241 9.7034807 -14.067111 -153.35944
13330000000 -11.550266 108.30552 -200 45 -33.37188 -56.782463 -11.935414 -154.27509
13340000000 -11.763017 102.3969 -200 45 -33.349628 -120.46976 -10.866786 -167.2197
13350000000 -12.464524 97.988853 -200 45 -33.052616 173.62413 -11.556106 176.13472
13360000000 -13.479774 96.789055 -200 45 -32.923519 105.93231 -14.631911 164.17348
13370000000 -14.516754 98.946365 -200 45 -32.742828 38.731148 -19.385094 -175.4073
13380000000 -15.40257 106.75023 -200 45 -32.779442 -29.472578 -16.106401 -141.55441
13390000000 -14.982381 117.18848 -200 45 -32.922203 -97.708122 -12.387166 -147.11218
13400000000 -13.714084 121.47224 -200 45 -33.54921 -163.75073 -10.953331 -161.72299
13410000000 -12.692043 120.34117 -200 45 -33.367107 132.89427 -11.229942 -176.01978
13420000000 -11.947307 117.42138 -200 45 -33.248718 65.997238 -12.95097 176.38107
13430000000 -11.432655 112.34184 -200 45 -33.323586 -0.74076521 -14.628655 -175.53004
13440000000 -11.395149 106.09688 -200 45 -33.167114 -66.780807 -13.311579 -164.44623
13450000000 -11.806067 100.58067 -200 45 -33.177391 -133.71616 -11.420206 -170.71019
13460000000 -12.613335 97.209457 -200 45 -33.175854 158.94089 -11.004617 175.69769
13470000000 -13.586873 96.736511 -200 45 -33.347076 91.921379 -12.069706 162.83182
13480000000 -14.403791 99.883896 -200 45 -33.600277 25.744028 -14.674343 156.06969
13490000000 -14.988193 104.96722 -200 45 -33.607021 -40.505638 -18.274429 171.28714
13500000000 -14.99243 112.39355 -200 45 -33.780128 -106.20493 -16.326906 -158.35298
13510000000 -14.181 117.80238 -200 45 -33.932499 -169.91072 -12.79629 -160.61685
13520000000 -13.259257 118.6031 -200 45 -33.482231 124.42049 -11.521919 -173.52629
13530000000 -12.389188 116.84055 -200 45 -33.440231 56.795547 -11.826792 175.69194
13540000000 -11.887615 111.42071 -200 45 -33.555935 -10.852657 -12.897265 170.39154
13550000000 -12.057784 106.04408 -200 45 -33.631145 -77.363068 -13.898011 172.82697
13560000000 -12.458891 103.43362 -200 45 -33.710762 -143.603 -13.588954 179.12978
13570000000 -12.81745 102.1716 -200 45 -33.90591 149.84914 -12.390555 177.97963
13580000000 -13.249913 101.51212 -200 45 -34.331425 85.297653 -11.859494 169.06883
13590000000 -13.709291 102.25482 -200 45 -34.119637 22.190025 -12.606904 158.59369
13600000000 -14.273058 104.61313 -200 45 -33.617458 -43.011909 -14.699986 153.91966
13610000000 -14.467805 111.10685 -200 45 -33.433323 -110.95448 -17.081568 165.16847
13620000000 -13.751017 116.09183 -200 45 -33.447029 -179.28072 -16.231771 -173.21594
13630000000 -12.914628 116.71066 -200 45 -33.621338 114.39425 -13.487688 -170.68507
13640000000 -12.250176 115.43557 -200 45 -33.527405 48.049519 -12.068603 -179.6736
13650000000 -11.752913 111.98744 -200 45 -33.703304 -19.133043 -11.898775 170.77278
13660000000 -11.689706 107.96249 -200 45 -33.848656 -84.834908 -12.446942 164.51498
13670000000 -11.859472 105.58754 -200 45 -33.910942 -150.22615 -13.281832 162.446
13680000000 -11.910815 103.92648 -200 45 -33.875275 145.58691 -13.620931 166.8343
13690000000 -12.131434 101.55669 -200 45 -33.665756 79.666641 -12.649862 167.9417
13700000000 -12.506871 100.36248 -200 45 -33.40789 11.480809 -12.027096 159.80583
13710000000 -13.052335 100.71339 -200 45 -33.423927 -54.461948 -12.81916 150.05872
13720000000 -13.458618 103.71371 -200 45 -33.464188 -121.66982 -14.697759 147.0009
13730000000 -13.294767 108.45506 -200 45 -33.460602 171.40451 -16.596756 156.74925
13740000000 -12.73331 110.23834 -200 45 -33.50629 104.99431 -16.116846 174.60704
13750000000 -12.225358 109.99364 -200 45 -33.533428 38.407959 -13.682435 179.17484
13760000000 -11.7226 108.72063 -200 45 -33.62141 -28.562532 -12.074791 171.32344
13770000000 -11.431989 105.24554 -200 45 -33.680378 -94.654129 -11.817075 161.2973
13780000000 -11.330763 102.54347 -200 45 -33.887909 -159.0885 -12.512314 154.88535
13790000000 -11.236177 99.202995 -200 45 -33.592716 134.39227 -13.22973 155.30714
13800000000 -11.414831 94.822464 -200 45 -33.414127 67.109032 -13.086568 156.88722
13810000000 -11.953251 92.100243 -200 45 -33.50058 -0.16498883 -12.713911 154.65848
13820000000 -12.552691 90.951088 -200 45 -33.770378 -68.099762 -12.633475 148.87778
13830000000 -13.283381 92.2575 -200 45 -34.219864 -132.52225 -13.379503 140.99292
13840000000 -13.657475 97.481094 -200 45 -33.888355 164.75192 -15.556597 138.92511
13850000000 -13.26455 101.86578 -200 45 -33.481522 97.33683 -17.252184 155.7579
13860000000 -12.597029 104.06609 -200 45 -33.386219 28.216993 -15.515789 169.21841
13870000000 -11.833626 103.0544 -200 45 -33.723087 -39.419037 -13.969726 168.49113
13880000000 -11.304174 99.232857 -200 45 -34.087009 -105.94569 -13.010567 164.43311
13890000000 -11.158823 95.456444 -200 45 -34.441906 -170.5126 -12.621367 157.89503
13900000000 -11.025759 91.525177 -200 45 -34.646233 126.42428 -13.092549 152.51503
13910000000 -11.166636 86.789551 -200 45 -34.213303 63.559875 -13.536436 153.827
13920000000 -11.653562 82.717857 -200 45 -33.76469 -4.1389661 -12.976904 153.68304
13930000000 -12.45742 80.363548 -200 45 -33.655426 -72.960052 -12.726029 146.9035
13940000000 -13.512037 82.437706 -200 45 -33.834492 -140.63802 -13.524558 140.76112
13950000000 -13.996266 89.243622 -200 45 -34.135677 153.02603 -14.702463 140.09912
13960000000 -13.549429 96.127319 -200 45 -34.462124 88.242386 -15.788664 142.75233
13970000000 -12.585914 99.258255 -200 45 -34.220711 23.638988 -16.664776 151.48589
13980000000 -11.599629 97.894463 -200 45 -34.103333 -43.031994 -15.975588 161.62675
13990000000 -10.978126 93.947998 -200 45 -34.255516 -110.61863 -14.587971 162.7924
14000000000 -10.726198 89.555122 -200 45 -34.466072 -174.88667 -13.900275 158.97639
14010000000 -10.579385 85.00544 -200 45 -34.44334 119.92251 -13.636392 156.92113
14020000000 -10.737888 79.446777 -200 45 -34.083435 54.584663 -13.006202 155.14711
14030000000 -11.399003 75.032791 -200 45 -34.004936 -13.573216 -12.542325 148.41954
14040000000 -12.310349 73.747025 -200 45 -34.237789 -80.687347 -13.02357 141.64845
14050000000 -13.258801 76.250832 -200 45 -34.404766 -145.28989 -13.715539 139.45801
14060000000 -13.765775 82.903503 -200 45 -34.238708 150.46455 -14.274257 137.26985
14070000000 -13.365327 90.246101 -200 45 -34.000484 82.68293 -15.274662 137.1743
14080000000 -12.292861 94.157394 -200 45 -34.025692 14.528565 -15.752267 142.76544
14090000000 -11.107587 92.148666 -200 45 -34.20351 -50.580135 -15.541224 144.39415
14100000000 -10.44937 86.938408 -200 45 -34.189068 -115.8615 -16.023272 145.44284
14110000000 -10.210736 81.47699 -200 45 -34.012463 177.79471 -16.045382 154.16069
14120000000 -10.234938 75.761536 -200 45 -34.018822 111.51936 -14.556694 158.71101
14130000000 -10.627145 70.833977 -200 45 -33.965759 45.17503 -13.179599 155.14835
14140000000 -11.165788 67.65255 -200 45 -34.099316 -21.781311 -12.437795 147.57333
14150000000 -11.903279 65.473793 -200 45 -34.21608 -86.122208 -12.362161 138.52594
14160000000 -12.924611 66.524231 -200 45 -33.897301 -151.3996 -13.16066 129.66624
14170000000 -13.505684 73.064522 -200 45 -33.781986 140.62367 -14.833683 126.41283
14180000000 -13.09947 80.546661 -200 45 -34.055149 73.420868 -15.957436 133.55067
14190000000 -11.943932 83.046875 -200 45 -34.125767 7.8741212 -15.392069 138.18335
14200000000 -10.945124 80.014671 -200 45 -34.14526 -57.8577 -15.2731 134.42618
14210000000 -10.473104 74.763573 -200 45 -34.409283 -122.89825 -16.240644 133.27274
14220000000 -10.311852 69.791702 -200 45 -34.158508 172.11418 -17.087622 139.71884
14230000000 -10.394007 64.698837 -200 45 -33.927906 105.53536 -17.019913 150.00183
14240000000 -10.693386 60.336102 -200 45 -33.892033 37.256439 -15.405126 159.02168
14250000000 -11.187079 56.782223 -200 45 -34.098152 -30.931513 -13.094823 154.53046
14260000000 -11.932486 54.349651 -200 45 -34.312656 -96.226746 -12.147909 140.79874
14270000000 -12.802566 55.71265 -200 45 -34.446804 -161.07158 -12.890533 127.91506
14280000000 -13.30401 60.362377 -200 45 -34.398224 133.06758 -14.391595 122.90666
14290000000 -13.098475 66.177437 -200 45 -34.38097 66.915695 -15.627861 123.88808
14300000000 -12.241875 68.907829 -200 45 -34.13879 1.5502566 -16.491032 128.31944
14310000000 -11.433926 66.775818 -200 45 -34.118382 -65.411667 -16.218113 134.64322
14320000000 -11.01814 63.159496 -200 45 -34.148396 -131.65053 -15.41 131.25949
14330000000 -10.802551 59.014339 -200 45 -34.225739 162.07491 -16.271429 122.327
14340000000 -10.830036 54.591064 -200 45 -34.145748 96.056694 -19.20484 127.22356
14350000000 -11.046981 50.783115 -200 45 -34.313278 30.056648 -18.631449 153.69287
14360000000 -11.436605 47.477013 -200 45 -34.513592 -35.256092 -15.68377 155.92072
14370000000 -12.011117 45.595932 -200 45 -34.36636 -100.00517 -14.151438 148.97806
14380000000 -12.605851 45.64259 -200 45 -34.350647 -165.48494 -13.209486 139.64406
14390000000 -13.209373 47.454559 -200 45 -34.385384 129.42543 -13.109105 125.62927
14400000000 -13.406183 53.089153 -200 45 -34.108276 63.75864 -14.753813 113.15939
14410000000 -12.756856 56.893913 -200 45 -33.960323 -3.0089653 -17.230925 115.97826
14420000000 -12.003312 56.391155 -200 45 -34.034042 -70.66465 -17.391785 126.60439
14430000000 -11.488955 53.642879 -200 45 -34.176907 -137.05998 -16.944727 126.88056
14440000000 -11.221533 50.032852 -200 45 -34.120094 158.24034 -17.13265 125.11359
14450000000 -11.128187 46.707787 -200 45 -33.941441 92.460709 -17.746311 121.43893
14460000000 -11.075066 43.206062 -200 45 -33.772812 26.1626 -19.842411 121.86667
14470000000 -11.194377 39.097313 -200 45 -33.690117 -42.247002 -20.962715 146.74254
14480000000 -11.616239 35.180309 -200 45 -33.861553 -109.54503 -17.249393 159.01921
14490000000 -12.287416 33.042179 -200 45 -34.091972 -174.99097 -14.583805 149.07774
14500000000 -13.077918 34.388187 -200 45 -34.175758 119.55443 -13.684149 134.44589
14510000000 -13.360557 38.73267 -200 45 -34.048622 54.963692 -13.992017 120.92384
14520000000 -13.055108 42.385963 -200 45 -33.858345 -10.546419 -15.200371 108.87737
14530000000 -12.52989 43.414047 -200 45 -33.634735 -76.703056 -17.833389 101.99179
14540000000 -11.976681 42.858177 -200 45 -33.378571 -144.26776 -20.583794 116.65888
14550000000 -11.492665 40.412876 -200 45 -33.434887 147.10165 -18.7761 129.64064
14560000000 -11.116037 36.905949 -200 45 -33.675743 80.496223 -17.795258 119.11484
14570000000 -10.888313 31.936373 -200 45 -33.756485 14.378474 -19.418839 109.52522
14580000000 -11.052629 26.378153 -200 45 -33.906609 -51.254814 -22.138569 116.13095
14590000000 -11.556276 21.666981 -200 45 -33.904633 -116.35307 -22.985264 142.16742
14600000000 -12.341788 18.835003 -200 45 -33.785378 176.95193 -19.321058 160.45197
14610000000 -13.262891 18.808874 -200 45 -33.689201 111.62849 -15.592192 151.58037
14620000000 -14.018885 22.509653 -200 45 -33.605839 44.287823 -14.002683 131.23581
14630000000 -14.153633 28.719303 -200 45 -33.655933 -22.686274 -14.503896 109.00687
14640000000 -13.646823 33.393543 -200 45 -33.824356 -89.012634 -16.955376 92.043198
14650000000 -12.769775 34.624569 -200 45 -33.797878 -154.4234 -20.697565 91.300331
14660000000 -12.059164 32.082344 -200 45 -33.864624 139.05008 -22.470709 109.49248
14670000000 -11.528193 28.247496 -200 45 -33.838943 73.537689 -21.089298 120.88576
14680000000 -11.262574 22.568922 -200 45 -33.944157 7.1296501 -19.495153 114.81858
14690000000 -11.352894 16.448538 -200 45 -33.786407 -58.882671 -20.079609 96.559013
14700000000 -11.883419 10.231521 -200 45 -33.891869 -126.16485 -26.352436 78.370033
14710000000 -12.881246 6.0141373 -200 45 -34.048664 167.75739 -27.975258 -175.08165
14720000000 -14.162973 5.9659228 -200 45 -34.198048 103.24721 -19.136301 169.04082
14730000000 -15.142321 11.777866 -200 45 -34.054523 38.227268 -16.342962 144.78603
14740000000 -15.250961 18.982555 -200 45 -33.757298 -27.22024 -15.517966 121.81436
14750000000 -14.755479 24.545208 -200 45 -33.584797 -95.693382 -16.057894 98.646515
14760000000 -13.928398 27.090219 -200 45 -33.710609 -163.13826 -18.675674 76.769966
14770000000 -12.932999 26.523432 -200 45 -33.803661 131.16805 -24.965979 71.296242
14780000000 -12.071787 21.6584 -200 45 -33.805649 65.432663 -26.132227 125.39996
14790000000 -11.691237 14.374267 -200 45 -33.625103 -1.9936727 -21.353331 118.96693
14800000000 -11.914063 6.0236783 -200 45 -34.013962 -68.85556 -21.208059 92.930573
14810000000 -12.820209 -0.18263434 -200 45 -34.330608 -133.95982 -25.224377 65.858284
14820000000 -13.948143 -2.8478744 -200 45 -34.253735 162.94485 -41.93502 46.417107
14830000000 -15.140162 -1.777316 -200 45 -34.08699 97.632454 -26.674421 -161.43929
14840000000 -16.10475 3.3370073 -200 45 -33.666019 32.137894 -19.607113 170.29008
14850000000 -16.471088 10.816689 -200 45 -33.50042 -35.611519 -16.704596 138.42336
14860000000 -16.061333 19.687258 -200 45 -33.508202 -103.93405 -16.456902 106.24947
14870000000 -14.740009 24.016287 -200 45 -33.697605 -170.77907 -18.685261 77.640656
14880000000 -13.338177 21.671055 -200 45 -33.879391 123.82652 -23.302517 60.83511
14890000000 -12.434854 14.783159 -200 45 -34.10553 57.789932 -28.768496 66.475388
14900000000 -12.173858 6.0436549 -200 45 -34.201328 -6.828094 -31.10652 98.159691
14910000000 -12.591333 -2.1951118 -200 45 -33.983463 -71.716545 -27.186031 107.7807
14920000000 -13.44055 -7.9404263 -200 45 -33.683098 -136.83543 -25.393019 76.384521
14930000000 -14.560239 -11.085313 -200 45 -33.233803 154.46751 -28.280249 15.391507
14940000000 -15.652919 -9.9939232 -200 45 -33.269413 85.313995 -28.336929 -99.537361
14950000000 -16.509056 -7.0460792 -200 45 -33.604225 17.28772 -23.103531 -166.28383
14960000000 -17.148073 -0.78171337 -200 45 -33.996414 -47.876411 -21.204792 157.7054
14970000000 -16.97459 7.123558 -200 45 -34.252716 -112.40292 -20.457298 132.52968
14980000000 -15.886973 12.645775 -200 45 -34.094921 -175.29202 -20.181723 104.61889
14990000000 -14.182289 11.796609 -200 45 -33.703972 119.32262 -21.580893 68.79908
15000000000 -13.357717 2.2897503 -200 45 -33.385483 51.529076 -25.921392 29.548006
15010000000 -13.603884 -7.2902365 -200 45 -33.309116 -16.602219 -36.621464 5.4637938
15020000000 -14.398171 -13.172747 -200 45 -33.345612 -83.190529 -37.020977 65.695518
15030000000 -15.119718 -15.634128 -200 45 -33.417019 -151.01038 -34.034275 14.788398
15040000000 -15.70327 -17.883299 -200 45 -33.788418 141.72783 -32.75153 -51.018524
15050000000 -16.442818 -20.303158 -200 45 -34.174454 77.388817 -30.198263 -89.73201
15060000000 -17.703053 -20.620543 -200 45 -34.168175 14.46456 -26.006479 -113.36069
15070000000 -18.760889 -13.705631 -200 45 -33.868896 -50.931107 -22.531746 -146.03258
15080000000 -18.580162 -3.8212566 -200 45 -33.512218 -117.44379 -21.548914 175.8454
15090000000 -17.370962 -0.1435772 -200 45 -33.242756 174.30534 -22.947475 138.62663
15100000000 -16.350876 -2.7197545 -200 45 -33.513725 104.85042 -25.7932 105.73074
15110000000 -15.813758 -8.4821939 -200 45 -33.848705 38.374454 -28.697737 70.596558
15120000000 -15.783958 -14.384454 -200 45 -34.05315 -25.341089 -30.093908 16.134947
15130000000 -15.992254 -19.545994 -200 45 -33.966736 -91.49321 -29.152121 -46.848068
15140000000 -16.385334 -24.776991 -200 45 -33.9076 -157.17897 -28.748928 -88.774094
15150000000 -17.124743 -28.270437 -200 45 -33.811752 136.879 -30.11474 -97.350998
15160000000 -17.768015 -29.574669 -200 45 -33.591316 69.708336 -27.148603 -85.048668
15170000000 -18.238319 -30.857449 -200 45 -33.730156 1.9385718 -23.188017 -99.116798
15180000000 -19.090858 -33.251804 -200 45 -33.898022 -64.928268 -21.339487 -120.56273
15190000000 -20.286535 -29.451056 -200 45 -34.017605 -130.11577 -20.805334 -140.01189
15200000000 -20.404448 -20.168831 -200 45 -34.04818 163.92305 -20.79063 -161.52374
15210000000 -19.258644 -16.123568 -200 45 -34.067993 98.104218 -22.182184 169.04442
15220000000 -18.186365 -19.371656 -200 45 -34.002949 32.647095 -26.994684 125.63386
15230000000 -17.675291 -26.209892 -200 45 -33.909721 -33.636543 -35.026695 12.025645
15240000000 -17.843487 -33.478882 -200 45 -34.015079 -99.731728 -27.885668 -67.642433
15250000000 -18.272825 -38.016354 -200 45 -33.880711 -166.00861 -25.366903 -89.984421
15260000000 -18.525623 -41.491566 -200 45 -33.959743 126.73378 -23.723408 -97.694099
15270000000 -18.554916 -47.717167 -200 45 -34.169327 60.260677 -22.712341 -106.01558
15280000000 -19.267405 -58.487007 -200 45 -34.387543 -5.3791642 -22.388466 -106.8959
15290000000 -21.59621 -68.174355 -200 45 -34.319092 -69.422699 -20.35166 -106.49721
15300000000 -25.254616 -62.006062 -200 45 -34.274277 -134.97049 -18.230042 -120.32806
15310000000 -26.064793 -33.737183 -200 45 -33.989574 158.31981 -17.781824 -140.6331
15320000000 -23.488073 -24.669641 -200 45 -33.801014 91.474098 -19.294765 -160.24037
15330000000 -21.937529 -27.069189 -200 45 -33.996395 23.297695 -22.951521 -169.71379
15340000000 -20.98732 -31.87451 -200 45 -34.384529 -43.901306 -27.325157 -153.13486
15350000000 -20.207136 -37.027637 -200 45 -34.544945 -107.85093 -27.208004 -116.15824
15360000000 -19.348671 -46.027431 -200 45 -34.42807 -172.98564 -23.32593 -103.21388
