!Keysight Technologies,P9374A,MY57211810,A.19.30.04
!Date: Friday, May 02, 2025 08:57:42
!Correction: S11(Off) 
!S21(Off) 
!S12(Off) 
!S22(Off) 
!S2P File: Measurements: S11, S21, S12, S22:
# Hz S  dB   R 50
13000000000 -11.995087 112.75172 -200 45 -22.516813 19.257984 -13.246903 -176.53122
13010000000 -12.544041 107.92647 -200 45 -22.469877 -47.315178 -18.731756 -171.83073
13020000000 -13.719542 103.48978 -200 45 -22.438461 -114.36092 -19.239477 -122.62976
13030000000 -15.097108 104.5938 -200 45 -22.572433 178.70224 -13.795734 -113.68739
13040000000 -16.253603 113.64657 -200 45 -22.60622 112.62113 -10.989232 -128.80513
13050000000 -15.812456 124.06023 -200 45 -22.611399 46.454613 -10.67374 -147.88072
13060000000 -14.404416 128.39297 -200 45 -22.517321 -20.028753 -12.385732 -160.84187
13070000000 -13.609632 125.21893 -200 45 -22.557579 -86.720154 -15.247518 -159.3317
13080000000 -13.133924 123.83675 -200 45 -22.467937 -154.05447 -15.727077 -137.48665
13090000000 -12.581176 121.90975 -200 45 -22.709652 138.67552 -12.763595 -131.10248
13100000000 -11.848351 117.0749 -200 45 -22.895201 72.209686 -10.879712 -144.31142
13110000000 -11.737175 109.51372 -200 45 -23.00544 7.8899035 -11.081778 -162.05409
13120000000 -12.105302 102.24611 -200 45 -22.83758 -58.070892 -13.569348 -176.61864
13130000000 -13.279112 96.289528 -200 45 -22.802034 -124.75324 -18.624155 -170.78543
13140000000 -14.639157 98.079826 -200 45 -22.844007 168.46059 -18.434349 -122.08037
13150000000 -15.495902 102.51769 -200 45 -22.846874 102.03485 -13.115167 -117.95541
13160000000 -15.738337 109.24078 -200 45 -23.050091 35.417248 -10.614603 -133.45465
13170000000 -15.437021 116.17547 -200 45 -23.077051 -29.009777 -10.223311 -151.82155
13180000000 -14.600315 119.28165 -200 45 -22.906748 -94.471077 -11.777716 -166.69736
13190000000 -13.798712 120.77046 -200 45 -22.653738 -161.37669 -15.117111 -166.23314
13200000000 -12.818874 118.81722 -200 45 -22.732479 130.52457 -15.1907 -141.78154
13210000000 -12.125068 114.214 -200 45 -22.934746 64.127907 -12.309648 -140.10942
13220000000 -11.849976 107.92873 -200 45 -22.975143 -1.1967651 -10.972671 -152.77306
13230000000 -11.922701 100.84095 -200 45 -23.041996 -66.604416 -11.065961 -168.29172
13240000000 -12.805198 93.798004 -200 45 -22.860838 -131.12086 -13.276713 174.9158
13250000000 -14.414958 92.0168 -200 45 -22.549147 162.07272 -19.601816 177.31601
13260000000 -15.786914 99.571785 -200 45 -22.442682 94.24884 -17.836777 -123.06197
13270000000 -15.755107 109.03172 -200 45 -22.524733 26.886389 -12.83398 -127.80872
13280000000 -15.164455 114.92771 -200 45 -22.565683 -39.353069 -10.823133 -143.02812
13290000000 -14.654946 117.63442 -200 45 -22.609636 -105.33714 -10.492497 -159.51656
13300000000 -13.919842 122.67344 -200 45 -22.43383 -170.98615 -12.132579 -173.65504
13310000000 -12.447867 123.024 -200 45 -22.32093 121.34776 -14.93814 -168.38538
13320000000 -11.352569 116.29642 -200 45 -22.413479 53.9389 -13.943549 -151.27126
13330000000 -11.106695 107.86597 -200 45 -22.540691 -12.282435 -11.798651 -155.86151
13340000000 -11.629539 99.410576 -200 45 -22.588919 -78.152153 -10.996627 -167.87376
13350000000 -12.777246 96.031418 -200 45 -22.481642 -143.58751 -11.638713 176.82352
13360000000 -13.982053 98.018723 -200 45 -22.38958 150.20323 -14.392497 164.68411
13370000000 -14.353 102.46816 -200 45 -22.212498 83.28154 -19.628895 -176.20392
13380000000 -14.957687 107.03292 -200 45 -22.1068 15.508389 -16.098648 -139.86356
13390000000 -14.794356 113.80357 -200 45 -22.320564 -52.135212 -12.188971 -147.24719
13400000000 -14.085431 120.70915 -200 45 -22.384647 -118.31459 -11.012877 -162.35834
13410000000 -12.913834 121.5519 -200 45 -22.444145 175.8231 -11.340607 -176.31607
13420000000 -11.777533 118.83767 -200 45 -22.366369 108.95451 -12.914907 177.26044
13430000000 -11.356164 111.80711 -200 45 -22.492599 42.381889 -14.632282 -176.039
13440000000 -11.336897 106.01743 -200 45 -22.501078 -24.332956 -13.342907 -164.92755
13450000000 -11.768605 100.05357 -200 45 -22.609669 -90.155754 -11.350849 -169.95845
13460000000 -12.63367 96.104492 -200 45 -22.623276 -156.164 -10.943242 175.01067
13470000000 -13.811435 97.145935 -200 45 -22.584572 137.86392 -12.147321 162.3627
13480000000 -14.39411 100.94902 -200 45 -22.51638 70.935852 -14.80681 157.64349
13490000000 -14.824782 105.55595 -200 45 -22.545378 4.1947193 -18.21916 169.60023
13500000000 -14.793777 111.25919 -200 45 -22.718613 -62.285671 -16.299444 -157.54953
13510000000 -14.403902 116.93284 -200 45 -22.711435 -128.27548 -12.710165 -160.31744
13520000000 -13.378092 119.74413 -200 45 -22.783592 165.91243 -11.5523 -174.59624
13530000000 -12.275321 117.47412 -200 45 -22.771326 99.469177 -11.865914 176.08124
13540000000 -11.86807 110.86664 -200 45 -22.807163 33.796532 -12.852556 170.2594
13550000000 -12.059938 106.24115 -200 45 -22.776857 -32.913269 -13.902748 172.22754
13560000000 -12.440767 102.96173 -200 45 -22.85837 -98.948006 -13.589588 -179.48122
13570000000 -12.873789 102.26872 -200 45 -22.901339 -164.93744 -12.283474 177.78728
13580000000 -13.217913 102.33336 -200 45 -22.877176 129.76485 -11.851111 168.33188
13590000000 -13.612906 101.46665 -200 45 -22.825378 63.810574 -12.77959 158.90343
13600000000 -14.464651 104.25352 -200 45 -22.678236 -1.9840301 -14.671153 154.72113
13610000000 -14.546337 111.93591 -200 45 -22.573895 -69.09877 -17.018488 164.77925
13620000000 -13.674964 117.035 -200 45 -22.549248 -136.64371 -16.364012 -173.71581
13630000000 -12.755209 116.63735 -200 45 -22.763718 157.11118 -13.542565 -169.83316
13640000000 -12.133077 113.97757 -200 45 -22.794941 91.397781 -11.877969 -179.45894
13650000000 -11.990732 110.83417 -200 45 -22.808638 25.960661 -11.852386 169.40584
13660000000 -11.910168 109.50497 -200 45 -22.703588 -40.398121 -12.709886 164.33391
13670000000 -11.655384 107.09641 -200 45 -22.68561 -106.82584 -13.188446 164.75433
13680000000 -11.72534 103.29134 -200 45 -22.691719 -173.41745 -13.365166 165.51367
13690000000 -12.047389 101.00747 -200 45 -22.719513 120.53037 -12.90928 167.1731
13700000000 -12.554807 99.093216 -200 45 -22.727308 54.974625 -12.097804 161.32632
13710000000 -13.316574 100.4178 -200 45 -22.59075 -11.074345 -12.609664 150.01254
13720000000 -13.512223 105.79035 -200 45 -22.517605 -77.641693 -14.80969 145.77026
13730000000 -13.099487 108.94686 -200 45 -22.372135 -144.61766 -16.70071 157.35905
13740000000 -12.563337 110.11626 -200 45 -22.411755 148.15564 -16.042624 174.83784
13750000000 -12.12198 108.35297 -200 45 -22.467186 80.976013 -13.654628 179.51151
13760000000 -12.0326 107.33865 -200 45 -22.679192 15.04315 -11.932036 170.70975
13770000000 -11.698946 107.32593 -200 45 -22.660252 -50.834473 -11.968902 160.72932
13780000000 -11.09477 104.68421 -200 45 -22.53879 -116.82357 -12.618309 156.08018
13790000000 -10.927727 98.622452 -200 45 -22.594437 176.02316 -12.956698 155.47241
13800000000 -11.307665 93.203568 -200 45 -22.595911 109.49522 -13.220183 155.36311
13810000000 -12.144492 90.208199 -200 45 -22.691677 43.448959 -12.823392 155.5074
13820000000 -12.977632 91.388687 -200 45 -22.735607 -23.026484 -12.482484 149.57523
13830000000 -13.318509 95.770836 -200 45 -22.76239 -88.40741 -13.319573 140.14923
13840000000 -13.149768 98.085541 -200 45 -22.68412 -154.97528 -15.747686 138.55286
13850000000 -13.040491 99.789185 -200 45 -22.652653 138.39398 -17.257648 157.26508
13860000000 -12.781149 101.44508 -200 45 -22.733442 71.810181 -15.397408 168.80484
13870000000 -12.283907 103.23696 -200 45 -22.751488 5.2365799 -13.96875 168.28758
13880000000 -11.448197 102.43036 -200 45 -22.909264 -61.295422 -13.0081 164.28502
13890000000 -10.723866 97.129082 -200 45 -23.043333 -127.0583 -12.648991 157.67287
13900000000 -10.711563 89.896355 -200 45 -23.118059 167.44347 -13.137403 153.16148
13910000000 -11.173887 84.538963 -200 45 -23.069674 102.30535 -13.354647 153.83987
13920000000 -11.972535 81.456108 -200 45 -22.966785 36.148125 -12.945689 152.99501
13930000000 -12.821862 82.075905 -200 45 -22.923771 -29.892063 -12.960733 147.13629
13940000000 -13.337883 85.62561 -200 45 -22.892239 -96.932983 -13.43689 142.46373
13950000000 -13.498328 88.977165 -200 45 -23.043039 -163.04242 -14.459333 138.75444
13960000000 -13.469817 93.343605 -200 45 -23.010582 131.33652 -16.321224 140.48067
13970000000 -12.904929 97.46907 -200 45 -22.97024 65.259789 -16.561501 155.14635
13980000000 -11.980227 98.960403 -200 45 -22.909939 -1.1511266 -15.41326 160.1757
13990000000 -10.983884 96.581261 -200 45 -22.925022 -67.878967 -14.92594 159.92715
14000000000 -10.346164 90.384476 -200 45 -23.046106 -133.95877 -14.032316 161.9073
14010000000 -10.364631 83.278145 -200 45 -23.138348 160.04564 -13.296272 157.89346
14020000000 -10.856279 77.897774 -200 45 -23.178795 94.727524 -12.963383 152.7348
14030000000 -11.613553 74.694069 -200 45 -23.15744 29.583025 -12.862304 148.91165
14040000000 -12.577265 74.788841 -200 45 -22.988186 -35.750175 -12.97945 143.37602
14050000000 -13.16677 78.924896 -200 45 -22.808403 -102.07767 -13.43047 138.15027
14060000000 -13.348743 82.610367 -200 45 -22.704775 -168.93608 -14.554769 135.92612
14070000000 -13.232288 87.951035 -200 45 -22.686447 124.11204 -15.375256 138.95567
14080000000 -12.572946 92.52047 -200 45 -22.695381 57.380527 -15.400021 142.96022
14090000000 -11.419867 93.208092 -200 45 -22.720606 -9.1054144 -15.650476 142.46541
14100000000 -10.391303 89.386971 -200 45 -22.798029 -75.030823 -16.195858 146.96387
14110000000 -9.9010239 81.708199 -200 45 -22.750326 -141.12521 -15.652413 154.93814
14120000000 -10.065728 74.592155 -200 45 -22.727057 152.48737 -14.729911 156.78648
14130000000 -10.726251 69.094566 -200 45 -22.749796 86.497246 -13.357903 156.87671
14140000000 -11.41096 67.623337 -200 45 -22.643702 20.040878 -12.162519 148.33012
14150000000 -12.115073 67.159081 -200 45 -22.64257 -46.256161 -12.35026 135.66452
14160000000 -12.623033 68.186684 -200 45 -22.682398 -112.79841 -13.561302 130.6385
14170000000 -13.259043 71.866455 -200 45 -22.648119 -178.62515 -14.547419 128.67215
14180000000 -13.189217 78.548744 -200 45 -22.617792 114.7891 -15.677332 130.29077
14190000000 -12.142907 83.505898 -200 45 -22.540813 48.468925 -15.863492 138.77612
14200000000 -11.035168 80.838455 -200 45 -22.572739 -18.542238 -15.10877 137.04677
14210000000 -10.327954 76.009003 -200 45 -22.584492 -85.021988 -15.938558 131.42923
14220000000 -10.127731 69.209068 -200 45 -22.711323 -151.57808 -17.466875 139.06267
14230000000 -10.373126 63.537167 -200 45 -22.735344 142.61926 -17.077328 152.06038
14240000000 -10.852176 59.778725 -200 45 -22.719582 76.539597 -15.129003 158.38289
14250000000 -11.304819 57.723194 -200 45 -22.794481 10.119433 -13.174419 153.33923
14260000000 -11.805056 55.494949 -200 45 -22.806461 -55.507786 -12.289209 141.12769
14270000000 -12.606359 54.854256 -200 45 -22.765444 -121.52354 -12.75199 128.76546
14280000000 -13.407369 59.121796 -200 45 -22.691114 171.92981 -14.312685 121.86466
14290000000 -13.24151 66.979469 -200 45 -22.78219 105.42203 -15.824466 123.53315
14300000000 -12.163939 69.800095 -200 45 -22.789001 39.179039 -16.425339 130.38332
14310000000 -11.286168 66.607147 -200 45 -22.863392 -26.864902 -16.010628 133.10693
14320000000 -10.882781 62.175411 -200 45 -22.919302 -92.77874 -15.695047 130.72809
14330000000 -10.858637 57.705872 -200 45 -22.841288 -158.34958 -16.372351 124.36389
14340000000 -11.098684 54.741287 -200 45 -22.794909 135.03574 -18.6747 126.51478
14350000000 -11.072495 52.366909 -200 45 -22.854185 68.103821 -19.232069 152.20782
14360000000 -11.200119 48.385735 -200 45 -23.022181 2.2767227 -15.59162 158.27571
14370000000 -11.821248 44.025745 -200 45 -23.050861 -62.827236 -13.882185 148.33627
14380000000 -12.768499 44.040493 -200 45 -22.975023 -128.40295 -13.294346 138.02153
14390000000 -13.520171 47.991009 -200 45 -22.927753 165.87553 -13.234137 126.05167
14400000000 -13.38983 55.144688 -200 45 -22.705814 99.575256 -14.743001 114.65189
14410000000 -12.519259 57.477066 -200 45 -22.727182 32.342415 -16.999578 115.38969
14420000000 -11.834278 55.335938 -200 45 -22.813459 -34.036057 -17.536045 125.28741
14430000000 -11.570461 52.109459 -200 45 -22.802212 -99.620247 -17.318712 128.04248
14440000000 -11.475501 50.130005 -200 45 -22.768501 -165.66962 -16.814873 126.7197
14450000000 -11.241276 48.091148 -200 45 -22.651293 128.30705 -17.40662 118.86511
14460000000 -10.917389 45.081261 -200 45 -22.562304 61.133362 -20.512903 120.24132
14470000000 -10.872024 38.588799 -200 45 -22.633875 -5.9979825 -20.544325 151.17265
14480000000 -11.495624 33.477398 -200 45 -22.798847 -71.865669 -16.849941 157.43916
14490000000 -12.555474 31.284889 -200 45 -22.829763 -137.50328 -14.852637 147.66106
14500000000 -13.328751 35.324821 -200 45 -22.796043 157.03574 -13.859289 136.06726
14510000000 -13.403627 40.95068 -200 45 -22.643312 91.019257 -13.788995 121.88657
14520000000 -12.663242 43.045601 -200 45 -22.578163 24.385853 -15.06902 106.40919
14530000000 -12.328662 41.640892 -200 45 -22.505072 -42.354408 -18.252005 101.1639
14540000000 -12.165279 40.453857 -200 45 -22.493811 -109.41318 -20.343044 119.74338
14550000000 -11.842236 41.300606 -200 45 -22.62772 -176.03087 -18.462408 127.3334
14560000000 -11.173088 38.808201 -200 45 -22.663553 117.77749 -18.031128 118.91101
14570000000 -10.64994 33.505116 -200 45 -22.738796 52.029591 -19.364023 111.70697
14580000000 -10.751142 25.431608 -200 45 -22.614723 -13.769011 -21.960526 114.73598
14590000000 -11.520092 19.348078 -200 45 -22.603283 -80.541725 -23.679518 144.65923
14600000000 -12.751175 17.665779 -200 45 -22.602329 -146.85953 -18.88339 161.72539
14610000000 -13.511649 21.130196 -200 45 -22.641251 146.3156 -15.523627 149.14713
14620000000 -13.796816 25.267199 -200 45 -22.717474 80.265533 -14.333622 130.0327
14630000000 -13.658665 28.086 -200 45 -22.719597 14.331067 -14.582712 111.52731
14640000000 -13.577718 29.991056 -200 45 -22.705919 -51.545612 -16.426439 93.038078
14650000000 -13.187238 33.195667 -200 45 -22.62672 -117.90734 -20.669508 84.898354
14660000000 -12.390834 33.99881 -200 45 -22.65732 175.30724 -23.41745 117.73689
14670000000 -11.41829 30.53973 -200 45 -22.710833 108.71262 -20.066265 123.45496
14680000000 -10.974241 23.100021 -200 45 -22.847685 42.458084 -19.350601 107.96501
14690000000 -11.118629 15.038349 -200 45 -22.896742 -22.971901 -21.380213 95.554382
14700000000 -11.964514 8.1757784 -200 45 -22.925974 -88.604263 -26.571989 90.01313
14710000000 -13.20405 5.574306 -200 45 -22.85034 -154.26768 -28.589268 167.17914
14720000000 -14.353645 8.3984261 -200 45 -22.797552 139.261 -19.765278 170.61584
14730000000 -14.861421 13.5218 -200 45 -22.853676 72.863541 -16.158062 147.58423
14740000000 -14.864429 17.820663 -200 45 -22.876637 7.4873705 -15.037294 121.77493
14750000000 -14.907055 22.00742 -200 45 -22.794128 -58.77998 -16.022408 96.264465
14760000000 -14.247919 27.194134 -200 45 -22.814041 -124.97454 -19.381416 74.958321
14770000000 -13.011948 28.51874 -200 45 -22.804482 168.88664 -25.17618 80.167137
14780000000 -11.842149 22.388525 -200 45 -22.816978 102.31577 -25.733038 115.8264
14790000000 -11.535765 13.591912 -200 45 -22.924044 36.466881 -22.278067 118.32203
14800000000 -11.970359 4.9240704 -200 45 -22.935703 -29.160879 -21.11344 98.00354
14810000000 -12.977161 -0.40563682 -200 45 -22.877121 -94.301804 -23.872326 65.958809
14820000000 -14.072319 -1.7931328 -200 45 -22.760826 -161.05699 -40.526608 -3.6093221
14830000000 -14.968381 -0.77838421 -200 45 -22.818483 132.63095 -25.170683 -164.04971
14840000000 -15.882093 2.611063 -200 45 -22.818357 66.47094 -19.649008 166.18585
14850000000 -16.625486 9.2305889 -200 45 -22.788853 0.57075125 -17.072657 139.26132
14860000000 -16.15881 20.288332 -200 45 -22.794575 -65.558594 -16.489731 108.10194
14870000000 -14.783149 25.000523 -200 45 -22.773203 -131.31049 -18.307762 78.114319
14880000000 -13.172183 21.88957 -200 45 -22.659191 161.9099 -23.032795 54.427616
14890000000 -12.387508 14.371612 -200 45 -22.79048 95.293877 -30.089018 67.586533
14900000000 -12.218207 5.1756535 -200 45 -22.817369 29.95767 -29.541094 106.48114
14910000000 -12.7307 -1.7851396 -200 45 -22.718504 -35.922306 -26.443859 99.921867
14920000000 -13.466657 -7.1886683 -200 45 -22.675518 -102.01174 -26.29907 72.370323
14930000000 -14.34611 -10.112365 -200 45 -22.568382 -168.28943 -30.141197 18.039139
14940000000 -15.537955 -11.559921 -200 45 -22.537294 124.80234 -29.743498 -96.820343
14950000000 -16.563871 -8.3604326 -200 45 -22.578436 57.75322 -23.359632 -161.59021
14960000000 -17.504545 -0.58173269 -200 45 -22.692968 -7.9129791 -20.952496 159.93253
14970000000 -16.997509 9.1168165 -200 45 -22.614498 -73.582291 -20.109943 130.87549
14980000000 -15.63105 13.971009 -200 45 -22.534386 -139.81743 -20.205599 101.5114
14990000000 -14.30394 9.5564556 -200 45 -22.477585 153.15898 -21.835367 67.759384
15000000000 -13.598445 2.4984434 -200 45 -22.524731 86.857056 -26.299566 31.374037
15010000000 -13.711265 -6.3839316 -200 45 -22.52273 19.807547 -37.307182 19.733839
15020000000 -14.34432 -12.196704 -200 45 -22.63883 -46.460114 -35.722313 50.191883
15030000000 -14.975865 -15.143771 -200 45 -22.734594 -112.36595 -35.918102 1.7013882
15040000000 -15.55025 -18.454512 -200 45 -22.70422 -177.82478 -34.748981 -50.318127
15050000000 -16.421045 -21.245298 -200 45 -22.671198 116.16047 -30.078636 -78.112869
15060000000 -17.794794 -21.817232 -200 45 -22.567232 50.066914 -24.851217 -113.63557
15070000000 -19.07585 -13.704129 -200 45 -22.462793 -16.531679 -22.551977 -151.88937
15080000000 -18.750578 -1.0615264 -200 45 -22.443726 -83.694809 -22.348742 173.41701
15090000000 -16.943359 1.9108289 -200 45 -22.531929 -150.99881 -23.355526 144.52238
15100000000 -15.950252 -4.7235546 -200 45 -22.70845 143.42162 -24.759743 110.22723
15110000000 -15.842657 -11.738895 -200 45 -22.653618 77.877823 -27.327322 65.795418
15120000000 -16.317417 -16.138487 -200 45 -22.551413 11.557399 -29.610874 -1.7501656
15130000000 -16.527964 -16.350136 -200 45 -22.49169 -55.156788 -30.984617 -59.22102
15140000000 -16.10915 -19.821791 -200 45 -22.518648 -122.49664 -30.806868 -79.082207
15150000000 -16.224102 -27.514711 -200 45 -22.707733 170.93805 -28.231609 -84.021912
15160000000 -17.253059 -35.913937 -200 45 -22.844112 105.03878 -26.333975 -97.772514
15170000000 -19.072357 -37.281998 -200 45 -22.898308 40.06683 -24.522223 -101.38457
15180000000 -20.494589 -28.97435 -200 45 -22.818432 -25.570469 -21.728384 -113.89515
15190000000 -19.897446 -19.436916 -200 45 -22.674944 -91.648094 -20.004679 -138.46834
15200000000 -18.880762 -19.344959 -200 45 -22.635317 -158.70357 -20.404839 -166.08069
15210000000 -18.682692 -24.69939 -200 45 -22.725891 134.51158 -22.850273 164.10139
15220000000 -19.062252 -25.636122 -200 45 -22.794773 68.588257 -28.377438 130.36819
15230000000 -18.989683 -23.835184 -200 45 -22.77076 2.4015033 -38.688335 18.698055
15240000000 -17.958008 -24.690428 -200 45 -22.777903 -63.988316 -28.852428 -59.77792
15250000000 -17.234051 -32.968826 -200 45 -22.898996 -130.66725 -24.461025 -85.006424
15260000000 -17.206291 -46.181217 -200 45 -22.968309 164.25607 -23.300325 -102.72215
15270000000 -18.731907 -57.557289 -200 45 -22.910864 98.221222 -23.509546 -107.95013
15280000000 -20.776413 -63.43483 -200 45 -22.890182 32.309219 -22.32514 -102.76844
15290000000 -23.087549 -57.25206 -200 45 -22.862587 -34.020031 -19.961428 -107.88444
15300000000 -23.903339 -48.285828 -200 45 -22.818769 -100.3697 -18.37454 -122.17919
15310000000 -23.691088 -41.943649 -200 45 -22.895582 -166.82156 -18.023849 -139.56575
15320000000 -24.195854 -38.079231 -200 45 -22.889242 127.23965 -19.050213 -158.66765
15330000000 -23.598616 -27.438658 -200 45 -22.920227 60.952827 -22.66254 -173.03821
15340000000 -21.493225 -23.374844 -200 45 -22.885838 -5.3590393 -28.802748 -154.03914
15350000000 -19.654696 -32.121204 -200 45 -22.961224 -71.891068 -26.242117 -112.60747
15360000000 -18.424191 -45.50507 -200 45 -22.997118 -137.90311 -23.148699 -108.66455
