!Keysight Technologies,P9374A,MY57211810,A.19.30.04
!Date: Friday, May 02, 2025 08:58:25
!Correction: S11(Off) 
!S21(Off) 
!S12(Off) 
!S22(Off) 
!S2P File: Measurements: S11, S21, S12, S22:
# Hz S  dB   R 50
13000000000 -11.86341 112.95953 -200 45 -29.552069 -13.524155 -13.072965 -175.55472
13010000000 -12.595491 106.67216 -200 45 -29.474264 -79.50634 -18.542845 -174.17902
13020000000 -13.800653 103.58638 -200 45 -29.206114 -147.22939 -19.609478 -120.22544
13030000000 -15.33772 106.35154 -200 45 -29.402721 144.14734 -13.540429 -113.3812
13040000000 -15.807953 114.16615 -200 45 -29.671978 79.200829 -10.970289 -129.80968
13050000000 -15.729411 121.92143 -200 45 -29.557858 12.916006 -10.802829 -147.76396
13060000000 -14.75402 126.54102 -200 45 -29.520964 -53.058006 -12.310536 -160.49298
13070000000 -13.802076 127.70409 -200 45 -29.518227 -120.37595 -15.281632 -159.5744
13080000000 -12.99709 125.48582 -200 45 -29.469803 173.15129 -15.741222 -136.88933
13090000000 -12.179308 121.43192 -200 45 -29.634378 105.15037 -12.69882 -131.53552
13100000000 -11.918356 115.11956 -200 45 -29.959435 38.690998 -10.933857 -144.5114
13110000000 -11.932454 108.71143 -200 45 -30.076422 -24.325306 -11.12886 -161.77133
13120000000 -12.360884 103.29886 -200 45 -29.710997 -90.710251 -13.471063 -176.06343
13130000000 -13.192935 98.644226 -200 45 -29.796329 -158.211 -18.618874 -172.61577
13140000000 -14.265224 97.619034 -200 45 -29.862776 135.40385 -18.540581 -120.39874
13150000000 -15.478121 100.71704 -200 45 -29.835726 69.226021 -12.982092 -117.75105
13160000000 -15.846168 108.56337 -200 45 -29.992798 2.5465951 -10.563229 -134.15845
13170000000 -15.627591 116.32087 -200 45 -30.017664 -62.439842 -10.311924 -152.38797
13180000000 -14.711463 120.82412 -200 45 -29.878319 -127.92052 -11.890908 -165.9911
13190000000 -13.559288 121.41578 -200 45 -29.760464 164.36333 -14.871461 -165.25758
13200000000 -12.698033 118.8475 -200 45 -29.989235 97.235703 -15.262411 -143.73399
13210000000 -12.031861 112.75781 -200 45 -30.112518 32.220173 -12.471262 -139.14847
13220000000 -11.984081 106.76276 -200 45 -30.040421 -32.978508 -10.800809 -151.95847
13230000000 -12.261323 100.76944 -200 45 -29.994879 -98.536888 -10.978725 -169.58536
13240000000 -12.920097 96.495056 -200 45 -29.736584 -164.01297 -13.572751 174.39302
13250000000 -14.037493 94.312866 -200 45 -29.521423 128.2276 -19.364208 -178.80482
13260000000 -15.157434 96.684021 -200 45 -29.676826 60.416317 -18.105524 -125.674
13270000000 -16.148678 104.75848 -200 45 -29.753128 -5.1380534 -12.889185 -126.189
13280000000 -15.932465 116.08298 -200 45 -29.645786 -71.182999 -10.609938 -143.2186
13290000000 -14.572475 123.26405 -200 45 -29.584244 -137.95525 -10.598076 -160.81955
13300000000 -13.227954 123.14766 -200 45 -29.481897 155.64839 -12.310723 -172.32709
13310000000 -12.213678 119.18928 -200 45 -29.445311 87.995918 -14.569513 -168.09541
13320000000 -11.714511 114.33495 -200 45 -29.636656 21.036303 -14.163294 -152.81061
13330000000 -11.515257 108.08666 -200 45 -29.737059 -45.145866 -11.881726 -154.47253
13340000000 -11.743202 102.74467 -200 45 -29.792114 -110.10278 -10.819902 -167.5695
13350000000 -12.405736 97.847221 -200 45 -29.535801 -175.85101 -11.639554 175.46289
13360000000 -13.473851 96.272346 -200 45 -29.432953 117.25827 -14.63641 164.97211
13370000000 -14.63323 99.154503 -200 45 -29.297119 49.374001 -19.295803 -174.82356
13380000000 -15.321932 106.93903 -200 45 -29.414879 -18.012396 -16.234537 -140.91273
13390000000 -14.929951 116.96628 -200 45 -29.54763 -84.888687 -12.218415 -146.85847
13400000000 -13.891129 121.26108 -200 45 -29.703436 -151.22096 -10.933896 -162.11069
13410000000 -12.59085 121.49636 -200 45 -29.596256 143.73013 -11.364029 -176.84718
13420000000 -11.816201 116.65019 -200 45 -29.584505 76.226799 -12.91798 177.37378
13430000000 -11.478585 111.38744 -200 45 -29.566277 9.8310843 -14.680397 -175.55215
13440000000 -11.543799 106.25872 -200 45 -29.714159 -58.378044 -13.260712 -165.11804
13450000000 -11.86943 101.36976 -200 45 -29.903627 -123.45564 -11.402118 -170.67545
13460000000 -12.467695 98.384834 -200 45 -29.914762 170.40085 -11.037157 175.89925
13470000000 -13.337077 95.928635 -200 45 -29.992935 105.26782 -11.96645 162.50412
13480000000 -14.520852 97.588219 -200 45 -29.758663 38.593517 -14.833571 155.97739
13490000000 -15.309744 105.76825 -200 45 -29.814796 -28.513008 -18.583385 171.89989
13500000000 -15.00755 113.88686 -200 45 -29.962948 -95.361931 -15.927682 -158.25169
13510000000 -13.945084 118.96406 -200 45 -30.031492 -161.42999 -12.854166 -161.48276
13520000000 -13.052503 117.55963 -200 45 -30.111126 132.75464 -11.666957 -173.59196
13530000000 -12.448877 114.72696 -200 45 -30.216469 66.198112 -11.702951 176.17078
13540000000 -12.248759 111.55071 -200 45 -30.309441 1.6223887 -12.88116 169.50168
13550000000 -12.103463 108.24489 -200 45 -30.093594 -64.106415 -14.014276 172.85741
13560000000 -12.192265 104.54833 -200 45 -30.105072 -131.35597 -13.455707 -179.44319
13570000000 -12.633902 100.63844 -200 45 -30.122766 162.59262 -12.340415 177.20958
13580000000 -13.241738 100.41512 -200 45 -30.14415 96.075409 -11.897394 168.74187
13590000000 -14.06701 101.27448 -200 45 -30.268351 30.164984 -12.67332 159.15285
13600000000 -14.40995 106.66185 -200 45 -30.291828 -34.716908 -14.689449 153.62117
13610000000 -14.314787 112.6144 -200 45 -30.087368 -100.86931 -17.209478 165.81993
13620000000 -13.526678 115.37464 -200 45 -29.903706 -168.45361 -16.122974 -173.11174
13630000000 -12.864716 116.10318 -200 45 -30.100735 124.73775 -13.562569 -170.98276
13640000000 -12.347672 113.74011 -200 45 -30.172354 58.766438 -12.021948 -179.37758
13650000000 -11.963448 112.39448 -200 45 -30.229656 -7.0330677 -11.854142 170.52806
13660000000 -11.786592 109.75328 -200 45 -30.234034 -72.614609 -12.485226 163.82158
13670000000 -11.57834 106.24613 -200 45 -30.121258 -139.2762 -13.36878 163.52098
13680000000 -11.75605 103.04686 -200 45 -30.155195 154.22546 -13.47099 167.01358
13690000000 -12.142727 99.91156 -200 45 -30.263426 87.962433 -12.672032 167.28134
13700000000 -12.738189 100.18446 -200 45 -30.288326 23.189785 -12.158948 160.08228
13710000000 -13.250284 102.00884 -200 45 -30.037289 -42.554516 -12.74832 150.54971
13720000000 -13.173673 105.20676 -200 45 -29.99098 -109.74216 -14.694293 146.50488
13730000000 -13.117266 107.40704 -200 45 -29.883959 -176.11185 -16.731323 156.18701
13740000000 -12.846922 109.07693 -200 45 -29.812004 116.00343 -16.029139 175.78313
13750000000 -12.321376 110.03905 -200 45 -29.996605 48.705791 -13.583311 178.83435
13760000000 -11.850138 109.30713 -200 45 -30.259293 -17.830975 -12.068995 170.73941
13770000000 -11.333362 106.3361 -200 45 -30.238544 -82.087273 -11.904366 161.66406
13780000000 -11.172008 102.4351 -200 45 -30.160643 -148.25916 -12.469746 155.1216
13790000000 -11.218372 98.015739 -200 45 -30.149509 144.52988 -13.161095 154.96831
13800000000 -11.484112 94.907516 -200 45 -30.205343 79.095085 -13.212152 156.73453
13810000000 -12.050095 91.855934 -200 45 -30.125008 12.372393 -12.649518 155.39407
13820000000 -12.577844 91.635284 -200 45 -30.229824 -54.122158 -12.498391 148.39957
13830000000 -13.270305 92.926529 -200 45 -30.249933 -119.60122 -13.569221 140.38306
13840000000 -13.445678 97.049011 -200 45 -30.127527 174.45293 -15.615833 140.57112
13850000000 -13.341063 101.3367 -200 45 -30.088261 106.77828 -17.089699 155.2513
13860000000 -12.695669 103.5135 -200 45 -30.219046 39.685757 -15.666849 168.65384
13870000000 -11.880652 103.499 -200 45 -30.475618 -26.000671 -13.910448 169.75658
13880000000 -11.343305 100.39928 -200 45 -30.543648 -91.55098 -12.847837 163.76895
13890000000 -10.916313 95.703186 -200 45 -30.592947 -156.69637 -12.717941 156.70415
13900000000 -11.025334 90.481911 -200 45 -30.472103 137.34445 -13.260139 154.0396
13910000000 -11.218016 86.310097 -200 45 -30.525789 70.93438 -13.210039 154.00731
13920000000 -11.739437 83.125961 -200 45 -30.499535 5.1749291 -12.999604 152.30183
13930000000 -12.49535 80.583664 -200 45 -30.484346 -60.814579 -12.992764 147.83684
13940000000 -13.35482 83.19944 -200 45 -30.427822 -127.00797 -13.334881 141.98718
13950000000 -13.989648 88.163506 -200 45 -30.432465 166.48326 -14.62265 138.28613
13960000000 -13.575234 96.183693 -200 45 -30.42647 100.48329 -16.281359 142.23323
13970000000 -12.623981 99.210686 -200 45 -30.382801 32.898281 -16.328693 153.48637
13980000000 -11.654985 97.891304 -200 45 -30.608694 -32.776127 -15.739133 159.83968
13990000000 -10.988416 94.488358 -200 45 -30.623585 -98.844971 -14.821022 161.95206
14000000000 -10.646873 89.597458 -200 45 -30.79023 -164.39241 -13.819708 160.73483
14010000000 -10.580261 84.669022 -200 45 -30.671944 130.99219 -13.500918 157.05231
14020000000 -10.75933 79.719116 -200 45 -30.524162 64.275513 -13.021905 153.96503
14030000000 -11.373268 74.977737 -200 45 -30.563814 -1.8562655 -12.696167 149.06844
14040000000 -12.317781 73.522064 -200 45 -30.521542 -67.697609 -12.995537 142.34526
14050000000 -13.333191 76.37941 -200 45 -30.50177 -133.52077 -13.541544 138.3175
14060000000 -13.754916 83.215637 -200 45 -30.381023 159.75569 -14.52267 136.78912
14070000000 -13.238668 90.919746 -200 45 -30.414391 93.501854 -15.28496 138.35582
14080000000 -12.236784 92.897209 -200 45 -30.286015 27.011827 -15.469984 142.75754
14090000000 -11.215798 91.933189 -200 45 -30.392275 -39.75959 -15.674164 143.13469
14100000000 -10.53551 87.269997 -200 45 -30.373104 -105.22585 -16.128983 146.69363
14110000000 -10.185658 81.981438 -200 45 -30.340965 -171.6306 -15.673871 154.61104
14120000000 -10.208111 76.228905 -200 45 -30.239544 121.30174 -14.787873 157.69304
14130000000 -10.473985 70.473106 -200 45 -30.467381 54.573776 -13.20208 156.13092
14140000000 -11.177873 66.767273 -200 45 -30.406301 -11.203999 -12.313359 147.9843
14150000000 -12.072405 64.998138 -200 45 -30.481251 -76.690094 -12.368551 136.73643
14160000000 -12.990074 67.683876 -200 45 -30.345375 -142.23216 -13.366378 130.19466
14170000000 -13.433116 74.071625 -200 45 -30.228251 150.58884 -14.676384 127.59941
14180000000 -12.881909 79.727493 -200 45 -30.26819 84.150963 -15.855577 131.74501
14190000000 -12.013493 82.156166 -200 45 -30.183104 17.129019 -15.554608 138.49615
14200000000 -11.07735 79.948074 -200 45 -30.341457 -50.1031 -15.278445 136.05411
14210000000 -10.484583 75.516716 -200 45 -30.444921 -116.03225 -15.970285 132.18433
14220000000 -10.287309 70.036026 -200 45 -30.541655 178.17276 -17.372215 139.03264
14230000000 -10.302342 64.99231 -200 45 -30.531647 112.10646 -17.12133 151.89906
14240000000 -10.599495 59.708019 -200 45 -30.524166 46.202007 -15.097822 158.52266
14250000000 -11.234106 56.045498 -200 45 -30.543655 -20.702841 -13.165673 153.14557
14260000000 -12.029369 54.493443 -200 45 -30.594139 -86.318176 -12.32867 141.18491
14270000000 -12.857972 56.055706 -200 45 -30.690374 -152.62784 -12.739801 128.8409
14280000000 -13.222059 61.131035 -200 45 -30.610304 142.12088 -14.30124 122.07597
14290000000 -12.954501 66.263351 -200 45 -30.611458 74.991173 -15.727868 122.57561
14300000000 -12.209575 67.686935 -200 45 -30.71591 8.8754463 -16.689146 131.02704
14310000000 -11.559714 66.693291 -200 45 -30.736938 -56.597702 -15.790794 134.08206
14320000000 -11.067925 63.57692 -200 45 -30.698597 -123.11407 -15.598422 129.76208
14330000000 -10.760457 59.506413 -200 45 -30.828209 170.55431 -16.596649 122.94901
14340000000 -10.765779 54.779781 -200 45 -30.936485 104.8431 -18.8731 130.28015
14350000000 -10.915076 50.0797 -200 45 -30.87277 39.708 -18.655827 149.68904
14360000000 -11.537867 46.823734 -200 45 -30.927397 -26.679352 -16.022297 157.24669
14370000000 -12.116105 45.501724 -200 45 -30.938688 -91.834412 -13.903117 150.44051
14380000000 -12.664623 46.371552 -200 45 -30.836006 -157.84274 -13.021843 137.86497
14390000000 -13.194494 48.208065 -200 45 -30.793037 135.73695 -13.345092 124.41444
14400000000 -13.180684 52.792294 -200 45 -30.850534 69.797707 -14.914731 115.9584
14410000000 -12.891788 55.832958 -200 45 -30.848509 4.6008406 -16.781242 115.12452
14420000000 -12.125404 56.666355 -200 45 -30.743189 -61.769382 -17.755608 124.81936
14430000000 -11.498997 54.47942 -200 45 -30.535801 -127.97372 -17.161669 129.27655
14440000000 -11.134965 50.477535 -200 45 -30.646429 164.44887 -16.718435 125.07798
14450000000 -11.016913 46.608685 -200 45 -30.798298 98.806442 -17.78232 118.27373
14460000000 -11.076031 42.459263 -200 45 -30.668016 33.336277 -20.324575 124.56921
14470000000 -11.280327 39.088348 -200 45 -30.642918 -32.961277 -20.295841 146.80513
14480000000 -11.638529 35.638988 -200 45 -30.591999 -98.928902 -17.312868 157.92471
14490000000 -12.216861 33.519062 -200 45 -30.52103 -166.23882 -14.761065 149.60965
14500000000 -12.97047 34.145348 -200 45 -30.705509 127.50917 -13.58577 135.59088
14510000000 -13.330627 37.746853 -200 45 -30.75132 62.589142 -13.861554 119.79639
14520000000 -13.214224 42.338093 -200 45 -30.528442 -3.1799653 -15.384235 107.12998
14530000000 -12.540307 44.046692 -200 45 -30.464098 -70.609276 -18.091003 103.68551
14540000000 -11.946727 43.015667 -200 45 -30.486277 -136.42247 -20.077581 117.33752
14550000000 -11.412253 40.416313 -200 45 -30.417078 156.39517 -18.757078 126.52372
14560000000 -11.111663 36.102184 -200 45 -30.64995 89.625259 -18.181114 120.74295
14570000000 -10.983412 32.14827 -200 45 -30.664354 24.334705 -19.043299 112.07556
14580000000 -11.112534 26.992449 -200 45 -30.62812 -40.996498 -21.993387 112.70823
14590000000 -11.441659 22.042439 -200 45 -30.402945 -107.61797 -23.867392 146.1591
14600000000 -12.313611 18.679575 -200 45 -30.420694 -174.83524 -18.776962 161.7971
14610000000 -13.146248 18.096247 -200 45 -30.539572 118.85284 -15.469111 149.22839
14620000000 -14.170186 22.321753 -200 45 -30.542648 52.2355 -14.303794 129.64133
14630000000 -14.233788 29.212748 -200 45 -30.609459 -13.663383 -14.618136 110.95613
14640000000 -13.516305 33.729836 -200 45 -30.660435 -79.959854 -16.580385 93.201477
14650000000 -12.774943 34.530071 -200 45 -30.61244 -145.1998 -20.682335 86.3685
14660000000 -11.974103 31.853104 -200 45 -30.541773 146.94431 -22.927191 115.30023
14670000000 -11.592816 27.601587 -200 45 -30.75227 81.376099 -20.588301 123.00909
14680000000 -11.398791 22.654257 -200 45 -30.716692 15.074398 -19.34112 110.64341
14690000000 -11.353097 17.40794 -200 45 -30.85252 -50.523312 -20.955667 95.448822
14700000000 -11.824421 10.642932 -200 45 -30.711069 -115.90976 -26.605373 85.116791
14710000000 -12.699566 6.2642312 -200 45 -30.656155 177.48361 -28.55768 173.90683
14720000000 -14.088925 4.3109584 -200 45 -30.62466 110.7394 -19.403688 170.08752
14730000000 -15.349375 10.989046 -200 45 -30.844667 44.18177 -16.144945 146.16791
14740000000 -15.479123 20.344732 -200 45 -30.818998 -20.536142 -15.19375 120.955
14750000000 -14.603633 26.118322 -200 45 -30.695959 -87.450645 -16.217552 97.70208
14760000000 -13.60778 26.900295 -200 45 -30.836256 -153.73874 -19.015471 76.29911
14770000000 -12.91023 24.552652 -200 45 -30.924728 141.07527 -25.201721 75.692612
14780000000 -12.285523 20.650291 -200 45 -30.715239 75.263641 -26.093315 119.91254
14790000000 -11.979351 15.39464 -200 45 -30.667061 8.0263948 -21.786692 118.11948
14800000000 -11.892932 8.2487621 -200 45 -30.866711 -58.593456 -21.253504 95.57811
14810000000 -12.477814 1.0203305 -200 45 -30.882692 -123.42439 -24.414429 67.4179
14820000000 -13.584884 -4.8967485 -200 45 -30.882177 170.19872 -39.494648 24.304123
14830000000 -15.326389 -5.0453553 -200 45 -30.849865 104.85397 -25.353146 -158.40891
14840000000 -16.80665 3.9397044 -200 45 -30.697847 38.233555 -19.225313 166.39056
14850000000 -16.408113 15.291771 -200 45 -30.669201 -28.734602 -16.99419 137.35091
14860000000 -15.508991 20.715668 -200 45 -30.874393 -95.753288 -16.769442 107.20097
14870000000 -14.44243 20.951374 -200 45 -31.081888 -160.37009 -18.481703 80.346092
14880000000 -13.556323 19.199148 -200 45 -30.769999 134.76146 -22.488359 55.861298
14890000000 -12.938795 15.074294 -200 45 -30.79781 67.101936 -30.545496 59.417919
14900000000 -12.253448 8.961587 -200 45 -30.818066 1.627215 -29.469629 111.91344
14910000000 -12.329897 -0.07092578 -200 45 -30.786713 -64.530128 -26.0364 99.795395
14920000000 -12.961953 -8.4458017 -200 45 -30.729591 -130.65363 -26.127405 69.393013
14930000000 -14.349208 -14.342679 -200 45 -30.748478 162.84813 -30.954983 12.688856
14940000000 -16.198782 -13.303311 -200 45 -30.717552 97.250267 -30.664713 -100.57591
14950000000 -17.101475 -3.8936403 -200 45 -30.636528 29.689323 -23.672886 -159.82777
14960000000 -16.915451 3.5226181 -200 45 -30.857321 -36.351341 -20.843945 161.17126
14970000000 -16.288513 7.1213255 -200 45 -30.749573 -101.33618 -19.933939 131.04724
14980000000 -15.68343 8.8703804 -200 45 -30.698341 -169.11046 -20.04516 98.740959
14990000000 -14.960759 8.34062 -200 45 -30.68045 124.76469 -22.493567 66.493996
15000000000 -14.031651 5.3882465 -200 45 -30.704428 57.862495 -26.525391 37.742046
15010000000 -13.535732 -2.174783 -200 45 -30.723356 -9.468647 -34.802273 23.289703
15020000000 -13.653257 -11.320757 -200 45 -31.010355 -74.90107 -36.997982 30.834398
15030000000 -14.500555 -19.486277 -200 45 -31.048161 -140.22281 -40.37965 8.2397442
15040000000 -16.00683 -23.41086 -200 45 -30.84157 155.23129 -34.421417 -29.958481
15050000000 -17.469484 -19.915953 -200 45 -30.716648 87.607574 -28.696709 -78.252678
15060000000 -17.922979 -14.318833 -200 45 -30.687666 20.929527 -24.726488 -117.7563
15070000000 -17.936913 -10.320498 -200 45 -30.921131 -45.381756 -22.930508 -152.77893
15080000000 -17.915781 -7.1033635 -200 45 -30.809492 -110.75883 -22.437084 175.07838
15090000000 -17.588598 -5.5813508 -200 45 -30.825974 -177.4839 -23.080894 144.96404
15100000000 -17.161917 -2.475502 -200 45 -30.746603 116.49354 -24.613249 107.43151
15110000000 -16.014376 -4.7605348 -200 45 -30.774467 49.814293 -28.023689 63.219337
15120000000 -15.460301 -11.675169 -200 45 -30.776033 -17.106745 -30.433111 1.6785212
15130000000 -15.534931 -19.805027 -200 45 -30.942095 -83.351509 -30.986958 -51.165161
15140000000 -16.097977 -27.531176 -200 45 -31.031673 -148.61349 -29.520004 -78.879349
15150000000 -17.452127 -30.776672 -200 45 -30.874933 145.84811 -28.491392 -91.127319
15160000000 -18.241276 -29.67329 -200 45 -30.942284 78.493484 -27.156338 -95.432144
15170000000 -18.455687 -27.713686 -200 45 -31.101292 12.742043 -24.009323 -98.032722
15180000000 -18.840208 -29.607357 -200 45 -31.040932 -52.440098 -21.408339 -116.15308
15190000000 -19.448845 -30.30682 -200 45 -30.950748 -118.40841 -20.162327 -140.34856
15200000000 -20.374935 -25.785404 -200 45 -30.865992 175.265 -20.763636 -165.88623
15210000000 -20.000748 -17.53986 -200 45 -30.813717 107.97736 -22.888458 166.99461
15220000000 -18.567196 -16.231716 -200 45 -31.116987 41.013203 -27.77396 132.9718
15230000000 -17.572889 -22.576042 -200 45 -31.197485 -23.306709 -36.50526 26.082649
15240000000 -17.234468 -31.951462 -200 45 -31.097513 -88.713028 -28.189013 -59.822205
15250000000 -17.786821 -40.677757 -200 45 -30.872459 -155.5047 -24.305206 -87.146736
15260000000 -18.582621 -46.731472 -200 45 -31.071516 137.41666 -23.651615 -102.96267
15270000000 -19.500303 -49.316063 -200 45 -31.106684 72.755333 -23.390732 -107.02879
15280000000 -19.978443 -53.448967 -200 45 -30.97138 6.5135646 -22.280334 -103.22594
15290000000 -21.079222 -59.380817 -200 45 -30.994055 -60.645836 -20.020596 -107.91653
15300000000 -23.289135 -63.277149 -200 45 -31.018528 -125.98589 -18.26125 -121.83253
15310000000 -26.397064 -50.075474 -200 45 -30.940775 167.25684 -18.000193 -140.28494
15320000000 -25.469414 -22.043501 -200 45 -30.961414 100.56927 -19.28854 -159.33846
15330000000 -22.047977 -17.854761 -200 45 -31.166576 33.793739 -22.683376 -169.37666
15340000000 -20.036142 -27.299496 -200 45 -31.078445 -31.223852 -28.1889 -159.6216
15350000000 -19.226318 -40.522869 -200 45 -31.221592 -98.320915 -26.904404 -109.89697
15360000000 -19.320026 -52.34655 -200 45 -31.257038 -163.18797 -22.785109 -106.92152
