#Parameters = {g_w=0.1; m_th=0.01; lin_w=0.57; er=2.33; lamb=20; subs_th=0.2; subs_l=10; subs_w=10; Patch_length=6.3548709179955; Patch_width=5.7348835113618; x_shift=0.5; y_shift=0}
#"Frequency / GHz"	"Z1,1 [Re]"	"Z1,1 [Im]"
#-----------------------------------------
13.000000000000	21.669389471081	-396.39586691708
13.003999710083	21.775886418358	-395.25137662678
13.008000373840	21.777179969380	-394.13379227389
13.012000083923	21.674149352824	-393.03140530521
13.015999794006	21.468568025286	-391.93298112587
13.020000457764	21.164028846357	-390.82726612628
13.024000167847	20.764631193739	-389.70366561802
13.027999877930	20.275940755931	-388.55190519402
13.031999588013	19.704602974824	-387.36260113406
13.036000251770	19.057982362938	-386.12713407322
13.039999961853	18.344801492802	-384.83791264863
13.043999671936	17.574105303673	-383.48830161311
13.048000335693	16.755611332868	-382.07292326565
13.052000045776	15.899870531854	-380.58777141622
13.055999755859	15.017222661907	-379.02982763454
13.060000419617	14.118427390052	-377.39767137324
13.064000129700	13.214184795793	-375.69108924010
13.067999839783	12.314729322402	-373.91106652233
13.071999549866	11.430193399829	-372.05989373900
13.076000213623	10.569924334691	-370.14104979111
13.079999923706	9.7426918615163	-368.15878121862
13.083999633789	8.9565071831473	-366.11855069591
13.088000297546	8.2183531499311	-364.02639446402
13.092000007629	7.5345565815416	-361.88914017196
13.095999717712	6.9102527399325	-359.71388886176
13.100000381470	6.3495401951572	-357.50823891725
13.104000091553	5.8554092658241	-355.28005533290
13.107999801636	5.4302748492095	-353.03714247489
13.112000465393	5.0750749210174	-350.78737108756
13.116000175476	4.7901957319394	-348.53833708301
13.119999885559	4.5751346773730	-346.29752422974
13.123999595642	4.4283713326263	-344.07210610833
13.128000259399	4.3480426601941	-341.86872754920
13.131999969482	4.3313165212226	-339.69368879575
13.135999679565	4.3749167127533	-337.55279129335
13.140000343323	4.4752989395815	-335.45133599954
13.144000053406	4.6280317240422	-333.39390187210
13.147999763489	4.8288177254437	-331.38477584820
13.152000427246	5.0729152009649	-329.42750396629
13.156000137329	5.3552163760377	-327.52511114230
13.159999847412	5.6708452609074	-325.68008275128
13.163999557495	6.0143004891313	-323.89431485711
13.168000221252	6.3804998120532	-322.16926109099
13.171999931335	6.7641426023416	-320.50576312531
13.175999641418	7.1599349673316	-318.90420656296
13.180000305176	7.5628394761278	-317.36441835763
13.184000015259	7.9677481781480	-315.88577705177
13.187999725342	8.3697255493754	-314.46742332800
13.192000389099	8.7641131028614	-313.10780385978
13.196000099182	9.1462946864317	-311.80499241050
13.199999809265	9.5120414852035	-310.55683187953
13.204000473022	9.8574464815888	-309.36069356413
13.208000183105	10.178565713604	-308.21358492397
13.211999893188	10.472107031083	-307.11235167215
13.215999603271	10.734952639975	-306.05332793727
13.220000267029	10.964456858143	-305.03278511103
13.223999977112	11.158166721214	-304.04672412249
13.227999687195	11.314272512448	-303.09094475179
13.232000350952	11.431243961220	-302.16106445513
13.236000061035	11.508005980702	-301.25264440649
13.239999771118	11.543995806355	-300.36118338449
13.244000434875	11.539059207826	-299.48215505736
13.248000144958	11.493362098682	-298.61107256683
13.251999855042	11.407921870521	-297.74375248880
13.255999565125	11.283751762565	-296.87492583761
13.260000228882	11.122638887452	-296.00159484965
13.263999938965	10.926619377741	-295.11985064206
13.267999649048	10.698168347743	-294.22508220821
13.272000312805	10.439984498795	-293.31438174802
13.276000022888	10.155417329494	-292.38568927396
13.279999732971	9.8476584526015	-291.43547846387
13.284000396729	9.5204954443919	-290.46217360737
13.288000106812	9.1776324231895	-289.46322042635
13.291999816895	8.8230134445992	-288.43801323906
13.295999526978	8.4606534423611	-287.38612275315
13.300000190735	8.0944776778079	-286.30632985132
13.303999900818	7.7284611196574	-285.19946914360
13.307999610901	7.3664973023716	-284.06563054275
13.312000274658	7.0121943043086	-282.90617295020
13.315999984741	6.6690439048715	-281.72236548261
13.319999694824	6.3402432811452	-280.51582368345
13.324000358582	6.0289315188383	-279.28867069784
13.328000068665	5.7376136877926	-278.04324327938
13.331999778748	5.4686500356659	-276.78210051892
13.336000442505	5.2240640372549	-275.50801406445
13.340000152588	5.0054614526806	-274.22384208220
13.343999862671	4.8140715046974	-272.93268000475
13.347999572754	4.6508668361827	-271.63750806351
13.352000236511	4.5163561182347	-270.34145520654
13.355999946594	4.4107027513284	-269.04755775547
13.359999656677	4.3338124019588	-267.75880345275
13.364000320435	4.2852466551922	-266.47810744987
13.368000030518	4.2642672076883	-265.20826028896
13.371999740601	4.2698213836714	-263.95185851361
13.376000404358	4.3006502657015	-262.71141534940
13.380000114441	4.3553112676417	-261.48918347315
13.383999824524	4.4320928619243	-260.28725986975
13.387999534607	4.5290525638859	-259.10745479014
13.392000198364	4.6443393982027	-257.95141353483
13.395999908447	4.7757531172419	-256.82054069345
13.399999618530	4.9210146620517	-255.71600998223
13.404000282288	5.0779281993331	-254.63866052312
13.407999992371	5.2440693005997	-253.58919870744
13.411999702454	5.4171310848496	-252.56811372700
13.416000366211	5.5947012829578	-251.57551071202
13.420000076294	5.7745102997846	-250.61139007850
13.423999786377	5.9541676434050	-249.67547734620
13.428000450134	6.1313946215771	-248.76728832408
13.432000160217	6.3040812485611	-247.88610135708
13.435999870300	6.4701147343247	-247.03106149307
13.439999580383	6.6275823650580	-246.20101740587
13.444000244141	6.7745773995854	-245.39474057484
13.447999954224	6.9094579530222	-244.61079257080
13.451999664307	7.0306560451473	-243.84757507642
13.456000328064	7.1368683147421	-243.10339376604
13.460000038147	7.2267972589184	-242.37644146492
13.463999748230	7.2995911985027	-241.66471244409
13.468000411987	7.3543960261015	-240.96624663920
13.472000122070	7.3906180332415	-240.27901092015
13.475999832153	7.4079419776034	-239.60086517738
13.479999542236	7.4062419156172	-238.92970510474
13.484000205994	7.3855159529476	-238.26341396361
13.487999916077	7.3460818700178	-237.59993615572
13.491999626160	7.2884864261868	-236.93726125227
13.496000289917	7.2133786007690	-236.27341071227
13.500000000000	7.1216576490020	-235.60657310471
13.503999710083	7.0144667574116	-234.93502522166
13.508000373840	6.8929088381408	-234.25718386464
13.512000083923	6.7585294040168	-233.57157846051
13.515999794006	6.6127468982796	-232.87701328597
13.520000457764	6.4572669859582	-232.17234446528
13.524000167847	6.2938136776344	-231.45676806534
13.527999877930	6.1240754662266	-230.72950507156
13.531999588013	5.9500124046542	-229.99017451007
13.536000251770	5.7734165741317	-229.23845933299
13.539999961853	5.5960713219680	-228.47433186850
13.543999671936	5.4199446007490	-227.69786813644
13.548000335693	5.2466601136732	-226.90948424752
13.552000045776	5.0779797108381	-226.10967246286
13.555999755859	4.9154773858863	-225.29913115662
13.560000419617	4.7606042280752	-224.47867097151
13.564000129700	4.6147856226702	-223.64938581936
13.567999839783	4.4792212498155	-222.81233035874
13.571999549866	4.3549875190328	-221.96876155642
13.576000213623	4.2429322585491	-221.12005111947
13.579999923706	4.1439072470239	-220.26752541341
13.583999633789	4.0584545392705	-219.41263387037
13.588000297546	3.9869636299517	-218.55689953645
13.592000007629	3.9296888338291	-217.70181013364
13.595999717712	3.8867954666716	-216.84883031896
13.600000381470	3.8580818101889	-215.99942526590
13.604000091553	3.8433971363588	-215.15502182782
13.607999801636	3.8423490259879	-214.31700836039
13.612000465393	3.8544443234357	-213.48668244046
13.616000175476	3.8789931968006	-212.66524763781
13.619999885559	3.9152888682359	-211.85389907567
13.623999595642	3.9624154555016	-211.05364903550
13.628000259399	4.0194720808379	-210.26538742566
13.631999969482	4.0854632765563	-209.49002752536
13.635999679565	4.1591818727177	-208.72818722897
13.640000343323	4.2395837837340	-207.98047061997
13.644000053406	4.3253706992980	-207.24739731912
13.647999763489	4.4154137031079	-206.52922847404
13.652000427246	4.5084249472529	-205.82616077461
13.656000137329	4.6031523330575	-205.13829467007
13.659999847412	4.6984076843516	-204.46558850069
13.663999557495	4.7929039774617	-203.80785072161
13.668000221252	4.8855316026159	-203.16480546455
13.671999931335	4.9750913968491	-202.53600951144
13.675999641418	5.0605572332329	-201.92099653294
13.680000305176	5.1408297268323	-201.31912431272
13.684000015259	5.2150197960464	-200.72965711653
13.687999725342	5.2821947529484	-200.15184300596
13.692000389099	5.3416275868380	-199.58474550399
13.696000099182	5.3925901854844	-199.02744225183
13.699999809265	5.4345217535658	-198.47891905014
13.704000473022	5.4669550937495	-197.93809847670
13.708000183105	5.4894847066505	-197.40393088002
13.711999893188	5.5019064908611	-196.87520349150
13.715999603271	5.5040430521007	-196.35086483324
13.720000267029	5.4959252837831	-195.82976343366
13.723999977112	5.4776050823583	-195.31076494986
13.727999687195	5.4493685641974	-194.79272985681
13.732000350952	5.4114914189403	-194.27462354984
13.736000061035	5.3643935397722	-193.75540253199
13.739999771118	5.3086796677657	-193.23412661650
13.744000434875	5.2449223243477	-192.70988467221
13.748000144958	5.1738554331743	-192.18187900803
13.751999855042	5.0963007825548	-191.64935753117
13.755999565125	5.0130812053256	-191.11169520409
13.760000228882	4.9251093315132	-190.56840243896
13.763999938965	4.8333301981059	-190.01895367293
13.767999649048	4.7388030886654	-189.46312646499
13.772000312805	4.6424394426855	-188.90067749181
13.776000022888	4.5453027506378	-188.33147156894
13.779999732971	4.4483858926375	-187.75559325458
13.784000396729	4.3526582410119	-187.17308607204
13.788000106812	4.2590990707480	-186.58424677140
13.791999816895	4.1685965925738	-185.98930384281
13.795999526978	4.0820193865984	-185.38876340032
13.800000190735	4.0001771565458	-184.78314193805
13.803999900818	3.9237923322049	-184.17295909194
13.807999610901	3.8534960970534	-183.55884337149
13.812000274658	3.7899375086784	-182.94153431847
13.815999984741	3.7334975669700	-182.32178968984
13.819999694824	3.6846405832790	-181.70040875454
13.824000358582	3.6436815687025	-181.07818362521
13.828000068665	3.6107746083512	-180.45598567854
13.831999778748	3.5861122382435	-179.83460895757
13.836000442505	3.5696540691176	-179.21495455142
13.840000152588	3.5613480406842	-178.59783595262
13.843999862671	3.5610757477876	-177.98404379399
13.847999572754	3.5685778424109	-177.37437589349
13.852000236511	3.5835300606356	-176.76956585606
13.855999946594	3.6055903298740	-176.17035114823
13.859999656677	3.6342669329891	-175.57735073662
13.864000320435	3.6690374297682	-174.99113347730
13.868000030518	3.7093669571521	-174.41227947435
13.871999740601	3.7546200702791	-173.84125430468
13.876000404358	3.8041427691250	-173.27842794030
13.880000114441	3.8572573998912	-172.72410500497
13.883999824524	3.9132116732077	-172.17858714084
13.887999534607	3.9713160017976	-171.64200733575
13.892000198364	4.0307939874592	-171.11448568541
13.895999908447	4.0909462908387	-170.59603647237
13.899999618530	4.1509939187028	-170.08661292606
13.904000282288	4.2102311497548	-169.58606710774
13.907999992371	4.2679518494243	-169.09418050968
13.911999702454	4.3234662044472	-168.61072075691
13.916000366211	4.3761473380863	-168.13538346637
13.920000076294	4.4253671785856	-167.66768056913
13.923999786377	4.4705702353144	-167.20722580939
13.928000450134	4.5112720719718	-166.75346183785
13.932000160217	4.5470174112565	-166.30584920651
13.935999870300	4.5774148105311	-165.86379390324
13.939999580383	4.6020925947295	-165.42667990881
13.944000244141	4.6208425175561	-164.99382544145
13.947999954224	4.6334552796075	-164.56456194723
13.951999664307	4.6397794943733	-164.13816652672
13.956000328064	4.6398329349054	-163.71395134718
13.960000038147	4.6335883941102	-163.29127206445
13.963999748230	4.6211656188336	-162.86937917388
13.968000411987	4.6027451919015	-162.44759270843
13.972000122070	4.5785410334297	-162.02532161297
13.975999832153	4.5488471726835	-161.60187400840
13.979999542236	4.5140489301925	-161.17674991437
13.984000205994	4.4745552657409	-160.74938934273
13.987999916077	4.4307944414116	-160.31930473964
13.991999626160	4.3833334241620	-159.88606971519
13.996000289917	4.3327089326640	-159.44932187755
14.000000000000	4.2794641881231	-159.00875415619
14.003999710083	4.2242637868513	-158.56412658688
14.008000373840	4.1676790459845	-158.11528713903
14.012000083923	4.1103852352683	-157.66207607020
14.015999794006	4.0529647114080	-157.20452259924
14.020000457764	3.9960895666470	-156.74265419851
14.024000167847	3.9403420081497	-156.27655658738
14.027999877930	3.8863481733306	-155.80640871705
14.031999588013	3.8346407867426	-155.33238693066
14.036000251770	3.7857658534999	-154.85484308477
14.039999961853	3.7402295217079	-154.37406079488
14.043999671936	3.6984670912599	-153.89046331364
14.048000335693	3.6608747853111	-153.40442603879
14.052000045776	3.6277996258187	-152.91650522986
14.055999755859	3.5995532662169	-152.42708721244
14.060000419617	3.5763589917447	-151.93673249159
14.064000129700	3.5583964722500	-151.44596073453
14.067999839783	3.5457956069629	-150.95533633316
14.071999549866	3.5385909113775	-150.46541026155
14.076000213623	3.5368020666466	-149.97667514654
14.079999923706	3.5403661898119	-149.48975984114
14.083999633789	3.5491875157051	-149.00511844301
14.088000297546	3.5630562668912	-148.52327717105
14.092000007629	3.5817753751424	-148.04470951029
14.095999717712	3.6050866687912	-147.56986304239
14.100000381470	3.6326618090506	-147.09917053045
14.104000091553	3.6641472409827	-146.63301403977
14.107999801636	3.6991751297480	-146.17171764521
14.112000465393	3.7373196437616	-145.71560668484
14.116000175476	3.7781150241913	-145.26490060558
14.119999885559	3.8211097894525	-144.81979875037
14.123999595642	3.8658072589912	-144.38047778268
14.128000259399	3.9117288645657	-143.94701823665
14.131999969482	3.9583798019007	-143.51947338278
14.135999679565	4.0052497926982	-143.09785098158
14.140000343323	4.0518336021181	-142.68207715091
14.144000053406	4.0976288458038	-142.27201746104
14.147999763489	4.1422072882413	-141.86757657626
14.152000427246	4.1850871197435	-141.46852084753
14.156000137329	4.2258318179552	-141.07460836425
14.159999847412	4.2640313222849	-140.68555029961
14.163999557495	4.2993478243908	-140.30100360225
14.168000221252	4.3314385056218	-139.92058775682
14.171999931335	4.3599903901721	-139.54396061390
14.175999641418	4.3847605742447	-139.17067035206
14.180000305176	4.4055344712913	-138.80026646684
14.184000015259	4.4221712428398	-138.43229112643
14.187999725342	4.4345572302862	-138.06625044371
14.192000389099	4.4426043287759	-137.70166940044
14.196000099182	4.4463405061067	-137.33805641609
14.199999809265	4.4457628945962	-136.97495490805
14.204000473022	4.4409830974188	-136.61183714913
14.208000183105	4.4321602159686	-136.24829142546
14.211999893188	4.4194490254191	-135.88382401701
14.215999603271	4.4030866697296	-135.51803817906
14.220000267029	4.3833392495068	-135.15052603769
14.223999977112	4.3605095466907	-134.78094752604
14.227999687195	4.3349539402833	-134.40895925687
14.232000350952	4.3070463794925	-134.03428367688
14.236000061035	4.2771694643193	-133.65666457346
14.239999771118	4.2457656073688	-133.27590068065
14.244000434875	4.2132675769424	-132.89186143715
14.248000144958	4.1800983673038	-132.50441755101
14.251999855042	4.1467226083531	-132.11354171714
14.255999565125	4.1136195290114	-131.71919684527
14.260000228882	4.0811997637487	-131.32142053232
14.263999938965	4.0499069685933	-130.92032199402
14.267999649048	4.0201504189585	-130.51603118511
14.272000312805	3.9923550757577	-130.10869728951
14.276000022888	3.9668811785839	-129.69857095287
14.279999732971	3.9440971136564	-129.28587833773
14.284000396729	3.9242922938071	-128.87091222186
14.288000106812	3.9077507174565	-128.45397242323
14.291999816895	3.8947129896158	-128.03542224724
14.295999526978	3.8853999315415	-127.61561462723
14.300000190735	3.8799664237236	-127.19490961163
14.303999900818	3.8785302163773	-126.77376003539
14.307999610901	3.8811653946287	-126.35247508971
14.312000274658	3.8878862328413	-125.93140397236
14.315999984741	3.8987154291847	-125.51120298665
14.319999694824	3.9135833979665	-125.09205547401
14.324000358582	3.9323941774191	-124.67431709164
14.328000068665	3.9550159169615	-124.25855781540
14.331999778748	3.9812766104352	-123.84484615650
14.336000442505	4.0109652719933	-123.43366599407
14.340000152588	4.0438495399570	-123.02533662775
14.343999862671	4.0796630878305	-122.62007798572
14.347999572754	4.1180992685350	-122.21825894663
14.352000236511	4.1588357660835	-121.81995776283
14.355999946594	4.2015540423321	-121.42529124558
14.359999656677	4.2458714276811	-121.03457249320
14.364000320435	4.2914536129644	-120.64773899055
14.368000030518	4.3378947224189	-120.26501457198
14.371999740601	4.3848301165561	-119.88621044923
14.376000404358	4.4318865076545	-119.51155571628
14.380000114441	4.4786754151215	-119.14083950177
14.383999824524	4.5248309829554	-118.77404280678
14.387999534607	4.5700021267826	-118.41093855145
14.392000198364	4.6138218138215	-118.05131726072
14.395999908447	4.6560122671412	-117.69518641308
14.399999618530	4.6962497006005	-117.34213629003
14.404000282288	4.7342373666795	-116.99193949864
14.407999992371	4.7697468717427	-116.64427895382
14.411999702454	4.8025600098765	-116.29892756350
14.416000366211	4.8324890601794	-115.95544181364
14.420000076294	4.8594039092906	-115.61359308822
14.423999786377	4.8831495978243	-115.27278720325
14.428000450134	4.9037074990533	-114.93296024508
14.432000160217	4.9210082343447	-114.59338844685
14.435999870300	4.9350629387909	-114.25386816737
14.439999580383	4.9459217708049	-113.91405383117
14.444000244141	4.9536694875798	-113.57344783659
14.447999954224	4.9584286356353	-113.23173451518
14.451999664307	4.9603575986356	-112.88856491308
14.456000328064	4.9596418966494	-112.54359784028
14.460000038147	4.9565228165714	-112.19652147747
14.463999748230	4.9512506837308	-111.84705244513
14.468000411987	4.9440974011154	-111.49493328553
14.472000122070	4.9353845370871	-111.13990801557
14.475999832153	4.9254419328566	-110.78183687112
14.479999542236	4.9146078537429	-110.42052741883
14.484000205994	4.9032248604337	-110.05587605210
14.487999916077	4.8916816091322	-109.68780827347
14.491999626160	4.8803300233678	-109.31624044621
14.496000289917	4.8695519494599	-108.94121309481
14.500000000000	4.8596863354279	-108.56275004519
14.503999710083	4.8511004576236	-108.18090878350
14.508000373840	4.8441457397149	-107.79581115885
14.512000083923	4.8391314194776	-107.40759116965
14.515999794006	4.8363794308581	-107.01642154052
14.520000457764	4.8361589278630	-106.62251813492
14.524000167847	4.8387494816332	-106.22607919175
14.527999877930	4.8443288501846	-105.82739078391
14.531999588013	4.8531478757282	-105.42672033445
14.536000251770	4.8653500361323	-105.02434521133
14.539999961853	4.8810727770538	-104.62059892574
14.543999671936	4.9004188017500	-104.21575204136
14.548000335693	4.9234286482959	-103.81016053932
14.552000045776	4.9501403761140	-103.40411834520
14.555999755859	4.9805578071368	-102.99798163976
14.560000419617	5.0146280201303	-102.59202910247
14.564000129700	5.0522649147881	-102.18659186573
14.567999839783	5.0933657189921	-101.78194099852
14.571999549866	5.1377986205611	-101.37838334789
14.576000213623	5.1853749760246	-100.97616093799
14.579999923706	5.2359197319162	-100.57553277316
14.583999633789	5.2891821341710	-100.17668451124
14.588000297546	5.3449351400599	-99.779835646746
14.592000007629	5.4029279969332	-99.385139579518
14.595999717712	5.4628523728718	-98.992728072825
14.600000381470	5.5244209504930	-98.602714716586
14.604000091553	5.5873359388998	-98.215143238340
