!Keysight Technologies,P9374A,MY57211810,A.19.30.04
!Date: Friday, May 02, 2025 09:38:07
!Correction: S11(Off) 
!S21(Off) 
!S12(Off) 
!S22(Off) 
!S2P File: Measurements: S11, S21, S12, S22:
# Hz S  dB   R 50
13000000000 -13.824171 107.08345 -200 45 -12.694876 -164.2262 -14.333811 -177.56512
13010000000 -14.19834 114.96875 -200 45 -12.565971 136.70253 -18.784111 -159.01743
13020000000 -14.038247 115.08818 -200 45 -12.622318 77.48909 -17.558464 -128.55791
13030000000 -14.072434 117.25755 -200 45 -12.738562 18.490538 -14.383464 -120.51227
13040000000 -13.401664 113.70333 -200 45 -12.93802 -39.418282 -11.808191 -128.08699
13050000000 -14.325066 105.42554 -200 45 -13.04289 -97.119034 -10.916263 -143.23991
13060000000 -16.74151 113.26566 -200 45 -13.012853 -153.96854 -11.855771 -157.48799
13070000000 -15.41601 131.75017 -200 45 -12.938623 147.55315 -14.408836 -161.61383
13080000000 -13.71817 131.19028 -200 45 -12.903936 88.971001 -16.236717 -143.67009
13090000000 -12.478127 129.43369 -200 45 -13.14465 30.004776 -13.510185 -129.06581
13100000000 -10.975196 123.03694 -200 45 -13.364397 -27.771942 -10.87089 -139.15074
13110000000 -10.384814 108.6519 -200 45 -13.565846 -83.731827 -10.328273 -159.67372
13120000000 -11.426215 95.374275 -200 45 -13.386044 -139.95348 -12.652034 178.46777
13130000000 -13.433313 89.825455 -200 45 -13.195808 162.0358 -20.169336 176.22157
13140000000 -15.183622 90.925056 -200 45 -13.199445 103.11536 -18.163328 -108.6222
13150000000 -17.771475 102.05705 -200 45 -13.320697 44.952801 -12.213511 -117.35959
13160000000 -16.337528 124.86183 -200 45 -13.433524 -12.3363 -10.198209 -136.84567
13170000000 -13.719403 123.22455 -200 45 -13.4132 -68.90432 -10.406268 -155.9361
13180000000 -13.518104 115.27592 -200 45 -13.278655 -126.17153 -12.672315 -167.70229
13190000000 -13.380028 116.34971 -200 45 -13.119061 175.6454 -15.242384 -156.95599
13200000000 -12.661794 113.53621 -200 45 -13.128375 117.11636 -13.929727 -143.36325
13210000000 -12.881073 106.61552 -200 45 -13.133632 59.090809 -12.434999 -146.34003
13220000000 -13.417013 110.21702 -200 45 -13.166558 1.2366084 -11.691566 -152.93887
13230000000 -12.417056 109.38209 -200 45 -13.197704 -56.365246 -11.34495 -164.56844
13240000000 -12.090672 100.35719 -200 45 -13.136094 -113.40031 -12.836245 178.81194
13250000000 -13.406141 94.342468 -200 45 -12.989781 -171.46268 -18.39695 174.44806
13260000000 -14.297902 95.20668 -200 45 -12.921924 130.07506 -18.751661 -125.18021
13270000000 -15.895403 95.051308 -200 45 -12.993868 71.70285 -12.977646 -126.5706
13280000000 -17.709347 113.52728 -200 45 -12.997982 14.058254 -10.881038 -141.97629
13290000000 -14.715003 130.39429 -200 45 -13.003377 -43.306625 -10.437267 -157.85387
13300000000 -12.845008 123.91614 -200 45 -12.84857 -100.75729 -11.575047 -173.24387
13310000000 -12.343381 119.7735 -200 45 -12.700837 -159.27434 -15.024448 -175.32823
13320000000 -11.382968 116.9812 -200 45 -12.696248 141.57185 -14.865897 -147.33772
13330000000 -10.912717 106.0459 -200 45 -12.879979 83.399872 -11.298761 -151.13918
13340000000 -12.014863 97.761467 -200 45 -12.920017 26.681398 -10.405769 -169.96898
13350000000 -13.121599 99.19001 -200 45 -12.745124 -30.41629 -11.737861 173.07899
13360000000 -13.276171 99.926559 -200 45 -12.556642 -88.70282 -15.056547 164.91495
13370000000 -14.407055 98.178299 -200 45 -12.43506 -147.60719 -19.308067 -173.27316
13380000000 -15.241207 108.64447 -200 45 -12.431721 153.18532 -15.84933 -140.00139
13390000000 -14.391531 113.46986 -200 45 -12.540966 94.545074 -12.096466 -148.07042
13400000000 -14.615391 116.8351 -200 45 -12.599092 36.570683 -11.074161 -163.79504
13410000000 -13.329424 126.13364 -200 45 -12.613038 -21.332741 -11.576011 -175.23552
13420000000 -11.371142 121.58983 -200 45 -12.659478 -79.40287 -12.748069 178.40128
13430000000 -10.965964 110.23365 -200 45 -12.627216 -137.47853 -14.438745 -177.9903
13440000000 -11.431499 106.08283 -200 45 -12.729308 163.83052 -13.649955 -163.47998
13450000000 -11.338688 100.35789 -200 45 -12.839322 106.23759 -11.135452 -169.13367
13460000000 -12.300643 91.019066 -200 45 -12.885001 49.474987 -10.723444 173.79129
13470000000 -14.893453 91.821121 -200 45 -12.728004 -7.9143887 -12.532582 160.63429
13480000000 -15.360159 107.61565 -200 45 -12.623087 -66.541496 -15.044438 161.39818
13490000000 -14.489385 111.59756 -200 45 -12.58396 -125.33919 -16.944603 171.78951
13500000000 -14.223927 115.0757 -200 45 -12.677982 175.81604 -16.772261 -164.67088
13510000000 -12.972805 116.39027 -200 45 -12.857043 117.45612 -13.262984 -158.75996
13520000000 -12.720863 108.55927 -200 45 -13.030473 60.306973 -11.404975 -171.87715
13530000000 -13.662731 109.45899 -200 45 -13.022092 3.4057558 -11.720895 175.16629
13540000000 -13.209632 115.77156 -200 45 -13.009534 -54.221519 -12.773728 170.93814
13550000000 -12.161426 111.98418 -200 45 -12.980225 -112.02951 -13.595348 170.93047
13560000000 -12.453884 107.24932 -200 45 -12.999177 -169.95277 -14.11399 177.05972
13570000000 -12.139034 108.05376 -200 45 -13.066373 132.28516 -12.680964 -177.79796
13580000000 -11.799782 100.64026 -200 45 -13.140202 75.3694 -11.273845 171.48035
13590000000 -13.182639 91.939682 -200 45 -13.06595 18.500462 -12.07189 155.17619
13600000000 -15.329431 98.160103 -200 45 -12.886583 -38.92104 -15.266731 149.29437
13610000000 -15.452068 111.21481 -200 45 -12.76877 -97.695999 -17.625038 170.17073
13620000000 -14.775755 119.74439 -200 45 -12.75893 -156.3114 -15.836272 -171.69557
13630000000 -12.945701 126.97751 -200 45 -12.901504 145.45851 -13.122828 -170.93524
13640000000 -10.974943 119.42664 -200 45 -13.002347 88.398247 -11.733769 177.21906
13650000000 -10.735592 108.38305 -200 45 -12.929894 31.801388 -12.366356 166.13908
13660000000 -11.5383 103.12246 -200 45 -12.784037 -26.295134 -13.481601 168.58121
13670000000 -11.670547 101.41415 -200 45 -12.733905 -84.202354 -12.482638 170.2872
13680000000 -12.597537 96.031036 -200 45 -12.64328 -142.07471 -12.309255 160.85138
13690000000 -14.030067 103.21408 -200 45 -12.511479 159.61784 -13.682158 159.62526
13700000000 -12.909396 112.87289 -200 45 -12.535261 100.61375 -13.051478 165.52805
13710000000 -11.836547 107.36994 -200 45 -12.604906 42.791206 -12.247798 156.08086
13720000000 -12.2131 103.02805 -200 45 -12.579286 -15.148422 -13.819857 144.52147
13730000000 -12.367082 102.71514 -200 45 -12.527903 -73.455116 -16.788071 151.50688
13740000000 -12.782312 99.964088 -200 45 -12.519471 -132.04018 -16.713802 173.39584
13750000000 -13.83969 105.47381 -200 45 -12.60249 169.21539 -14.125508 -177.10092
13760000000 -12.74305 115.63427 -200 45 -12.767659 111.117 -11.615895 175.65363
13770000000 -11.24483 111.172 -200 45 -12.901282 53.910419 -10.928882 159.22131
13780000000 -11.024503 105.28156 -200 45 -12.885961 -3.3703187 -12.677583 147.14552
13790000000 -10.627891 102.29076 -200 45 -12.884501 -61.431076 -14.576771 156.50897
13800000000 -10.321494 93.267578 -200 45 -12.933091 -118.90604 -12.900646 164.09116
13810000000 -11.575646 83.335701 -200 45 -12.927828 -176.29732 -11.830403 154.95419
13820000000 -13.599582 85.666473 -200 45 -12.91976 126.2302 -12.259727 144.23196
13830000000 -14.14439 94.57814 -200 45 -12.804343 68.364105 -13.904263 136.35164
13840000000 -14.060887 100.22367 -200 45 -12.779988 10.057984 -16.855253 141.15416
13850000000 -13.299016 108.95199 -200 45 -12.794849 -48.59005 -16.641066 166.01302
13860000000 -11.585946 105.8877 -200 45 -12.949409 -106.53804 -14.147654 165.76573
13870000000 -11.280407 99.081322 -200 45 -13.002804 -163.72279 -14.27789 158.6069
13880000000 -11.49165 96.862305 -200 45 -12.991902 138.38432 -14.58779 166.51079
13890000000 -11.002667 94.582199 -200 45 -13.086803 80.476234 -12.436516 166.81892
13900000000 -11.243569 86.893707 -200 45 -13.149548 23.180838 -11.83774 153.14192
13910000000 -12.183443 86.557213 -200 45 -13.074292 -34.098724 -13.391816 146.12172
13920000000 -11.994506 89.522781 -200 45 -13.08917 -92.432068 -13.850238 153.21198
13930000000 -11.802636 83.955132 -200 45 -13.178758 -149.80809 -12.941814 150.62622
13940000000 -12.944973 81.824547 -200 45 -13.185769 152.69481 -13.371137 143.09486
13950000000 -13.609112 87.467514 -200 45 -13.178156 95.105316 -14.271437 140.9279
13960000000 -13.311778 91.46653 -200 45 -13.155771 37.547817 -15.300433 138.08824
13970000000 -13.412626 95.567017 -200 45 -13.118341 -20.572355 -17.77523 145.95737
13980000000 -12.125501 101.1404 -200 45 -13.207544 -78.654694 -16.350685 170.47823
13990000000 -10.90214 96.398399 -200 45 -13.351996 -136.10852 -13.461105 165.37892
14000000000 -10.636209 90.160858 -200 45 -13.390654 167.31201 -13.41499 153.0108
14010000000 -10.515343 86.923805 -200 45 -13.347428 110.117 -14.425707 154.17488
14020000000 -10.202257 79.874451 -200 45 -13.339518 52.841389 -13.393368 158.99098
14030000000 -11.095361 71.145607 -200 45 -13.264566 -3.7137275 -12.33584 151.18364
14040000000 -12.927737 71.26812 -200 45 -13.078259 -61.141342 -12.597182 142.24197
14050000000 -13.398715 79.351791 -200 45 -12.935702 -118.84515 -13.364325 136.03392
14060000000 -13.583947 81.903595 -200 45 -12.782871 -177.1461 -14.854859 132.78912
14070000000 -13.611315 91.05439 -200 45 -12.685621 124.12362 -16.098112 143.17339
14080000000 -12.065791 94.887711 -200 45 -12.718819 65.571358 -14.663364 147.30476
14090000000 -11.100383 90.511032 -200 45 -12.721947 7.6639247 -14.851099 137.17464
14100000000 -10.722757 87.668686 -200 45 -12.730667 -50.316177 -17.288122 142.67807
14110000000 -9.973937 83.490417 -200 45 -12.768808 -108.55995 -15.872925 161.64494
14120000000 -9.9254351 74.188354 -200 45 -12.808688 -166.1149 -13.876935 157.05156
14130000000 -10.794096 68.867584 -200 45 -12.774705 136.34523 -13.599236 152.4532
14140000000 -11.305229 68.956947 -200 45 -12.733207 78.383255 -12.599314 150.34735
14150000000 -11.732987 64.564476 -200 45 -12.756874 20.816113 -11.944334 138.29509
14160000000 -13.278412 64.604576 -200 45 -12.615036 -37.020142 -13.387486 125.96564
14170000000 -13.892746 77.098335 -200 45 -12.601171 -95.648392 -15.404893 130.73967
14180000000 -12.510256 82.03653 -200 45 -12.637485 -153.9173 -15.013859 135.36281
14190000000 -11.82819 81.20433 -200 45 -12.681019 148.23628 -15.478738 131.99698
14200000000 -10.966731 80.191704 -200 45 -12.735855 90.223274 -16.075809 137.96736
14210000000 -10.249265 74.17894 -200 45 -12.78493 32.753345 -15.409321 137.24522
14220000000 -10.365976 67.28801 -200 45 -12.762737 -24.911167 -16.846239 131.98825
14230000000 -10.757498 64.193359 -200 45 -12.72425 -82.779251 -18.273832 154.56361
14240000000 -10.760633 61.142036 -200 45 -12.794809 -141.05276 -14.440145 162.68268
14250000000 -11.418273 56.230244 -200 45 -12.851863 161.50514 -12.722634 149.3243
14260000000 -12.340528 58.423832 -200 45 -12.852916 104.37341 -12.832467 138.99231
14270000000 -12.109303 60.879211 -200 45 -12.799826 46.377079 -13.006619 132.21202
14280000000 -12.118487 57.405663 -200 45 -12.812867 -10.9336 -13.82388 122.48222
14290000000 -13.125385 57.980976 -200 45 -12.697318 -68.953079 -16.036135 122.10508
14300000000 -13.08571 65.871094 -200 45 -12.702837 -127.37038 -16.145876 132.94475
14310000000 -12.131269 68.104553 -200 45 -12.776904 174.43144 -15.54324 128.58647
14320000000 -11.551504 67.430267 -200 45 -12.823316 116.66493 -16.900553 127.85864
14330000000 -10.530562 65.022926 -200 45 -12.954669 58.944519 -16.559393 135.58992
14340000000 -10.012276 56.727081 -200 45 -12.990543 1.7648032 -16.411552 127.76099
14350000000 -10.302835 48.264801 -200 45 -12.983288 -55.330681 -20.088247 131.45723
14360000000 -11.076828 43.472271 -200 45 -12.936462 -113.05914 -17.274891 168.93562
14370000000 -11.998464 38.529827 -200 45 -12.954225 -170.39911 -12.886954 155.94165
14380000000 -13.993534 39.699711 -200 45 -12.920582 132.29051 -12.205028 134.2486
14390000000 -14.803815 56.098015 -200 45 -12.78078 74.648979 -13.641367 120.18504
14400000000 -12.787234 63.26672 -200 45 -12.766485 16.329412 -15.256065 116.15603
14410000000 -11.639226 59.035103 -200 45 -12.736427 -41.365089 -17.016357 115.73222
14420000000 -11.193107 53.993828 -200 45 -12.737197 -99.404678 -18.02087 129.67668
14430000000 -10.958458 48.777481 -200 45 -12.744105 -157.02725 -15.937841 131.96164
14440000000 -11.437691 42.923203 -200 45 -12.698388 145.54604 -15.960513 115.37818
14450000000 -12.127381 43.51889 -200 45 -12.600965 87.433517 -19.949093 109.5069
14460000000 -12.045074 46.015354 -200 45 -12.579012 29.045704 -20.700571 144.75922
14470000000 -11.713744 44.897594 -200 45 -12.611418 -29.209475 -17.765688 146.4225
14480000000 -11.318485 43.715878 -200 45 -12.678053 -86.930954 -17.405003 144.51854
14490000000 -10.920459 37.610176 -200 45 -12.694836 -144.71552 -15.993587 148.88538
14500000000 -11.333959 29.147173 -200 45 -12.721115 157.56473 -14.17644 139.60312
14510000000 -13.246879 24.591387 -200 45 -12.729331 100.09809 -13.754234 125.50288
14520000000 -14.828958 35.045124 -200 45 -12.635791 42.517483 -14.369531 110.8746
14530000000 -14.041923 48.971222 -200 45 -12.594295 -15.719759 -16.549421 94.858284
14540000000 -12.387075 51.261921 -200 45 -12.611822 -74.240845 -22.947166 99.760483
14550000000 -10.865609 48.351933 -200 45 -12.742346 -132.28465 -19.55961 148.35515
14560000000 -9.9520998 38.920994 -200 45 -12.866722 170.45308 -15.711243 127.63622
14570000000 -9.8346395 28.659737 -200 45 -12.824505 113.76932 -17.098198 97.805855
14580000000 -10.660862 19.082668 -200 45 -12.691198 56.247265 -25.75424 89.208282
14590000000 -11.931977 13.527103 -200 45 -12.588999 -1.8052202 -22.82114 169.45531
14600000000 -13.915783 14.402264 -200 45 -12.564482 -60.327229 -17.647903 160.17818
14610000000 -14.858067 26.915331 -200 45 -12.577213 -118.55811 -15.283201 147.00363
14620000000 -13.510798 35.583549 -200 45 -12.650626 -176.70857 -13.936746 127.68025
14630000000 -12.550084 31.82926 -200 45 -12.69874 125.73524 -14.860208 104.08388
14640000000 -12.55272 28.127518 -200 45 -12.658542 67.987885 -18.611015 92.882805
14650000000 -12.595735 27.775045 -200 45 -12.695254 9.8986883 -20.169477 109.6525
14660000000 -12.520666 25.975784 -200 45 -12.735195 -48.099503 -19.392254 104.28806
14670000000 -12.519216 25.941589 -200 45 -12.781163 -105.83084 -22.206041 99.288048
14680000000 -12.213893 26.025278 -200 45 -12.804692 -163.7933 -22.373596 122.84235
14690000000 -11.59509 22.698757 -200 45 -12.884288 138.67177 -20.08672 111.7698
14700000000 -11.444314 16.430433 -200 45 -12.949817 81.111397 -23.33197 89.006119
14710000000 -11.777672 8.7477942 -200 45 -12.983946 23.873592 -32.173912 156.42654
14720000000 -12.931911 1.2113274 -200 45 -12.946603 -33.684074 -20.473742 173.73521
14730000000 -15.180619 0.77081466 -200 45 -12.967647 -91.340927 -16.487757 152.04886
14740000000 -16.708733 14.810444 -200 45 -13.006902 -148.86409 -14.76799 127.34456
14750000000 -15.743239 30.66823 -200 45 -13.019734 153.936 -14.882702 98.313347
14760000000 -13.755551 32.523193 -200 45 -12.974596 96.591606 -18.048466 65.981857
14770000000 -12.47225 28.770693 -200 45 -12.931711 38.954456 -29.535051 54.254738
14780000000 -11.668037 21.797268 -200 45 -12.926196 -18.853645 -23.608326 141.50468
14790000000 -11.364268 13.366521 -200 45 -12.935746 -76.13015 -19.849836 112.16278
14800000000 -11.724256 3.8838847 -200 45 -12.860422 -133.51393 -21.220438 84.635986
14810000000 -12.883324 -3.143364 -200 45 -12.757581 168.62251 -25.701313 65.496582
14820000000 -14.354613 -4.1016917 -200 45 -12.734761 110.63974 -39.679718 23.899509
14830000000 -15.537745 -1.0332929 -200 45 -12.703691 52.64085 -24.949848 -154.35561
14840000000 -16.272379 5.8057976 -200 45 -12.704972 -5.4090199 -18.321119 167.28615
14850000000 -16.315918 13.516309 -200 45 -12.706563 -63.237103 -16.504177 130.79895
14860000000 -15.654115 20.082035 -200 45 -12.708249 -121.12251 -17.643734 101.48434
14870000000 -14.629942 23.134319 -200 45 -12.718548 -178.96434 -19.98028 85.500374
14880000000 -13.118406 21.003008 -200 45 -12.729856 123.16599 -21.840469 72.159203
14890000000 -12.422144 12.486617 -200 45 -12.787459 65.48938 -26.254553 52.576897
14900000000 -12.465749 4.3778834 -200 45 -12.782291 7.9093533 -33.710789 103.74181
14910000000 -12.930549 -1.0266491 -200 45 -12.796513 -49.652561 -25.78175 109.96832
14920000000 -13.398342 -6.5342865 -200 45 -12.792669 -107.04005 -25.202524 68.297455
14930000000 -14.418061 -11.093268 -200 45 -12.710381 -164.56903 -30.497911 4.736196
14940000000 -15.949581 -10.74619 -200 45 -12.690274 137.50722 -30.54085 -112.97122
14950000000 -16.659281 -3.4916697 -200 45 -12.647067 79.751907 -24.924028 -164.40376
14960000000 -16.566032 2.6361337 -200 45 -12.619045 21.703045 -21.526636 165.89272
14970000000 -16.079285 4.3307705 -200 45 -12.635989 -36.223148 -19.731989 133.71506
14980000000 -15.661812 6.0337005 -200 45 -12.64784 -93.89209 -20.073603 99.242065
14990000000 -15.354303 4.3527679 -200 45 -12.623315 -151.64812 -22.435957 69.135094
15000000000 -14.967845 6.0320196 -200 45 -12.592473 150.4492 -25.802572 45.147396
15010000000 -14.007466 2.9968402 -200 45 -12.62075 92.563377 -29.446966 12.3142
15020000000 -13.412412 -5.923419 -200 45 -12.585203 34.909676 -37.430843 -65.588814
15030000000 -13.847 -15.954469 -200 45 -12.579423 -23.047544 -37.414421 133.24431
15040000000 -14.931199 -22.702932 -200 45 -12.586753 -80.847168 -31.179884 25.146755
15050000000 -16.095875 -27.100687 -200 45 -12.555893 -138.63879 -25.130217 -57.857899
15060000000 -18.378033 -31.386093 -200 45 -12.527222 163.51912 -21.947575 -117.87729
15070000000 -21.194872 -13.389537 -200 45 -12.484534 105.47211 -21.57773 -163.7924
15080000000 -19.150135 9.5412598 -200 45 -12.459119 47.276417 -23.182337 164.98315
15090000000 -16.605093 7.2586231 -200 45 -12.4927 -11.025204 -24.233772 144.0452
15100000000 -15.145412 1.0085377 -200 45 -12.572747 -68.983063 -25.136484 110.27522
15110000000 -14.426728 -11.501575 -200 45 -12.601505 -126.66509 -28.424828 56.491699
15120000000 -15.137738 -24.761595 -200 45 -12.621035 175.61148 -33.813225 -15.242706
15130000000 -16.958052 -28.698065 -200 45 -12.614609 117.77464 -38.30637 -46.09441
15140000000 -17.794048 -25.419352 -200 45 -12.624023 59.967949 -30.576126 -40.568756
15150000000 -18.085669 -24.257143 -200 45 -12.611892 1.9956477 -24.730364 -76.776024
15160000000 -18.58498 -21.932917 -200 45 -12.658499 -55.958843 -23.867741 -111.29362
15170000000 -17.644518 -18.281139 -200 45 -12.706862 -113.82925 -26.333834 -122.85617
15180000000 -16.972549 -28.155153 -200 45 -12.721433 -171.50986 -24.051321 -106.27672
15190000000 -18.152037 -38.807449 -200 45 -12.777416 130.5537 -20.253061 -126.23354
15200000000 -20.316145 -39.279518 -200 45 -12.809969 73.105827 -19.240339 -158.3521
15210000000 -21.66704 -27.173321 -200 45 -12.794343 15.425465 -20.938419 165.45775
15220000000 -20.865425 -12.216761 -200 45 -12.795178 -42.417671 -25.463739 119.64571
15230000000 -18.251398 -9.1671848 -200 45 -12.849836 -100.4198 -30.115837 21.057768
15240000000 -16.398642 -21.802891 -200 45 -12.895467 -158.04095 -24.593283 -59.665665
15250000000 -16.382627 -36.919167 -200 45 -12.931762 144.62038 -22.725691 -101.21074
15260000000 -17.02026 -47.994991 -200 45 -12.893315 86.829918 -25.022099 -121.5551
15270000000 -17.929268 -58.524864 -200 45 -12.926608 29.176195 -26.321512 -93.358177
15280000000 -19.756767 -73.765663 -200 45 -12.933975 -28.480215 -21.064775 -91.526459
15290000000 -25.096201 -78.740036 -200 45 -12.926873 -86.105881 -18.663826 -109.66386
15300000000 -27.879 -29.906427 -200 45 -12.934336 -143.86485 -18.086302 -126.99721
15310000000 -23.180914 -21.965977 -200 45 -12.928952 157.97287 -18.274529 -143.84955
15320000000 -22.143896 -26.824404 -200 45 -12.966985 100.20426 -20.092966 -160.83229
15330000000 -20.721676 -31.186413 -200 45 -12.995214 42.511662 -24.09359 -162.49548
