!Keysight Technologies,P9374A,MY57211810,A.19.30.04
!Date: Friday, May 09, 2025 09:01:41
!Correction: S11(Cdelta 2-Port  ) 
!S21(Cdelta 2-Port  ) 
!S12(Cdelta 2-Port  ) 
!S22(Cdelta 2-Port  ) 
!S2P File: Measurements: S11, S21, S12, S22:
# Hz S  dB   R 50
13000000000 -20.688055 -84.643028 -36.140537 115.56119 -36.364799 116.29989 -11.44039 -84.655914
13020000000 -20.654366 -80.913765 -36.348938 80.604088 -36.600254 81.840469 -11.682108 -87.395615
13040000000 -20.574339 -78.229858 -36.401875 47.590599 -36.692062 48.503178 -11.608797 -91.767944
13060000000 -20.60792 -82.185623 -36.225082 12.815425 -36.275608 15.381746 -11.388186 -87.246086
13080000000 -20.8634 -85.96244 -35.802971 -22.325171 -35.891788 -20.59993 -11.374056 -93.08403
13100000000 -20.990936 -88.694206 -36.051392 -59.033127 -36.151669 -57.215267 -11.408923 -94.434898
13120000000 -20.437037 -82.722488 -36.139164 -91.37558 -36.190544 -90.810265 -11.770789 -93.046066
13140000000 -20.206282 -79.776665 -36.032955 -127.30007 -35.997883 -126.72151 -11.606637 -96.223557
13160000000 -19.875694 -83.83754 -35.754219 -160.16422 -35.783493 -159.1534 -11.704453 -100.12058
13180000000 -19.935169 -89.687775 -35.534409 165.43938 -35.369537 165.36006 -11.473791 -96.954277
13200000000 -20.523703 -91.803192 -35.216114 127.9747 -35.151409 130.24475 -11.81851 -101.74601
13220000000 -20.879978 -91.992043 -35.261551 91.425209 -35.442543 90.969749 -12.137741 -105.48583
13240000000 -20.312944 -90.723328 -35.259674 61.83696 -35.466839 62.187458 -12.296703 -99.440277
13260000000 -19.809593 -94.890091 -34.836304 24.73037 -34.843472 24.857969 -12.047304 -104.85289
13280000000 -19.904539 -99.899879 -34.768223 -12.149855 -34.703232 -10.603009 -12.084069 -106.52153
13300000000 -20.636723 -107.10941 -34.952854 -47.892319 -34.961491 -47.144817 -12.386373 -107.11095
13320000000 -21.243923 -108.94608 -34.716866 -82.895096 -34.638603 -81.391151 -12.657065 -107.16354
13340000000 -21.754335 -109.2098 -34.939907 -118.83513 -35.359829 -118.07895 -13.370546 -110.18128
13360000000 -21.080175 -107.38113 -34.563313 -151.97464 -34.480598 -149.38004 -12.633275 -107.72437
13380000000 -21.112663 -112.69176 -34.436131 172.91818 -34.569016 173.82837 -12.806868 -110.38208
13400000000 -21.717033 -120.1949 -34.270794 136.84587 -34.311821 138.05861 -12.722765 -111.24
13420000000 -23.274929 -127.65393 -34.238483 102.27481 -34.397263 102.90386 -12.854395 -109.92805
13440000000 -24.139875 -126.07787 -34.053242 66.770096 -34.113796 67.831314 -13.261447 -110.09671
13460000000 -24.112297 -120.41577 -34.349842 32.389915 -34.962833 33.311726 -14.060809 -109.31945
13480000000 -23.755117 -120.93881 -33.918438 -3.7711425 -33.976269 -2.3991351 -13.360617 -111.16068
13500000000 -24.705433 -127.61396 -34.150677 -38.698425 -34.177799 -38.005531 -13.495925 -113.80757
13520000000 -25.934042 -135.5087 -33.967064 -74.305428 -34.079086 -73.704903 -13.558661 -114.05102
13540000000 -27.776098 -136.34309 -33.765934 -110.53495 -33.847626 -108.68468 -13.304443 -113.18377
13560000000 -28.902363 -129.61301 -33.799118 -145.07079 -33.742962 -143.11354 -14.0695 -109.88546
13580000000 -27.795799 -120.13359 -33.780514 -179.41933 -34.135975 -176.34506 -13.943173 -109.88356
13600000000 -27.508797 -124.27346 -33.568546 143.04333 -33.583443 144.96954 -13.82741 -113.52629
13620000000 -29.275162 -133.46062 -33.802246 107.47774 -33.89843 109.79248 -13.923803 -112.13715
13640000000 -31.157192 -131.05208 -33.835163 73.519791 -33.805328 74.3657 -13.863792 -113.99673
13660000000 -31.507858 -112.89529 -33.881905 38.474323 -33.638771 39.62994 -13.310033 -114.64617
13680000000 -29.551044 -111.98569 -33.754997 1.443925 -33.923504 5.3547316 -14.461296 -110.36047
13700000000 -28.062302 -112.72303 -33.850697 -30.64316 -33.846264 -30.573341 -13.666873 -114.87099
13720000000 -29.3587 -121.26398 -33.669319 -64.11718 -33.784325 -65.23175 -14.212726 -113.18945
13740000000 -31.102266 -131.05853 -33.379128 -101.1204 -33.654881 -100.88224 -14.061287 -111.74155
13760000000 -30.706057 -131.08156 -33.471828 -137.16402 -33.636108 -137.2737 -13.843752 -114.6031
13780000000 -29.499775 -120.29674 -33.627636 -172.98196 -33.941463 -171.6373 -13.411411 -114.92359
13800000000 -28.060469 -129.34239 -33.485931 153.42601 -33.60104 154.57147 -13.727997 -115.30944
13820000000 -27.344383 -134.52216 -33.612473 116.38721 -33.953041 117.52652 -14.297677 -118.91265
13840000000 -28.543983 -140.22742 -33.559299 81.693054 -34.037834 85.616638 -14.125739 -112.28672
13860000000 -30.892069 -144.38864 -33.74086 46.637695 -33.900402 48.930176 -13.798057 -114.07201
13880000000 -31.826237 -153.6479 -33.810802 13.727297 -33.725689 15.018577 -13.456929 -116.22669
13900000000 -30.384352 -162.49963 -33.523151 -21.201365 -33.332668 -19.400312 -13.292051 -114.96194
13920000000 -29.455992 -172.11308 -33.529011 -56.39566 -33.391418 -55.544136 -13.207102 -114.12695
13940000000 -28.646622 173.69031 -33.788513 -91.807411 -34.101379 -91.926292 -14.443544 -118.19337
13960000000 -30.068594 160.0076 -33.368576 -126.25569 -33.285191 -126.28688 -13.275848 -112.78205
13980000000 -32.972294 146.57719 -33.575085 -162.17973 -33.420055 -162.37589 -13.124976 -114.78744
14000000000 -32.91563 128.88239 -33.583138 164.76956 -33.6353 164.14444 -12.826953 -116.55498
14020000000 -30.857864 128.51468 -33.483475 129.69586 -33.400524 128.5507 -12.690121 -116.30557
14040000000 -29.691023 120.53336 -33.595592 94.828323 -33.444244 94.741203 -12.378999 -113.11173
14060000000 -29.662483 106.65619 -33.579075 60.471962 -34.072594 60.649101 -13.637482 -116.05512
14080000000 -30.362919 84.132385 -33.391853 25.445248 -33.577366 26.698774 -12.374149 -114.2686
14100000000 -30.223227 69.697304 -33.364845 -11.029502 -33.518875 -9.8890915 -12.164341 -116.90365
14120000000 -30.084003 60.791725 -33.438015 -46.024239 -33.752151 -45.818077 -12.303222 -116.97971
14140000000 -28.879381 54.453896 -33.52824 -80.290443 -33.622036 -78.587379 -11.77415 -117.52517
14160000000 -27.585917 47.653015 -33.436581 -116.686 -34.055714 -113.70494 -11.801358 -116.71008
14180000000 -27.45706 49.032021 -33.874939 -149.33905 -34.05241 -147.46979 -11.97666 -116.7573
14200000000 -26.825052 30.180069 -33.672325 177.57851 -33.606686 178.6498 -10.949266 -118.52834
14220000000 -26.420662 21.797264 -33.426929 141.52731 -33.425053 143.08328 -11.029985 -119.18935
14240000000 -26.933779 21.697464 -33.79266 106.87553 -33.836208 106.8149 -10.934738 -120.65208
14260000000 -26.719389 18.840637 -33.772842 75.079971 -33.797787 75.806389 -10.171947 -122.2616
14280000000 -25.969109 14.708409 -33.734112 39.029301 -33.900063 41.092049 -10.020882 -121.969
14300000000 -25.224472 6.9630089 -33.457005 6.6424441 -33.496761 7.8131652 -9.5526581 -125.26082
14320000000 -25.516325 1.2336148 -33.348351 -26.346201 -33.447876 -27.00539 -9.5607357 -127.23386
14340000000 -26.007423 -6.5061841 -33.170475 -63.963184 -33.206684 -61.999382 -9.2722454 -127.90554
14360000000 -25.992989 -4.9526892 -33.320553 -95.524948 -33.460251 -95.499962 -8.9024906 -131.13966
14380000000 -25.578444 -3.6818929 -33.205242 -129.09074 -33.219692 -127.27193 -8.2908382 -133.39832
14400000000 -25.587971 -6.4778328 -32.814476 -162.81427 -32.851452 -162.04961 -8.094594 -136.16533
14420000000 -24.694405 -12.920424 -32.856018 162.75117 -33.029671 163.35712 -8.283637 -138.6418
14440000000 -25.341946 -13.055359 -31.99029 129.83334 -32.170921 131.04346 -7.798728 -142.96014
14460000000 -25.565348 -13.453334 -32.072338 93.476433 -31.983438 94.909752 -7.7094431 -145.2935
14480000000 -25.480812 -10.64369 -31.79081 59.381111 -31.711443 60.533569 -7.4541917 -148.88663
14500000000 -24.724371 -6.5412292 -31.469471 24.221428 -31.539097 26.00757 -7.1465745 -152.13565
14520000000 -24.131718 -10.491549 -31.179464 -10.796858 -31.11482 -8.9174538 -7.1058922 -155.25476
14540000000 -24.19861 -17.082664 -31.034655 -46.334862 -31.421972 -44.993965 -7.904583 -158.07607
14560000000 -23.949415 -17.336519 -30.567953 -82.568153 -30.537439 -80.38546 -7.1567097 -164.77304
14580000000 -23.588484 -12.050525 -30.28459 -117.7187 -30.363434 -115.93111 -7.3621192 -167.54742
14600000000 -23.184488 -11.790169 -29.992208 -153.96121 -30.037918 -152.77664 -7.2681684 -171.00414
14620000000 -22.372885 -14.639763 -29.852457 169.60732 -29.805319 170.66953 -7.4016776 -176.18263
14640000000 -21.454334 -18.868818 -29.841316 133.28801 -29.808716 136.28639 -7.6044879 -176.28148
14660000000 -21.721569 -22.152903 -29.606337 97.672707 -29.863192 99.957146 -8.2466412 176.02299
14680000000 -21.664495 -24.515112 -29.272331 61.276299 -29.258022 62.358547 -8.0679703 173.63663
14700000000 -20.854286 -24.745178 -29.211554 24.83699 -29.181202 26.177126 -8.2991199 171.63219
14720000000 -20.466578 -25.052769 -28.979427 -11.38703 -29.036282 -9.9658413 -8.6199551 166.90875
14740000000 -20.236565 -30.618095 -29.054432 -47.692638 -29.033655 -46.604012 -8.8341656 163.54585
14760000000 -19.938145 -37.633797 -28.905968 -83.073143 -28.994919 -81.036034 -9.463315 166.17326
14780000000 -19.642397 -40.564037 -28.650017 -119.30241 -28.710707 -117.32668 -9.8629637 156.99615
14800000000 -19.694277 -41.375435 -28.612022 -157.8423 -28.697618 -155.89281 -10.152498 158.28488
14820000000 -19.816107 -45.053173 -28.644236 166.51079 -28.685745 168.43294 -10.439939 153.96297
14840000000 -19.449221 -49.17532 -28.629536 130.70961 -28.6513 132.25858 -11.137071 150.1264
14860000000 -19.272779 -52.224014 -28.48045 94.264961 -28.509445 96.105804 -11.430861 150.51141
14880000000 -19.362953 -58.893169 -28.481968 57.625568 -28.514206 59.653145 -12.157182 154.66986
14900000000 -19.392195 -63.549789 -28.513634 21.750416 -28.489321 23.014631 -12.603269 150.94406
14920000000 -19.799456 -63.228054 -28.475021 -14.791876 -28.358461 -13.65599 -11.796554 151.33917
14940000000 -20.100586 -67.418442 -28.389053 -51.440754 -28.388927 -50.554161 -13.183973 145.80673
14960000000 -20.034922 -71.210861 -28.514565 -88.257072 -28.448284 -86.773529 -14.069247 144.54195
14980000000 -20.194561 -75.20443 -28.517651 -123.86371 -28.626701 -122.57996 -14.513836 148.06978
15000000000 -20.758553 -79.745239 -28.440325 -158.58659 -28.455408 -157.86185 -15.131147 152.21664
15020000000 -20.926693 -79.977654 -28.512201 162.77412 -28.559418 164.10558 -16.305363 155.77975
15040000000 -21.889156 -80.325874 -28.588575 127.41762 -28.502588 128.60345 -13.319711 151.239
15060000000 -22.261671 -83.082443 -28.351639 91.382515 -28.409298 92.77153 -15.913209 152.29745
15080000000 -22.314444 -82.711441 -28.506859 54.174423 -28.395929 55.802059 -16.676516 157.17564
15100000000 -23.040932 -86.148476 -28.60548 17.615139 -28.693348 19.2369 -16.67584 163.9566
15120000000 -23.220276 -85.999718 -28.701122 -18.704336 -28.620747 -17.160181 -16.224257 166.73898
15140000000 -23.386017 -80.843216 -28.643604 -55.594528 -28.648628 -53.892113 -17.37715 176.53958
15160000000 -24.257437 -81.054855 -28.734989 -92.098961 -28.620302 -90.88121 -14.531066 159.60771
15180000000 -23.773518 -83.090843 -28.880688 -128.5842 -28.887869 -127.38679 -16.097454 170.02669
15200000000 -23.259998 -80.052284 -28.9363 -164.57773 -28.865597 -163.63408 -15.447674 175.1076
15220000000 -23.884518 -79.572311 -29.178366 158.87035 -29.137402 160.41003 -14.862706 170.69313
15240000000 -23.647625 -80.357468 -29.062771 122.77754 -29.218031 123.65271 -14.377827 174.33951
15260000000 -22.928253 -78.573227 -29.318214 85.720558 -29.236483 86.621292 -15.149429 -175.65849
15280000000 -23.345793 -83.942375 -29.320158 49.618614 -29.316374 49.784657 -13.443947 165.11916
15300000000 -22.830387 -88.060097 -29.43725 12.984042 -29.465376 13.313906 -13.42627 172.47292
15320000000 -22.978924 -90.772278 -29.614502 -25.472338 -29.713684 -24.150831 -12.915786 167.0983
15340000000 -22.964602 -94.358917 -30.043705 -62.074871 -30.183546 -61.335255 -12.706628 163.72513
15360000000 -22.490803 -96.63166 -30.158754 -97.675224 -30.35301 -95.985542 -12.20048 165.3125
15380000000 -22.800961 -100.02589 -30.21806 -133.46831 -30.242399 -132.80402 -12.649558 166.7661
15400000000 -23.247368 -109.11455 -30.521189 -170.81181 -30.474867 -169.39325 -11.897226 159.64478
15420000000 -23.21163 -114.7217 -30.861624 153.46265 -30.920982 153.21994 -10.994231 158.17856
15440000000 -23.832884 -116.38348 -31.040398 115.18408 -31.081991 116.70328 -11.334835 149.08426
15460000000 -23.89753 -124.07279 -31.542109 79.203087 -31.659824 80.027367 -11.290006 145.52658
15480000000 -23.893433 -126.77916 -31.942453 41.959637 -31.863947 42.806606 -11.171582 145.19019
15500000000 -25.304035 -137.21529 -32.310577 7.0011892 -32.285244 8.1938791 -11.390761 141.65498
15520000000 -26.429132 -148.32263 -32.542858 -29.675465 -32.464455 -28.919199 -12.092006 134.50227
15540000000 -26.597195 -156.008 -32.891216 -65.166527 -33.242748 -63.570354 -10.481194 136.56865
15560000000 -28.169071 -159.87828 -33.607002 -100.60011 -33.74651 -99.945084 -11.306403 125.78653
15580000000 -28.359547 -168.29886 -33.980656 -136.3824 -34.13607 -135.36124 -11.482147 122.70491
15600000000 -28.679224 177.33638 -34.318073 -171.53923 -34.416203 -170.58551 -11.894982 120.51467
15620000000 -29.783308 153.8535 -34.914986 153.31306 -34.953979 154.41002 -12.264585 116.25301
15640000000 -29.888449 131.80141 -35.311508 118.45799 -35.201317 120.74638 -13.19192 103.73446
15660000000 -30.14747 122.99979 -35.555557 83.644844 -36.067928 86.767982 -11.724421 111.76277
15680000000 -30.816654 109.03708 -36.073029 49.688866 -36.201725 52.441643 -12.931245 101.74699
15700000000 -30.158365 105.36357 -36.805939 15.672033 -36.990181 18.190794 -13.37854 98.236305
15720000000 -28.880402 89.699692 -36.913506 -15.981259 -37.019909 -15.846399 -13.353703 96.612061
15740000000 -26.407131 72.330284 -37.411945 -51.366722 -37.370728 -49.35783 -14.687676 89.072334
15760000000 -25.469648 64.044533 -37.868057 -84.512749 -37.654648 -82.707962 -10.693647 99.532898
15780000000 -25.166838 55.32029 -38.161903 -117.24165 -38.221859 -114.63132 -14.469379 84.625496
15800000000 -25.081861 52.256203 -38.068539 -151.62523 -38.116699 -148.84253 -15.834056 75.29039
15820000000 -25.393534 54.678856 -38.509254 175.69859 -38.488659 178.33684 -15.76633 75.938797
15840000000 -23.687597 46.524925 -38.570202 143.87836 -38.688835 145.17181 -16.131159 73.362801
15860000000 -21.802828 41.203613 -38.677608 110.20876 -38.700092 112.42268 -17.988922 61.641903
15880000000 -21.769848 37.690445 -38.711658 77.392982 -38.60918 77.857849 -13.999364 72.448784
15900000000 -21.952269 30.518324 -38.928844 42.505917 -38.913506 44.010963 -18.8337 50.425987
15920000000 -21.879969 32.799904 -39.055298 9.4288397 -39.339394 9.6293573 -20.865273 48.86834
15940000000 -21.703653 35.741795 -39.001377 -25.433733 -39.0555 -23.614826 -19.330044 51.221016
15960000000 -20.233387 33.068867 -39.067696 -58.981075 -39.286549 -58.234001 -20.358181 43.655106
15980000000 -19.123747 29.253933 -39.323158 -93.668152 -39.18111 -92.842567 -21.674438 19.62985
16000000000 -18.818377 24.238247 -39.048077 -127.39042 -39.103352 -126.56094 -21.821829 14.958506
16020000000 -18.872118 22.587132 -39.69566 -161.52301 -39.391033 -161.83835 -32.060486 -24.248508
16040000000 -19.054581 25.828798 -39.429726 163.70085 -40.340565 166.66655 -27.038536 11.326709
16060000000 -18.228064 25.824905 -39.499115 132.98816 -39.707653 134.10446 -23.655529 11.818403
16080000000 -16.534433 23.287573 -39.458904 96.030693 -39.775879 97.015167 -24.566053 -9.4319439
16100000000 -16.04722 21.249573 -39.68177 62.056667 -39.596165 63.211243 -23.131573 -30.859491
16120000000 -15.866767 14.311186 -39.31546 25.680595 -39.372784 28.72809 -21.937799 -35.587986
16140000000 -15.821208 14.39543 -39.57246 -9.1569281 -40.41238 -8.7612362 -26.589085 -118.91168
16160000000 -15.565297 16.303482 -39.776421 -41.575191 -40.299198 -36.901096 -26.715971 -56.405483
16180000000 -14.557699 13.851403 -39.641243 -76.278389 -39.751087 -76.190178 -23.797403 -51.367428
16200000000 -13.358017 9.9708719 -40.015503 -113.49047 -39.659626 -113.50951 -21.743633 -69.747635
16220000000 -12.983996 6.6550746 -40.127308 -147.35834 -40.274704 -146.53784 -21.447426 -80.735832
16240000000 -12.954288 2.1995666 -40.203587 -179.85982 -39.743309 178.68878 -19.291952 -69.09684
16260000000 -12.992535 2.027986 -40.215744 143.32008 -41.199982 147.79294 -23.011202 -109.14885
16280000000 -12.558857 1.8107959 -40.575485 111.99608 -40.77219 115.05299 -21.220037 -90.39637
16300000000 -11.594467 -1.3606673 -40.573517 75.012398 -40.819363 77.547722 -19.42802 -91.910713
16320000000 -10.870395 -5.4164963 -40.411434 44.040314 -40.64793 42.955132 -19.4021 -108.26895
16340000000 -10.722659 -9.370822 -40.679855 5.3598385 -40.606808 8.1665354 -18.434092 -109.36294
16360000000 -10.7276 -11.976333 -40.414043 -26.525969 -40.326611 -26.624758 -17.43646 -96.873581
16380000000 -10.613198 -11.680085 -40.677292 -64.667076 -40.94014 -58.65649 -19.29286 -122.88869
16400000000 -10.089177 -13.426994 -40.357716 -97.552513 -40.498287 -96.142021 -17.403122 -111.04608
16420000000 -9.4352217 -17.385269 -40.403198 -134.20528 -40.485073 -132.04944 -16.632612 -120.17718
16440000000 -9.0664883 -21.447119 -40.739445 -170.57487 -40.800053 -169.22607 -17.112675 -129.04185
16460000000 -9.039135 -24.0123 -40.809448 155.17674 -41.048283 157.91765 -16.354742 -124.7167
16480000000 -8.9769459 -25.249992 -40.597546 120.5256 -40.541004 122.63454 -16.097988 -119.6738
16500000000 -8.6561775 -25.320959 -40.807072 85.930847 -40.779331 87.376961 -15.8426 -126.3894
16520000000 -8.177433 -27.664089 -41.386963 51.422161 -41.800076 52.955658 -14.398601 -132.04634
16540000000 -7.6758413 -31.65637 -41.321514 18.209105 -41.487682 17.099819 -14.788272 -138.34447
16560000000 -7.4565153 -34.591854 -41.165668 -17.785543 -40.93536 -17.366302 -15.004673 -141.23657
16580000000 -7.4341745 -35.509369 -41.087559 -54.506615 -40.931301 -52.656902 -14.452509 -137.39194
16600000000 -7.2748084 -36.240925 -40.754837 -89.610321 -40.758537 -88.464775 -14.57608 -138.74022
16620000000 -6.7965975 -38.425411 -40.967964 -126.9227 -40.670658 -128.27228 -14.546921 -141.21501
16640000000 -6.2520933 -40.959934 -40.946407 -162.30608 -41.497509 -159.25809 -12.306124 -146.28714
16660000000 -5.8986616 -44.265327 -41.799335 163.04912 -41.375046 160.42934 -13.025858 -153.47742
16680000000 -5.7154179 -46.249508 -41.128574 123.35528 -40.647625 125.19183 -13.370818 -152.85193
16700000000 -5.4867582 -47.360554 -41.383575 86.560257 -41.437523 85.24926 -13.261321 -150.85553
16720000000 -5.0807381 -48.967899 -41.878323 49.218258 -41.440731 49.380585 -12.645643 -152.93933
16740000000 -4.7175069 -53.435947 -42.852539 15.748164 -43.23428 16.245407 -9.8320456 -161.75618
16760000000 -4.2527409 -56.034462 -41.884727 -20.895758 -42.448647 -18.779449 -11.381341 -158.86456
16780000000 -3.9734559 -59.199253 -42.615742 -57.962009 -42.65094 -58.177853 -12.139147 -166.95526
16800000000 -3.7161417 -61.310143 -42.384529 -93.690041 -42.673229 -95.470856 -12.332756 -164.28528
16820000000 -3.3839066 -63.650341 -43.016594 -133.43457 -43.141865 -132.19879 -11.579147 -166.66243
16840000000 -2.9926934 -66.876961 -43.353329 -168.68169 -43.869381 -168.17096 -11.553205 -168.2025
16860000000 -2.7726583 -71.906639 -43.92728 159.82874 -44.829533 161.57912 -14.131191 -166.28094
16880000000 -2.4467432 -74.65667 -43.589809 119.34258 -44.158245 120.644 -11.405978 -174.76546
16900000000 -2.1714818 -77.729752 -44.159237 79.375549 -44.286678 82.081436 -11.53266 -176.63216
16920000000 -1.9518276 -80.556618 -44.596394 43.549675 -45.129078 45.70089 -11.062819 -178.74313
16940000000 -1.6816739 -83.892136 -44.799175 3.7804508 -45.253445 6.9501667 -10.844587 179.40979
16960000000 -1.4553576 -87.822739 -45.725498 -28.693598 -45.918751 -30.351486 -10.848539 175.17938
16980000000 -1.2308818 -91.525688 -46.488853 -68.504219 -46.722034 -63.663162 -11.968921 177.47707
17000000000 -1.0189489 -95.438774 -46.586231 -107.63522 -46.369659 -106.20254 -10.874784 170.95476
