!Keysight Technologies,P9374A,MY57211810,A.19.30.04
!Date: Friday, May 09, 2025 10:42:53
!Correction: S11(Cdelta 2-Port  ) 
!S21(Cdelta 2-Port  ) 
!S12(Cdelta 2-Port  ) 
!S22(Cdelta 2-Port  ) 
!S2P File: Measurements: S11, S21, S12, S22:
# Hz S  dB   R 50
13000000000 -20.275827 -89.583664 -43.032478 -88.009315 -43.335289 -90.045883 -9.1699638 -111.78143
13020000000 -21.656172 -83.207779 -43.602165 -131.73636 -43.974751 -133.54587 -10.069531 -120.80967
13040000000 -20.954069 -73.509064 -44.917221 -169.02635 -45.454025 -170.27132 -10.902475 -129.99309
13060000000 -19.979628 -78.114464 -46.085262 154.80702 -46.506546 155.01645 -12.370718 -131.56441
13080000000 -19.916037 -85.957611 -46.244713 126.22516 -46.876858 125.85662 -13.637018 -140.61754
13100000000 -20.998688 -89.923935 -46.117062 84.437027 -46.614922 83.895805 -15.862901 -143.86143
13120000000 -21.285507 -81.778069 -47.037334 45.263504 -47.762268 41.815109 -19.121752 -139.10651
13140000000 -20.277678 -79.397026 -48.374271 9.7736921 -49.496479 9.1822643 -22.592081 -131.00175
13160000000 -19.51022 -83.126343 -48.390896 -22.744501 -49.683239 -21.980776 -24.486254 -116.27789
13180000000 -20.04497 -90.040787 -48.323078 -56.959118 -49.457657 -53.077209 -22.606421 -73.442322
13200000000 -20.581379 -91.682648 -48.348373 -101.09203 -49.827797 -97.205589 -21.420795 -65.521896
13220000000 -20.588476 -92.824188 -48.747375 -145.46428 -50.486073 -138.66649 -18.684546 -61.204151
13240000000 -20.196438 -94.941833 -49.393906 172.40082 -51.122131 -177.56339 -16.937567 -54.793335
13260000000 -20.332502 -97.506088 -49.7714 129.2363 -51.530235 137.95058 -15.195509 -57.340683
13280000000 -20.210876 -98.089661 -52.048672 91.894142 -53.788086 108.49696 -14.422086 -61.879494
13300000000 -20.429766 -102.71434 -51.404465 49.381523 -53.140636 52.565403 -13.478909 -64.844749
13320000000 -20.554604 -110.43486 -51.729618 3.8762569 -52.356331 27.069126 -12.620696 -67.667595
13340000000 -21.595009 -116.62753 -54.039173 -50.878464 -54.95219 -23.120523 -12.513912 -75.591789
13360000000 -22.37138 -109.2263 -54.910675 -68.50647 -53.616219 -42.808952 -11.20434 -75.794533
13380000000 -21.680677 -105.99053 -52.006226 -100.54947 -50.701725 -86.219543 -10.776287 -81.648666
13400000000 -20.795618 -116.00572 -50.806961 -143.37709 -47.318306 -143.11832 -10.512583 -86.650024
13420000000 -21.904793 -129.92896 -50.830078 169.93852 -50.61932 -179.61388 -10.244384 -90.43219
13440000000 -24.303925 -135.61417 -48.318443 146.13423 -47.737549 152.47461 -10.220241 -94.672089
13460000000 -25.584244 -121.85943 -46.112278 96.726814 -46.05172 103.44087 -11.058881 -99.184395
13480000000 -23.944252 -116.07248 -45.363064 50.159576 -45.021404 56.113609 -10.310735 -104.22265
13500000000 -23.435019 -126.0083 -43.446983 9.8355665 -43.254623 11.336862 -10.526705 -110.14771
13520000000 -24.661192 -140.09187 -42.765923 -36.602356 -43.025448 -33.189316 -11.008973 -114.27874
13540000000 -27.583752 -146.60509 -42.097809 -77.125763 -42.317966 -72.510872 -11.091319 -115.29395
13560000000 -29.379217 -130.59441 -40.985123 -118.63194 -41.051632 -115.06413 -11.950224 -114.65134
13580000000 -28.674286 -124.05823 -40.87463 -162.23099 -41.445862 -156.16835 -12.063386 -114.14277
13600000000 -27.563698 -122.26919 -41.008171 155.2841 -40.921959 161.59406 -11.905082 -118.23586
13620000000 -27.797722 -130.55305 -41.034397 119.43121 -40.750793 125.45806 -12.028828 -117.99055
13640000000 -29.423149 -139.36382 -40.693718 85.240814 -40.040764 89.723618 -11.923064 -120.78852
13660000000 -31.805939 -130.0735 -39.773788 49.748074 -39.03429 52.980713 -11.188464 -122.62983
13680000000 -32.04398 -111.78811 -39.310501 7.2362432 -38.905682 11.561948 -12.122031 -123.27257
13700000000 -29.09922 -103.9448 -38.82151 -26.462694 -38.249195 -25.088469 -11.228473 -128.90555
13720000000 -27.399307 -117.99798 -38.28997 -62.257713 -37.757259 -63.06802 -11.642068 -131.21716
13740000000 -28.434198 -135.36069 -37.697861 -102.82502 -37.182358 -102.87111 -11.810438 -135.61975
13760000000 -30.678087 -144.59447 -37.136581 -140.8779 -36.672478 -141.15181 -11.910879 -141.85789
13780000000 -32.377544 -123.11095 -36.794395 -177.60446 -36.264526 -177.86574 -11.860407 -144.53651
13800000000 -28.808012 -115.6134 -36.380394 142.49176 -35.805817 141.62445 -12.518689 -149.16512
13820000000 -26.544125 -126.67561 -36.555981 103.81139 -36.223114 100.55739 -13.706193 -154.38744
13840000000 -27.190886 -149.66907 -36.467888 67.1987 -36.152157 64.666084 -14.32595 -149.97711
13860000000 -30.004154 -157.91957 -36.176929 32.356121 -35.916103 28.557854 -14.85204 -152.16136
13880000000 -32.553547 -158.7274 -35.975285 -5.6758962 -35.68404 -10.318957 -14.796535 -153.56247
13900000000 -31.87192 -159.43053 -36.050884 -39.233715 -35.90369 -44.672878 -15.009387 -151.96095
13920000000 -30.022001 -168.66579 -35.393509 -75.588097 -35.413307 -79.853836 -15.315732 -149.40489
13940000000 -28.787979 -178.04062 -35.668182 -111.18331 -36.342602 -116.45911 -16.52714 -154.81706
13960000000 -29.016962 165.61543 -34.951885 -146.83121 -35.255966 -149.68143 -16.02162 -148.47404
13980000000 -30.380224 146.02144 -34.51783 176.97221 -34.767902 174.14462 -16.053102 -152.20523
14000000000 -31.851217 121.13006 -34.2029 140.96402 -34.54808 139.53726 -15.757741 -155.2551
14020000000 -32.499283 111.14323 -33.835423 105.27253 -34.065208 103.34244 -15.874566 -156.62033
14040000000 -32.667473 122.71887 -33.158485 69.176987 -33.399559 68.298714 -16.242819 -152.39456
14060000000 -29.616419 121.90022 -33.089325 30.344772 -33.740692 29.357203 -17.754633 -161.95345
14080000000 -28.242071 96.522202 -32.89222 -6.3760557 -33.067604 -6.6211672 -17.449736 -158.23643
14100000000 -28.091053 68.315628 -32.325794 -43.428238 -32.570965 -43.916679 -17.608147 -162.01479
14120000000 -28.418568 47.857761 -32.127682 -82.145317 -32.369366 -82.775482 -18.548847 -165.76025
14140000000 -30.048822 43.416279 -32.12014 -119.19094 -32.339695 -119.58965 -18.367386 -164.75124
14160000000 -29.962788 49.429047 -31.947739 -156.54604 -32.770939 -154.57133 -19.616545 -157.12213
14180000000 -27.335485 56.448761 -31.755806 166.04732 -31.977644 166.90697 -20.545506 -167.78975
14200000000 -25.565662 38.29269 -31.647465 129.87344 -31.662045 129.45412 -20.469406 -164.38208
14220000000 -25.085512 22.041443 -31.57448 91.267937 -31.673479 91.02652 -22.635841 -167.76216
14240000000 -26.020407 7.7590337 -31.787672 53.85371 -31.950584 53.443455 -24.279619 -168.10426
14260000000 -27.501741 7.4965887 -31.760822 19.66449 -31.824234 19.512859 -23.333904 -155.50081
14280000000 -27.130154 18.814192 -31.653791 -18.102345 -31.923882 -16.475447 -23.771061 -134.76279
14300000000 -25.499247 16.913467 -31.823711 -53.689919 -31.842192 -54.180153 -24.33617 -134.39258
14320000000 -24.114223 5.5764861 -31.701725 -87.245491 -31.753004 -88.545074 -24.962008 -125.75911
14340000000 -24.497644 -9.4090538 -31.514824 -124.5014 -31.422321 -125.10809 -24.710831 -107.44692
14360000000 -26.224157 -15.61246 -31.565228 -159.95059 -31.573029 -161.87827 -23.124283 -107.12109
14380000000 -27.010166 -5.5168815 -31.335684 165.73663 -31.330101 164.60115 -20.364948 -110.80845
14400000000 -25.93926 3.8623431 -31.063366 129.42606 -31.163332 127.63046 -19.24649 -110.14226
14420000000 -23.910891 -5.1022062 -31.03149 93.355011 -31.380449 90.737312 -18.246323 -106.52515
14440000000 -24.280973 -13.65882 -30.681091 58.930038 -30.930298 57.359753 -18.695757 -114.35486
14460000000 -25.351156 -18.784557 -30.209948 22.500767 -30.473026 22.426638 -18.032654 -112.45597
14480000000 -25.95727 -13.878693 -29.771402 -14.55786 -30.118305 -15.606038 -17.387846 -120.28988
14500000000 -25.417646 -3.8172536 -29.608965 -52.627361 -29.940355 -52.309208 -16.699032 -124.87404
14520000000 -23.717573 -6.3410144 -29.370951 -89.093277 -29.733315 -88.030807 -16.371965 -126.05879
14540000000 -23.179543 -12.177357 -29.155081 -127.67989 -29.784885 -127.15737 -17.10766 -121.7545
14560000000 -23.597101 -16.817881 -28.961473 -164.98119 -29.356512 -163.20674 -17.471115 -131.80573
14580000000 -23.685226 -17.468496 -28.801882 157.64999 -29.100906 159.87833 -17.155796 -128.73428
14600000000 -23.559801 -12.713271 -28.612873 120.99767 -28.843565 123.31452 -16.502014 -131.78319
14620000000 -22.833015 -10.218203 -28.31469 82.575493 -28.55747 84.523506 -16.629524 -136.67642
14640000000 -21.349751 -15.440358 -28.279282 43.961781 -28.458715 47.368668 -15.689676 -131.70461
14660000000 -20.819313 -21.657921 -28.265377 6.1145806 -28.524969 8.7483912 -17.085497 -137.33629
14680000000 -21.176888 -27.650023 -28.151552 -31.145615 -28.169844 -27.668919 -15.916452 -137.62068
14700000000 -21.516615 -27.254683 -27.928587 -68.791008 -27.884716 -65.410637 -15.353241 -141.44536
14720000000 -21.203159 -23.748526 -27.846912 -107.63359 -27.664751 -104.80747 -15.739203 -147.57516
14740000000 -20.01561 -25.439028 -27.783607 -145.83908 -27.570957 -143.2915 -15.460862 -152.46419
14760000000 -19.18767 -34.748577 -27.736917 174.99052 -27.481716 178.16151 -14.822389 -146.63541
14780000000 -19.518694 -42.687561 -27.773098 136.66284 -27.448174 138.58133 -16.400265 -159.58562
14800000000 -20.09215 -44.810059 -27.759834 97.809593 -27.390301 99.570534 -15.969007 -156.53503
14820000000 -20.171103 -42.141899 -27.933617 59.592033 -27.470016 60.815636 -16.385695 -162.96841
14840000000 -19.454496 -45.561562 -27.841703 21.588932 -27.48501 22.113888 -17.621746 -168.20358
14860000000 -19.033953 -52.869877 -27.926514 -17.509626 -27.563004 -17.186352 -17.555876 -168.1913
14880000000 -19.198856 -59.018341 -28.065748 -55.725246 -27.706783 -55.912319 -17.007 -157.70647
14900000000 -19.581635 -62.903046 -28.063114 -94.123619 -27.677811 -95.014198 -17.796133 -162.70506
14920000000 -19.947166 -64.45932 -28.153204 -132.28171 -27.845816 -133.71149 -16.525177 -170.51646
14940000000 -20.054379 -68.018555 -28.26545 -170.88763 -27.994574 -172.08159 -19.297396 -170.33647
14960000000 -20.303793 -69.983849 -28.39868 150.97345 -28.144478 149.93918 -20.543091 -169.09544
14980000000 -20.373724 -71.662186 -28.249052 112.15398 -28.081537 110.65208 -20.087917 -164.8712
15000000000 -20.324339 -76.117653 -28.372862 73.07196 -28.276119 71.544884 -19.732307 -156.00038
15020000000 -20.740036 -82.097023 -28.613848 33.775307 -28.498558 32.688217 -20.050413 -142.81155
15040000000 -22.296921 -85.475494 -28.75157 -4.3361888 -28.541462 -5.2797203 -17.698074 -171.65131
15060000000 -23.294426 -81.269363 -28.807249 -42.393047 -28.582701 -43.678596 -20.808363 -151.94833
15080000000 -22.500681 -75.968323 -28.812706 -81.097054 -28.696108 -82.130417 -20.385675 -144.68346
15100000000 -21.786051 -83.411446 -28.868402 -120.68096 -28.740368 -121.54068 -18.966545 -143.23094
15120000000 -22.774641 -92.119858 -28.950418 -158.78336 -28.916317 -160.00143 -18.215326 -146.3999
15140000000 -24.377302 -87.761131 -29.061626 161.2937 -28.957739 160.63925 -17.870134 -132.19279
15160000000 -24.860296 -77.59269 -29.108141 122.30773 -28.94278 121.99734 -17.607918 -165.1432
15180000000 -23.54915 -74.681915 -29.19486 83.798393 -29.083504 82.476089 -18.456316 -150.29425
15200000000 -22.963346 -80.302109 -29.284889 44.822918 -29.15962 43.705116 -17.883263 -149.70862
15220000000 -23.501608 -84.449547 -29.285194 5.6305666 -29.264309 4.6112752 -17.94743 -158.57022
15240000000 -23.799942 -80.583115 -29.278118 -33.629456 -29.337984 -34.415489 -17.43191 -157.94769
15260000000 -23.440994 -80.820137 -29.369591 -73.178726 -29.287329 -73.433723 -18.064993 -139.36926
15280000000 -23.615389 -82.865334 -29.354673 -112.07431 -29.21114 -113.71959 -19.072641 -170.65619
15300000000 -22.884165 -81.859001 -29.513624 -152.09053 -29.488747 -153.11026 -18.632931 -155.48322
15320000000 -22.222256 -88.937698 -29.504789 169.31892 -29.577717 168.15488 -19.095331 -162.3665
15340000000 -22.167322 -97.80452 -29.52006 129.82756 -29.651718 129.47743 -19.514267 -164.49214
15360000000 -22.845097 -101.83791 -29.572102 90.129387 -29.716675 89.782799 -18.494259 -158.23694
15380000000 -23.970156 -102.59504 -29.720016 52.017307 -29.637997 51.776474 -18.616335 -142.68022
15400000000 -23.844721 -101.93697 -29.509764 13.005701 -29.536663 12.33754 -18.613682 -151.65695
15420000000 -22.818554 -107.70547 -29.615488 -27.216154 -29.507256 -27.83316 -17.072254 -157.25552
15440000000 -22.343178 -119.60413 -29.692732 -65.97747 -29.72212 -65.976456 -19.179161 -163.05385
15460000000 -23.273237 -132.68922 -29.589745 -104.67509 -29.642406 -104.70322 -19.491707 -165.259
15480000000 -25.847988 -137.08519 -29.535566 -144.60735 -29.522617 -144.60397 -18.157146 -159.49251
15500000000 -26.90975 -133.56876 -29.655783 175.97012 -29.56126 175.95117 -18.541029 -156.90515
15520000000 -25.958145 -135.84546 -29.739441 137.6915 -29.574165 137.56741 -20.53594 -146.72517
15540000000 -25.450472 -153.42998 -29.769823 99.298447 -30.068022 98.64151 -17.634684 -170.1532
15560000000 -25.865969 -167.20401 -29.746067 60.367931 -29.793139 60.581902 -20.120731 -167.48395
15580000000 -28.000038 179.69975 -29.831284 21.450491 -29.816017 21.305054 -20.194475 -165.16634
15600000000 -29.747009 170.65559 -29.890909 -16.391819 -29.795689 -16.832706 -19.433365 -157.43109
15620000000 -31.033798 156.3913 -29.85067 -55.227692 -29.784895 -55.987888 -19.194469 -153.74947
15640000000 -31.725597 136.66362 -29.87937 -92.879936 -29.688942 -93.222412 -22.029289 -134.72888
15660000000 -30.238108 131.57462 -29.806259 -131.52838 -30.241457 -130.48909 -19.114204 -170.15794
15680000000 -29.335621 126.72688 -29.921906 -170.83598 -29.976749 -170.08684 -21.106932 -157.80713
15700000000 -27.98612 105.26858 -30.070013 152.41008 -30.004736 151.735 -20.527149 -154.08047
15720000000 -26.974648 83.377014 -29.931227 114.47518 -29.964128 113.74403 -20.124119 -159.85718
15740000000 -26.413784 58.968575 -30.007511 75.336037 -29.931187 74.722137 -19.936096 -141.82848
15760000000 -27.225311 54.00415 -30.041325 37.906441 -29.944487 37.093311 -16.759579 164.41132
15780000000 -26.799263 68.938736 -30.216404 1.0823247 -30.45838 1.5867062 -20.900829 -147.19519
15800000000 -24.439905 66.748947 -30.257202 -36.677513 -30.337128 -37.910625 -19.226505 -132.37889
15820000000 -23.113352 54.575542 -30.262239 -74.077782 -30.378357 -74.359268 -18.818571 -138.93141
15840000000 -22.708469 39.862091 -30.371199 -110.88987 -30.648951 -112.73183 -17.9617 -144.09502
15860000000 -23.026707 31.839327 -30.205351 -147.77321 -30.334448 -148.42842 -16.272587 -133.41975
15880000000 -23.122501 38.047527 -30.274477 173.8931 -30.432688 172.46844 -17.814352 -168.16794
15900000000 -22.272821 39.401474 -30.296165 138.12 -30.606745 137.47067 -15.404594 -137.96078
15920000000 -21.322002 38.748741 -30.202023 101.44798 -30.814468 100.18903 -14.477987 -145.21632
15940000000 -20.65818 33.041889 -30.145931 64.035637 -30.689301 64.569832 -14.931355 -152.93796
15960000000 -19.989733 28.803469 -30.030039 26.48118 -30.654896 26.822216 -14.321238 -157.55438
15980000000 -19.702093 25.543251 -29.95812 -11.231718 -30.354059 -9.0364094 -13.706613 -153.30664
16000000000 -19.779284 26.288101 -29.879612 -49.436779 -30.272955 -47.868977 -13.897782 -158.82568
16020000000 -19.420403 28.618252 -29.874643 -87.80294 -30.244162 -85.904045 -11.694414 -164.0106
16040000000 -18.340174 29.112192 -29.816269 -125.13184 -30.71817 -121.93353 -13.473727 -173.08453
16060000000 -17.278448 24.852936 -30.058086 -162.88101 -30.413166 -159.47751 -14.436354 178.50826
16080000000 -16.629435 18.777311 -29.988144 159.19296 -30.272457 162.25375 -14.398532 176.74828
16100000000 -16.84786 17.067617 -30.178324 121.00374 -30.228373 124.02121 -14.966327 178.17441
16120000000 -16.463081 18.87114 -30.203651 82.687607 -30.083744 85.783127 -16.033249 176.36929
16140000000 -15.698365 20.600901 -30.581055 45.338814 -31.381618 47.399113 -13.895485 173.20958
16160000000 -14.804127 16.441803 -30.590237 5.5757151 -31.059969 9.76968 -16.074274 166.29013
16180000000 -14.129357 11.057549 -31.107271 -31.126566 -30.981632 -29.554619 -17.412897 161.62209
16200000000 -13.882545 7.7164636 -31.318245 -67.69342 -31.214045 -66.371422 -17.963129 168.44899
16220000000 -13.546979 6.7544217 -31.398224 -104.33271 -31.29978 -103.68883 -17.638931 169.06897
16240000000 -12.971915 5.6619959 -31.584568 -142.57848 -31.254593 -141.58582 -20.526293 173.52643
16260000000 -12.6712 4.162199 -31.926418 -179.17151 -32.609589 -175.94487 -17.270973 166.87053
16280000000 -12.129285 1.4657066 -32.200577 143.67656 -32.469387 146.88245 -18.901588 165.05272
16300000000 -11.444839 -2.6731102 -32.319622 106.97948 -32.376316 107.9929 -19.893667 167.26749
16320000000 -11.147236 -6.9231076 -32.51524 69.770584 -32.615963 70.206322 -18.523298 164.42285
16340000000 -11.064559 -9.3846655 -32.678677 31.811815 -32.722588 34.048714 -18.675533 166.15175
16360000000 -10.794686 -9.3082008 -33.038342 -6.2122331 -32.804611 -5.1624198 -22.592533 167.05133
16380000000 -10.35763 -9.6696863 -33.385307 -42.679298 -33.676582 -38.280369 -18.656731 154.13002
16400000000 -9.6846056 -13.958273 -33.66555 -79.452911 -33.609138 -77.756813 -22.558836 156.32777
16420000000 -9.422349 -19.313772 -33.987492 -118.08008 -33.899727 -115.98847 -22.121798 159.99312
16440000000 -9.455699 -22.305153 -34.546398 -154.76201 -34.553715 -155.07672 -22.571762 148.58916
16460000000 -9.3524065 -22.074766 -34.76582 167.67488 -34.652523 169.62775 -25.347145 160.39076
16480000000 -8.8228626 -21.855616 -35.301445 129.83525 -35.101425 128.61028 -33.58366 -167.49113
16500000000 -8.3151398 -25.26519 -36.049786 94.71183 -35.983734 94.490341 -30.433668 -160.82173
16520000000 -8.0340605 -29.679695 -36.348221 57.912907 -36.589626 57.432957 -23.593069 -145.81252
16540000000 -7.9377751 -32.437729 -36.66481 21.0445 -36.548412 20.326002 -24.770399 -158.26514
16560000000 -7.7581997 -33.240688 -37.425682 -14.048853 -37.610569 -16.715639 -25.629795 -160.88455
16580000000 -7.350729 -33.739597 -37.689236 -47.91893 -37.872406 -48.196484 -24.807276 -139.58043
16600000000 -7.0044084 -35.597218 -37.679562 -85.782776 -37.771053 -84.905075 -25.039267 -131.31474
16620000000 -6.6977015 -39.125652 -38.387535 -123.12708 -38.270187 -124.06796 -25.696815 -121.53766
16640000000 -6.3312197 -41.410473 -38.777889 -156.77643 -39.386105 -154.33601 -19.575161 -142.06929
16660000000 -6.0711646 -43.782425 -38.861614 164.87695 -38.759109 166.13586 -22.298601 -144.02072
16680000000 -5.7974887 -45.172321 -39.258064 127.11807 -39.029991 131.05725 -22.8986 -133.83305
16700000000 -5.4028811 -46.557987 -39.750702 89.120514 -39.402809 91.991356 -21.045156 -122.20423
16720000000 -4.9597411 -49.00882 -40.74086 49.957119 -39.991302 53.33511 -19.577391 -123.43451
16740000000 -4.6881304 -53.770805 -41.528236 15.872176 -41.46122 18.122999 -13.820417 -150.64722
16760000000 -4.3402638 -55.949139 -41.46067 -19.507349 -40.872711 -14.963927 -17.110573 -139.7366
16780000000 -4.0582209 -58.588791 -42.291447 -57.68045 -41.235504 -58.874756 -18.547812 -146.14439
16800000000 -3.6875663 -60.552792 -42.786484 -96.557892 -41.640076 -98.605301 -18.585318 -139.98697
16820000000 -3.2977078 -63.428844 -43.635693 -132.56902 -42.669502 -135.49448 -17.24498 -146.99513
16840000000 -2.9626577 -67.062645 -44.602409 -169.72713 -43.573704 -176.51747 -17.417013 -147.61423
16860000000 -2.8065593 -71.937164 -45.25182 155.70479 -45.137959 150.12787 -22.273199 -137.31888
16880000000 -2.4819248 -74.157646 -45.715313 116.37259 -45.225807 108.50405 -18.462933 -158.87646
16900000000 -2.1765668 -77.155045 -46.485706 80.681114 -46.156013 69.552414 -19.942337 -155.69963
16920000000 -1.9216242 -80.319839 -46.875988 45.472111 -47.332214 33.074959 -19.362352 -158.17659
16940000000 -1.6558932 -83.868134 -47.130264 1.1832134 -47.897034 -5.1597285 -20.078808 -160.11684
16960000000 -1.450057 -87.621696 -48.468307 -35.970772 -49.356449 -46.505512 -21.088696 -152.73557
16980000000 -1.2499162 -91.199661 -49.240166 -76.675873 -50.380924 -83.909042 -24.290844 -121.02907
17000000000 -1.0306628 -95.108292 -50.643856 -119.23763 -51.714333 -131.83737 -21.806238 -129.21948
