!Keysight Technologies,P9374A,MY57211810,A.19.30.04
!Date: Friday, May 09, 2025 11:26:58
!Correction: S11(C* 2-Port  ) 
!S21(C* 2-Port  ) 
!S12(C* 2-Port  ) 
!S22(C* 2-Port  ) 
!S2P File: Measurements: S11, S21, S12, S22:
# Hz S  dB   R 50
13000000000 -20.409761 -69.435997 -41.118977 -32.725403 -41.074127 -33.418549 -9.1259508 -90.131775
13020000000 -18.923288 -74.24279 -41.948486 -73.427902 -42.081532 -73.440887 -8.917942 -92.296234
13040000000 -18.508047 -85.94043 -42.451813 -112.96806 -42.563099 -112.94619 -8.6165123 -95.604347
13060000000 -20.491901 -98.099159 -42.795612 -151.14813 -42.533566 -149.27547 -8.1765537 -92.203041
13080000000 -23.602173 -92.401718 -44.085724 165.98367 -43.816624 163.60378 -7.9591932 -97.759857
13100000000 -22.537067 -66.319801 -45.468872 130.07138 -45.732193 129.06323 -7.7443528 -101.17551
13120000000 -18.789085 -67.043503 -46.309265 93.693207 -46.561283 91.381485 -7.7801681 -102.14541
13140000000 -17.715553 -84.681297 -47.361038 48.779827 -47.658203 46.632366 -7.1110964 -107.30222
13160000000 -18.58061 -101.61976 -48.60754 16.278183 -48.321732 21.823067 -6.8909216 -110.9544
13180000000 -22.819958 -108.58602 -48.053802 -30.881054 -47.751469 -25.368587 -6.5458064 -111.01579
13200000000 -24.187002 -72.885834 -49.18985 -75.459267 -48.650909 -74.343765 -6.5627737 -116.47881
13220000000 -19.473413 -70.686943 -51.263802 -133.10947 -50.742023 -131.82152 -6.9753723 -125.21716
13240000000 -17.103113 -89.729225 -50.923721 -177.23151 -50.316113 -179.99466 -6.4165969 -121.57215
13260000000 -17.752956 -112.39967 -50.402924 116.35075 -49.788914 113.80692 -6.1071334 -131.1897
13280000000 -21.216599 -125.86163 -49.827526 73.45282 -49.850071 69.272606 -6.1235847 -134.23396
13300000000 -25.906139 -100.42296 -46.390671 19.842382 -46.688969 18.516439 -6.3702106 -139.45412
13320000000 -21.469646 -79.504059 -44.510895 -32.260651 -44.678791 -30.9314 -6.6995378 -144.35924
13340000000 -18.433203 -96.290726 -43.371456 -81.633766 -43.762001 -81.291252 -8.0613222 -150.82729
13360000000 -18.101297 -119.48408 -41.770248 -129.9977 -41.908192 -128.15546 -7.2799211 -154.88956
13380000000 -20.595623 -139.59831 -41.244839 -174.61472 -41.24242 -172.75813 -7.7512698 -160.43011
13400000000 -26.196926 -141.01003 -39.973984 144.85226 -39.939438 146.27333 -8.2299995 -163.73309
13420000000 -26.38271 -94.974632 -39.314415 100.15742 -39.414635 101.22472 -9.1041851 -166.38205
13440000000 -21.354763 -99.111626 -38.96476 63.499763 -38.988609 63.73027 -10.0418 -170.86081
13460000000 -20.003748 -122.19904 -37.976471 23.829184 -38.637299 24.495352 -11.504307 -169.61038
13480000000 -21.104675 -147.91103 -37.691452 -21.033958 -37.779766 -19.586922 -11.216562 -175.034
13500000000 -26.126219 -167.1394 -37.391052 -59.801899 -37.541855 -58.591793 -11.777064 -175.70517
13520000000 -35.021526 -120.46262 -37.322334 -102.46971 -37.320953 -101.22645 -12.827088 -174.67493
13540000000 -26.442417 -91.517311 -37.178059 -137.35634 -37.134197 -135.47635 -13.596658 -171.16769
13560000000 -23.136677 -114.74792 -36.827385 -176.05901 -36.646187 -174.97699 -15.17465 -175.10269
13580000000 -23.000601 -143.59294 -36.831711 145.56618 -37.020535 147.18123 -15.500733 -169.22519
13600000000 -26.34654 -172.42035 -36.92852 107.43995 -36.845501 108.40218 -15.348421 -171.33109
13620000000 -38.940224 160.47475 -37.279633 72.145546 -37.109917 72.59803 -16.083414 -167.8692
13640000000 -30.934042 -60.321655 -36.759548 35.181515 -36.690556 34.707924 -16.413877 -163.77293
13660000000 -24.208252 -93.340332 -37.037582 -2.277055 -36.857609 -1.8013365 -16.110828 -156.97824
13680000000 -23.493608 -127.68367 -37.453785 -37.233631 -37.560444 -34.777973 -18.668041 -155.51138
13700000000 -25.651989 -160.87756 -37.252594 -68.522652 -37.212505 -69.57267 -17.341091 -156.61478
13720000000 -35.052544 145.49774 -36.820393 -102.63962 -37.066181 -103.93789 -17.625816 -153.43083
13740000000 -32.252365 -41.65387 -36.648376 -138.63834 -36.867935 -139.07196 -17.63224 -146.74422
13760000000 -24.810175 -87.159515 -36.424099 -175.23523 -36.546913 -174.65866 -17.147654 -145.0835
13780000000 -22.628174 -125.15598 -36.567696 150.10829 -36.44957 150.41319 -16.617123 -140.19925
13800000000 -23.648584 -162.21198 -36.059731 116.79335 -36.163029 116.85635 -17.035894 -140.38922
13820000000 -30.11187 163.88817 -35.857849 82.342499 -36.222122 80.284012 -17.597038 -144.41113
13840000000 -42.901253 -33.928276 -35.345947 49.295216 -35.948349 49.484776 -16.951107 -136.62398
13860000000 -26.814241 -86.782883 -34.843666 12.265059 -35.196373 13.096456 -16.231346 -135.05292
13880000000 -23.649086 -128.44948 -34.358814 -23.736986 -34.633923 -23.326797 -15.399667 -133.63824
13900000000 -23.07202 -176.49773 -34.120007 -60.437782 -34.28833 -58.731998 -14.995436 -131.07091
13920000000 -25.196024 142.35358 -34.079876 -96.560623 -33.962704 -94.633507 -14.842596 -129.17728
13940000000 -31.763805 96.706802 -33.819206 -132.66167 -34.259075 -133.14571 -15.732026 -136.15175
13960000000 -37.69035 -81.201653 -33.49099 -170.20747 -33.507141 -169.5009 -14.106372 -131.94264
13980000000 -28.360054 -140.33391 -33.426342 155.2476 -33.362549 155.59404 -13.256361 -133.67929
14000000000 -25.068399 171.80956 -32.943996 120.43546 -33.029068 120.78584 -12.58447 -134.15097
14020000000 -23.813999 124.7324 -32.770866 81.86129 -32.74474 82.305168 -12.238774 -135.62918
14040000000 -24.543156 79.335693 -32.85117 47.292439 -32.682953 48.660671 -11.910901 -134.06352
14060000000 -29.02729 38.562042 -32.706402 14.512181 -33.109558 15.755939 -12.598358 -141.28726
14080000000 -39.354942 -38.396351 -32.150188 -22.740496 -32.046963 -21.594744 -11.154583 -143.88176
14100000000 -33.029881 159.81094 -31.886574 -58.081497 -31.770805 -57.952255 -10.582941 -147.16829
14120000000 -25.217875 107.77071 -31.516945 -94.120163 -31.507017 -94.02832 -10.503275 -149.94946
14140000000 -22.472057 65.159637 -31.175312 -129.61513 -31.157675 -129.7151 -10.112263 -153.50725
14160000000 -22.14069 25.641563 -30.880095 -168.80672 -31.486403 -167.57149 -10.79055 -156.36913
14180000000 -25.986134 -6.4575391 -30.271301 157.1868 -30.512594 158.05995 -10.226858 -162.30774
14200000000 -35.358196 -23.877304 -30.119839 119.12809 -30.124001 119.41027 -9.3936186 -167.87103
14220000000 -30.5851 86.06498 -29.754501 83.173836 -29.822695 83.651978 -9.5963039 -173.54523
14240000000 -23.346746 54.192017 -29.135075 44.440964 -29.256416 44.46711 -9.7139387 -177.51379
14260000000 -21.055058 20.004023 -29.47681 5.8004246 -29.451124 5.8989201 -9.5584116 178.81448
14280000000 -21.698792 -9.6602364 -29.223705 -28.817959 -29.636076 -27.424459 -10.469163 176.00641
14300000000 -25.485989 -37.908394 -28.548653 -68.382713 -28.588413 -67.881935 -9.8931446 166.58444
14320000000 -36.503288 -6.7641506 -28.538071 -106.55499 -28.655184 -106.83921 -10.008047 159.37903
14340000000 -26.924782 41.475647 -28.558046 -143.22546 -28.640701 -142.34351 -10.680411 155.34315
14360000000 -22.170971 18.63258 -28.319727 179.41925 -28.433002 179.76259 -11.049273 151.4127
14380000000 -20.688429 -9.0267467 -28.159571 141.54729 -28.180855 142.61169 -11.540838 149.29803
14400000000 -22.506409 -35.451427 -28.0222 102.99174 -28.088703 104.37197 -12.172136 142.66585
14420000000 -27.70289 -53.714909 -28.060392 65.691437 -28.254766 66.172852 -13.258861 137.64249
14440000000 -32.721397 34.356899 -27.888624 27.76494 -27.960018 28.698652 -12.625794 130.49722
14460000000 -23.12879 25.038443 -27.889059 -10.374085 -27.862675 -9.2810917 -13.847657 128.60408
14480000000 -20.60924 -2.5014589 -28.210712 -48.119076 -28.253218 -47.700195 -14.708249 126.88938
14500000000 -20.896175 -28.378334 -28.169737 -83.625862 -28.160055 -82.55304 -15.818221 122.95906
14520000000 -24.27269 -50.984253 -27.8836 -120.4771 -27.866064 -119.1429 -16.923018 118.57455
14540000000 -34.309303 -10.820639 -27.751837 -158.68712 -28.053694 -157.83228 -18.187773 108.10935
14560000000 -23.866653 26.747147 -27.785709 161.86328 -27.844767 162.46771 -17.22744 107.79672
14580000000 -19.689281 1.8673391 -27.967962 124.43699 -28.015764 125.46167 -19.413502 107.50539
14600000000 -19.122778 -23.172468 -28.081047 88.042397 -28.136751 88.740883 -21.499535 111.33887
14620000000 -21.675137 -45.60733 -27.904989 51.045952 -28.054255 52.172901 -22.31192 101.98509
14640000000 -27.043064 -36.18433 -27.887426 12.942301 -27.921473 15.038702 -26.860403 100.50139
14660000000 -23.958353 10.170029 -27.879463 -24.51885 -27.944401 -22.867847 -23.583981 89.514755
14680000000 -18.948769 -2.6894813 -27.854418 -61.585297 -27.766527 -60.359749 -26.485739 100.69545
14700000000 -17.607464 -26.736225 -27.750834 -100.07529 -27.697643 -98.908798 -30.996841 133.53722
14720000000 -19.118683 -46.854935 -27.870499 -138.86224 -27.789385 -137.85178 -34.520588 141.21182
14740000000 -22.799885 -52.086777 -28.153889 -175.05708 -28.123796 -174.96175 -35.483997 177.06302
14760000000 -23.717751 -21.325253 -27.833809 147.56265 -27.894424 149.0303 -28.49725 -119.96103
14780000000 -19.213009 -17.6054 -27.751873 108.6783 -27.757565 109.68579 -33.88163 179.62737
14800000000 -17.208323 -35.522392 -27.840523 70.904007 -27.766947 71.583694 -26.140608 -150.55988
14820000000 -17.492704 -54.637733 -27.807802 32.903286 -27.77006 33.582245 -23.819704 -155.60147
14840000000 -19.874212 -69.565773 -27.779215 -5.9893055 -27.845263 -5.3601589 -23.915546 -154.43362
14860000000 -22.559532 -56.858673 -27.833694 -44.081806 -27.864063 -43.05238 -22.213615 -152.28458
14880000000 -20.839647 -40.785618 -27.787739 -81.172333 -27.791065 -80.610611 -19.986912 -144.94992
14900000000 -18.230534 -47.147778 -27.447042 -121.37617 -27.501417 -120.85483 -20.176384 -162.25363
14920000000 -17.52821 -63.452507 -27.532646 -161.07262 -27.512016 -160.29305 -17.014091 -176.40813
14940000000 -18.430656 -80.375961 -27.549381 160.18291 -27.531372 160.35162 -18.268082 179.73109
14960000000 -21.462955 -89.936882 -27.396093 119.72075 -27.482662 120.30157 -18.724745 176.62082
14980000000 -23.842678 -71.450645 -27.505516 78.606239 -27.570942 79.531044 -18.501566 174.20168
15000000000 -21.602432 -56.240284 -27.725643 39.227657 -27.711151 39.680946 -18.599045 169.64691
15020000000 -19.045294 -64.433098 -27.616051 -0.22809948 -27.710464 0.22980028 -19.489338 160.50073
15040000000 -18.705114 -86.360115 -27.734159 -42.479912 -27.660307 -41.15427 -14.867247 145.95308
15060000000 -20.846441 -106.6468 -27.931734 -82.174698 -27.819706 -81.691109 -17.783733 138.54634
15080000000 -26.618933 -112.10334 -28.034126 -122.91895 -28.072119 -122.75456 -19.442438 134.65349
15100000000 -27.639122 -54.385254 -28.179127 -165.6059 -28.20191 -164.45621 -20.920477 127.68066
15120000000 -21.118971 -56.112698 -28.701094 153.82146 -28.68553 154.26157 -21.413879 114.83545
15140000000 -19.084692 -79.633926 -28.999525 113.2531 -28.985331 113.48292 -24.913382 88.012756
15160000000 -20.614305 -107.31647 -29.1964 74.037613 -29.234463 74.852066 -18.714111 101.7161
15180000000 -26.021446 -126.63167 -29.227158 33.178612 -29.291971 33.98267 -23.987148 79.264023
15200000000 -31.625446 -39.793095 -29.558121 -8.2601213 -29.634146 -7.4144683 -29.574892 54.259285
15220000000 -21.862463 -44.44175 -29.783405 -49.338509 -29.90048 -47.997662 -27.818529 33.36647
15240000000 -19.019072 -70.725067 -30.251905 -89.91713 -30.345142 -89.163239 -27.84856 -3.6846676
15260000000 -19.405476 -98.939461 -30.632212 -129.00313 -30.672855 -128.4415 -21.794447 -35.029026
15280000000 -23.304346 -123.94892 -30.591862 -168.71362 -30.669409 -167.86902 -28.075439 -2.1066782
15300000000 -32.288181 -94.553833 -30.73852 150.32014 -30.803194 151.41722 -23.881804 -64.962143
15320000000 -23.705141 -51.70882 -31.124249 112.05808 -31.284817 112.31866 -22.891352 -76.873039
15340000000 -19.396189 -75.10379 -31.036617 71.583176 -31.211834 73.448784 -21.615194 -78.615776
15360000000 -18.724035 -101.19205 -31.196949 31.887852 -31.316679 32.828144 -19.355745 -88.65834
15380000000 -20.798927 -127.1155 -31.577248 -7.5620995 -31.576517 -6.8021698 -17.157986 -88.136948
15400000000 -26.170071 -145.53941 -31.505234 -45.171715 -31.561687 -43.869316 -17.712576 -103.34319
15420000000 -30.621225 -90.217484 -31.446171 -83.45945 -31.210264 -82.889565 -16.094091 -120.53764
15440000000 -22.975655 -85.239624 -31.219213 -123.63972 -31.364939 -122.86861 -16.539722 -120.06542
15460000000 -20.301218 -109.01021 -31.296324 -163.90517 -31.319784 -162.54216 -16.064573 -122.21904
15480000000 -20.127312 -137.68214 -31.361298 157.57382 -31.392303 157.7896 -14.788908 -126.04858
15500000000 -22.528435 -172.52806 -31.136887 119.79037 -31.196976 120.71824 -14.54445 -131.51266
15520000000 -30.469067 158.43793 -31.125771 80.836189 -31.052952 81.95787 -14.68005 -132.63434
15540000000 -37.002899 -105.33353 -31.024 43.632328 -31.440245 44.02562 -13.167792 -153.84769
15560000000 -25.804831 -114.71857 -30.743078 3.824894 -30.74564 5.4081044 -13.421351 -153.92705
15580000000 -22.529255 -148.70108 -30.626719 -36.262527 -30.704668 -34.987507 -13.238179 -155.96397
15600000000 -22.347761 168.54509 -30.578476 -74.479073 -30.527447 -73.377327 -12.860434 -159.18748
15620000000 -23.882067 123.14935 -30.415895 -112.21111 -30.33589 -111.71867 -12.727088 -167.14371
15640000000 -26.849573 65.993423 -30.151646 -150.86212 -29.927364 -149.48907 -13.851273 -170.60263
15660000000 -36.385189 -6.4976573 -29.86536 171.20724 -30.248713 173.6431 -11.55279 177.13264
15680000000 -30.850531 -157.75587 -29.974211 131.26711 -30.026299 132.86118 -12.170357 173.24228
15700000000 -24.394323 149.64819 -29.605299 94.202675 -29.54324 95.048958 -12.284678 169.75862
15720000000 -21.776646 101.96273 -29.315472 55.577641 -29.390347 56.014416 -12.22916 160.83368
15740000000 -21.038399 57.431484 -29.010471 15.844023 -28.989157 16.318323 -12.797861 154.0526
15760000000 -22.801514 23.075993 -28.941727 -24.444607 -28.898077 -23.262751 -9.0002184 137.7021
15780000000 -31.884087 -2.2627745 -28.804581 -62.698444 -28.925852 -60.072025 -12.027605 139.19237
15800000000 -29.381104 111.3977 -28.745575 -101.1951 -28.775661 -100.75864 -13.343751 134.2804
15820000000 -21.469288 85.603371 -28.786489 -140.80273 -28.809061 -139.73459 -13.474939 126.50311
15840000000 -18.992414 53.517788 -28.536547 -178.24054 -28.793764 -177.70476 -13.86027 115.74725
15860000000 -18.612123 21.473148 -28.263458 141.95627 -28.278715 143.70071 -15.567605 105.73795
15880000000 -22.525618 -1.8307043 -28.204201 99.433861 -28.139055 100.78231 -11.957501 96.658867
15900000000 -30.128857 36.040798 -28.674957 61.070511 -28.70199 62.346096 -16.946795 92.265938
15920000000 -22.272144 68.639023 -28.636486 23.033192 -29.004396 23.27392 -19.385315 89.893562
15940000000 -17.909678 50.774727 -28.617474 -15.467653 -28.713943 -13.085643 -19.406595 75.933998
15960000000 -16.704967 23.913868 -28.757732 -54.913204 -28.901255 -53.931187 -20.962856 59.561947
15980000000 -18.437441 3.1462996 -28.917147 -94.350143 -28.906897 -92.238548 -23.086781 26.374844
16000000000 -23.324549 7.5921121 -29.02466 -132.70314 -29.055527 -130.77014 -24.061289 16.577524
16020000000 -21.822733 49.453724 -29.243433 -172.83179 -29.180164 -171.20093 -31.245811 -108.22449
16040000000 -16.961792 45.464928 -29.738081 149.13972 -30.409733 150.82271 -31.40695 -75.395493
16060000000 -14.974768 26.151354 -30.055872 112.53732 -30.181995 114.5408 -26.547092 -60.15659
16080000000 -15.16812 7.2135944 -30.120266 75.221062 -30.113586 76.746689 -23.409698 -79.160233
16100000000 -17.882074 0.60365307 -30.283073 36.235172 -30.206341 37.284657 -20.874443 -87.69593
16120000000 -19.162416 22.475687 -30.799156 -3.381855 -30.607441 -1.7302229 -20.13879 -94.149361
16140000000 -15.828786 34.796719 -31.505514 -38.958782 -32.344925 -39.117798 -17.503012 -143.29811
16160000000 -13.1815 23.217607 -31.299343 -76.191116 -31.869251 -72.480957 -18.111536 -130.784
16180000000 -12.507702 6.0693102 -31.902122 -114.7113 -31.844944 -113.49799 -17.41292 -128.17366
16200000000 -13.726053 -5.0147791 -32.387245 -149.06136 -32.260799 -148.5858 -16.187597 -128.54524
16220000000 -15.535254 0.81290776 -32.450558 174.07211 -32.438847 174.04784 -15.543362 -138.17268
16240000000 -14.168766 15.266334 -32.981167 136.59911 -32.661404 137.69835 -15.811494 -135.63437
16260000000 -11.789032 13.466022 -33.435574 102.46515 -34.166172 105.20399 -14.725974 -156.29469
16280000000 -10.611595 0.5536226 -33.358013 66.071388 -33.582474 68.540047 -14.07577 -155.11125
16300000000 -10.80757 -11.361958 -33.725689 30.020632 -33.761398 30.399202 -13.740992 -155.11221
16320000000 -12.115791 -15.077504 -33.877033 -4.3870158 -34.018131 -5.227293 -13.191524 -162.46033
16340000000 -12.511889 -5.8007588 -33.781387 -42.231937 -33.926994 -41.132725 -12.861227 -165.42773
16360000000 -10.706201 -0.95864725 -34.34322 -78.672043 -34.204556 -78.266998 -13.659044 -166.05197
16380000000 -9.2543125 -7.0398707 -34.253811 -111.54531 -34.597141 -107.53448 -12.142782 -177.14708
16400000000 -8.8131466 -18.413828 -34.13102 -150.17229 -34.252754 -149.34621 -12.24905 -176.77966
16420000000 -9.5963802 -26.659298 -34.489552 171.92102 -34.674316 173.75543 -11.606216 -177.97989
16440000000 -10.605066 -24.29994 -34.599064 137.26891 -34.874531 136.98689 -11.752729 173.82578
16460000000 -9.9131985 -15.992898 -34.241478 97.742973 -34.552448 100.40636 -11.700216 172.0549
16480000000 -8.2634354 -17.07128 -34.838062 60.448536 -34.819881 61.860001 -12.156798 166.73846
16500000000 -7.4089208 -26.260269 -35.117943 23.725927 -34.964127 25.232584 -11.289958 162.722
16520000000 -7.6850624 -35.401913 -35.053501 -11.997871 -35.397266 -12.333223 -10.637774 164.4343
16540000000 -8.6251926 -37.6143 -35.065651 -50.226967 -35.17395 -49.067513 -10.544525 158.27036
16560000000 -8.675107 -30.286617 -35.251026 -89.849518 -35.190151 -89.537346 -10.615425 151.45117
16580000000 -7.2476826 -28.092575 -35.521175 -129.57002 -35.344334 -128.36038 -10.736111 147.1694
16600000000 -6.212245 -34.11871 -36.320934 -167.16351 -36.198647 -166.8725 -10.719561 140.40538
16620000000 -6.0709119 -43.302505 -36.237038 157.56964 -36.129856 156.45441 -10.458424 133.39549
16640000000 -6.6830873 -47.113247 -35.891796 116.52876 -36.432144 118.63994 -9.70821 140.90346
16660000000 -6.9833927 -43.307289 -36.881752 77.359962 -36.677094 77.045425 -9.7796764 129.75038
16680000000 -5.9330859 -40.034634 -37.151642 40.182438 -36.984116 40.517979 -10.027288 122.4496
16700000000 -4.8022962 -44.601463 -37.63509 -2.5964253 -37.676807 -2.4677813 -10.616737 114.75298
16720000000 -4.4160433 -51.581268 -38.703674 -40.114738 -38.567688 -38.435738 -10.293318 109.72839
16740000000 -4.7709699 -58.201244 -38.764145 -74.499786 -39.283546 -74.657997 -10.101126 126.93175
16760000000 -4.9457054 -56.811306 -38.906734 -121.7582 -39.391453 -116.61693 -10.890352 107.0621
16780000000 -4.3228717 -55.57452 -40.47842 -161.20705 -40.283363 -160.45367 -10.815476 93.086258
16800000000 -3.3850348 -58.605045 -41.267101 161.46165 -41.127995 162.01492 -11.600364 82.280563
16820000000 -2.9175787 -64.456154 -41.931355 118.95216 -41.791618 120.79137 -12.15935 77.57972
16840000000 -2.8741207 -69.675606 -44.032246 79.805794 -43.737686 79.089584 -12.549454 67.530479
16860000000 -3.099113 -73.461266 -44.426353 46.252773 -45.035049 47.157974 -12.665302 55.10141
16880000000 -2.7289701 -73.122108 -45.096439 -1.330997 -45.151688 -2.5030155 -14.299814 57.67844
16900000000 -2.1138487 -75.650154 -49.052074 -41.296463 -49.119942 -43.776279 -14.785399 40.993793
16920000000 -1.6873329 -80.309364 -50.499657 -65.421989 -50.633156 -68.916779 -16.709364 30.058144
16940000000 -1.5225519 -85.249229 -51.312668 -103.12051 -52.06493 -104.19459 -17.780317 27.173674
16960000000 -1.5334547 -89.042252 -54.640621 -138.54324 -55.199974 -138.79539 -18.175901 10.453429
16980000000 -1.4285232 -91.272629 -55.18354 -155.80382 -56.925957 -152.85889 -17.455667 3.3023727
17000000000 -1.0726372 -94.398666 -55.865959 169.1091 -56.85635 174.87244 -20.223936 -12.332599
