!Keysight Technologies,P9374A,MY57211810,A.19.30.04
!Date: Friday, May 02, 2025 10:35:46
!Correction: S11(C* 2-Port  ) 
!S21(C* 2-Port  ) 
!S12(C* 2-Port  ) 
!S22(C* 2-Port  ) 
!S2P File: Measurements: S11, S21, S12, S22:
# Hz S  dB   R 50
13000000000 -20.635611 -87.96756 -17.395462 -63.356739 -17.271826 -62.035141 -18.246342 -84.962715
13010000000 -21.66057 -87.312431 -17.433815 -85.119652 -17.504126 -84.649185 -18.785883 -81.61068
13020000000 -21.562986 -80.421509 -17.442251 -106.91596 -17.470417 -106.92838 -18.109705 -78.480209
13030000000 -21.176867 -77.943054 -17.439613 -129.05891 -17.585091 -129.07404 -17.31004 -79.06562
13040000000 -20.442362 -75.389549 -17.471155 -150.60936 -17.658367 -150.56985 -16.833723 -82.559639
13050000000 -19.830317 -80.055199 -17.40844 -172.05142 -17.458561 -171.55379 -17.219301 -80.452072
13060000000 -19.701271 -84.369629 -17.358171 165.98204 -17.463243 167.20348 -17.463972 -74.121666
13070000000 -20.102451 -89.057281 -17.415051 143.47733 -17.486185 144.92793 -18.01819 -72.258537
13080000000 -20.721544 -89.989731 -17.433638 121.95628 -17.397985 122.42237 -17.163284 -77.789818
13090000000 -21.57864 -89.865067 -17.502081 100.55573 -17.416702 100.94456 -16.820475 -79.706741
13100000000 -22.040178 -84.014305 -17.338066 78.698212 -17.386066 79.127945 -17.861883 -84.335274
13110000000 -21.57872 -75.715294 -17.628529 57.088985 -18.022306 59.5 -18.713642 -79.572632
13120000000 -20.31164 -74.29351 -17.46106 34.542934 -17.670065 34.889389 -18.731705 -76.860428
13130000000 -19.802944 -79.870987 -17.45215 12.663047 -17.368797 13.804203 -17.72348 -76.292435
13140000000 -19.657084 -84.233253 -17.33856 -9.1471252 -17.360371 -9.0591621 -16.854221 -78.558067
13150000000 -19.397135 -89.373901 -17.40332 -30.617014 -17.396759 -30.097065 -16.521595 -83.669769
13160000000 -20.148687 -93.191467 -17.357735 -53.860271 -17.40522 -52.614132 -16.692955 -90.070244
13170000000 -20.568771 -92.767776 -17.552599 -75.287018 -17.41531 -74.265381 -17.168596 -89.940254
13180000000 -21.217926 -90.6968 -17.570847 -96.229858 -17.413258 -95.703743 -17.197319 -82.131248
13190000000 -20.950754 -86.213303 -17.432302 -116.92093 -17.446423 -116.58446 -17.728687 -76.312294
13200000000 -20.429777 -87.361252 -17.348413 -139.26358 -17.475912 -138.32045 -17.878992 -82.424774
13210000000 -20.490377 -86.635666 -17.300703 -163.38678 -18.016476 -161.00899 -17.59231 -81.089859
13220000000 -20.154613 -91.648521 -17.351921 175.58127 -17.525503 174.69936 -17.204475 -85.531158
13230000000 -20.437 -95.806541 -17.414248 155.70964 -17.515223 157.50583 -16.979254 -85.956474
13240000000 -20.573963 -98.320152 -17.421841 134.6053 -17.721222 134.59761 -17.584158 -91.74791
13250000000 -20.437567 -97.041992 -17.272577 111.01582 -17.385494 111.91168 -18.069496 -98.617271
13260000000 -20.108345 -100.35299 -17.185545 88.658928 -17.302824 89.59584 -17.855227 -91.324654
13270000000 -20.188942 -101.86802 -17.303228 66.708328 -17.330399 67.544846 -17.3022 -88.245071
13280000000 -20.382177 -106.69422 -17.33588 45.30032 -17.323875 46.702911 -16.374327 -91.001244
13290000000 -20.98937 -105.78176 -17.37957 23.24754 -17.316315 24.389744 -16.369965 -96.899208
13300000000 -21.382492 -105.57872 -17.350885 1.833995 -17.339689 2.5504334 -17.636311 -101.37804
13310000000 -21.035196 -101.81739 -17.341446 -19.721197 -17.371786 -18.954939 -18.802845 -95.108749
13320000000 -20.628326 -105.82455 -17.292387 -41.863899 -17.350204 -39.83794 -19.447723 -89.597313
13330000000 -20.745033 -109.0284 -17.386395 -64.347351 -17.646008 -60.904942 -18.493673 -86.884453
13340000000 -20.91206 -115.89618 -17.495125 -86.46611 -17.887503 -85.861847 -18.10733 -95.069077
13350000000 -21.61636 -112.43986 -17.259493 -107.04519 -17.241898 -106.37914 -17.385492 -104.47026
13360000000 -21.621819 -115.91277 -17.315678 -129.36574 -17.373213 -127.98009 -18.052114 -109.49023
13370000000 -22.258549 -115.18487 -17.353912 -150.52953 -17.428326 -148.98122 -19.106079 -112.87566
13380000000 -21.758863 -115.57211 -17.264688 -172.2999 -17.366041 -171.02176 -19.337616 -108.71763
13390000000 -21.857506 -118.38221 -17.208794 165.56833 -17.270529 166.87004 -19.205925 -102.66838
13400000000 -21.836214 -123.1399 -17.268116 143.83792 -17.137983 144.96315 -18.499918 -104.10434
13410000000 -22.840219 -126.71672 -17.250376 122.70405 -17.282959 123.39478 -18.14122 -104.50529
13420000000 -23.311289 -124.25114 -17.200232 100.90196 -17.25462 101.32977 -18.457365 -108.29256
13430000000 -23.697279 -122.71715 -17.088402 78.738045 -17.167416 79.680344 -19.293739 -109.98122
13440000000 -23.633427 -119.71107 -17.097221 56.571442 -17.137619 57.669365 -20.789131 -109.88168
13450000000 -23.439222 -123.35629 -17.120834 34.478981 -17.054691 35.447083 -21.161911 -108.30556
13460000000 -23.263474 -121.33528 -17.289225 12.762303 -17.928307 13.81012 -21.041737 -100.08925
13470000000 -23.627048 -130.51215 -17.265375 -8.8578053 -17.564802 -9.8821878 -20.202541 -109.77009
13480000000 -24.575935 -134.86728 -17.107817 -31.031834 -17.263012 -29.737698 -19.178814 -119.5312
13490000000 -25.367167 -135.88908 -17.153469 -52.595692 -17.278959 -51.41312 -20.00017 -127.56292
13500000000 -25.488808 -132.85201 -17.15563 -74.5793 -17.168205 -73.767654 -21.506401 -130.31889
13510000000 -25.465595 -136.67755 -17.119656 -96.564987 -17.257727 -96.14579 -22.616972 -113.54114
13520000000 -26.50959 -136.34184 -17.181477 -118.44741 -17.294258 -117.43775 -21.102343 -103.35127
13530000000 -26.763582 -135.45152 -17.179226 -139.38776 -17.114275 -138.22609 -19.618387 -108.68021
13540000000 -27.945007 -127.4509 -17.157913 -160.60539 -17.145193 -159.77011 -19.515665 -116.22511
13550000000 -27.229691 -123.18246 -16.943947 177.27925 -16.941242 177.85732 -21.817259 -122.31821
13560000000 -26.894814 -127.00063 -16.95377 154.97009 -16.931974 155.84128 -24.712025 -104.19688
13570000000 -26.642954 -130.67126 -16.909935 132.50549 -16.885271 133.16382 -24.378811 -104.18893
13580000000 -28.036621 -145.20869 -17.128323 110.79743 -17.391371 113.00848 -22.488241 -103.61002
13590000000 -29.929455 -147.0269 -17.164972 89.4263 -17.654329 89.192657 -23.179314 -112.57994
13600000000 -30.883078 -141.59616 -17.05765 68.110893 -17.075876 68.768837 -22.865891 -129.2632
13610000000 -30.361197 -129.97203 -16.858723 45.705097 -16.960714 47.066692 -23.850906 -118.37064
13620000000 -29.345867 -133.10568 -16.856438 23.283319 -16.896206 24.358934 -24.131474 -111.09904
13630000000 -30.31892 -132.16492 -16.965702 0.54147238 -16.966141 1.7832981 -23.033585 -103.92937
13640000000 -30.61577 -128.45634 -17.065037 -20.676483 -16.964699 -20.794487 -22.504988 -101.18904
13650000000 -30.53249 -118.55933 -17.06517 -41.767517 -17.09211 -41.582138 -21.813148 -105.83685
13660000000 -28.367044 -109.96436 -17.026186 -63.736794 -17.017349 -62.967243 -20.686111 -114.1477
13670000000 -27.8992 -115.73548 -17.046017 -85.681244 -17.037872 -84.277092 -21.658697 -114.88649
13680000000 -27.83485 -131.93585 -17.082052 -108.04878 -17.372679 -104.53767 -25.329775 -107.06189
13690000000 -30.606638 -141.72273 -17.147449 -129.20238 -17.633944 -129.55817 -29.801876 -108.88322
13700000000 -32.100121 -139.14229 -17.081913 -150.04276 -17.064144 -149.92589 -25.559505 -100.29236
13710000000 -33.795387 -119.55052 -17.020657 -171.22333 -17.43886 -170.63777 -24.119459 -90.281975
13720000000 -31.040884 -111.46973 -16.998953 166.3531 -17.249899 165.89711 -22.899092 -106.8526
13730000000 -29.846651 -109.42316 -16.979553 143.73621 -17.024185 145.457 -21.816694 -115.65471
13740000000 -28.212934 -125.44846 -17.038988 122.59656 -17.005865 123.69354 -23.71702 -117.21
13750000000 -29.602213 -130.34146 -16.944546 100.9254 -16.866219 101.24568 -24.182316 -116.89954
13760000000 -28.995918 -131.23242 -16.844032 79.190941 -16.959515 78.720161 -23.81636 -99.675278
13770000000 -30.202585 -126.78785 -16.861946 55.893963 -17.000214 56.266071 -21.968096 -105.65234
13780000000 -28.069469 -118.77855 -17.008177 34.183933 -17.057625 35.573704 -20.765406 -117.99236
13790000000 -27.90707 -124.51926 -17.219671 12.698499 -17.111084 13.984468 -21.45574 -122.43504
13800000000 -27.46175 -137.05095 -17.077297 -7.8450775 -17.021778 -7.8673773 -24.641203 -128.63771
13810000000 -29.773293 -141.46266 -17.049892 -29.867373 -17.813173 -28.768333 -30.715572 -105.55379
13820000000 -31.206682 -138.79407 -16.950474 -52.105831 -17.308554 -52.696762 -27.621803 -109.21318
13830000000 -34.02652 -136.74184 -17.086977 -73.819855 -17.252319 -71.015434 -24.094065 -102.31879
13840000000 -30.542933 -118.40791 -17.061333 -94.660866 -17.363178 -95.128113 -23.66197 -114.1683
13850000000 -28.114447 -129.28574 -16.905455 -116.31989 -16.967333 -117.10563 -21.541725 -130.49294
13860000000 -26.900311 -145.19064 -16.870016 -139.31487 -17.241899 -138.85762 -22.705845 -134.5567
13870000000 -27.09346 -162.89217 -16.994337 -161.32036 -17.220938 -159.75896 -24.023912 -141.97151
13880000000 -29.270185 -173.49879 -17.071621 177.21899 -17.088568 178.41451 -25.618191 -135.89305
13890000000 -32.234745 -175.1911 -17.0376 156.21245 -17.035368 156.28262 -26.262184 -123.01687
13900000000 -32.706642 -163.41876 -16.984541 134.69679 -16.925419 134.44833 -24.931473 -117.88352
13910000000 -31.62376 -158.75552 -16.957354 112.52887 -17.048452 113.14108 -22.971046 -120.65047
13920000000 -30.85932 -170.72472 -17.019012 90.254654 -17.083605 91.427834 -23.785948 -131.91057
13930000000 -30.044836 169.92882 -17.089605 68.890289 -17.359453 71.3591 -27.815464 -148.54515
13940000000 -31.684204 154.45491 -17.06192 47.818523 -17.503353 47.534702 -31.722431 -167.34512
13950000000 -32.538998 167.26059 -16.965492 26.207464 -16.928558 26.334295 -29.128649 -133.75954
13960000000 -31.365297 167.20453 -16.921955 4.0158787 -16.931589 4.5040102 -26.889727 -126.51057
13970000000 -29.978199 170.52126 -16.9198 -18.058012 -16.951653 -17.389246 -24.605818 -150.64557
13980000000 -28.544609 157.23807 -16.964104 -39.818714 -16.945839 -39.155651 -24.673452 -165.74083
13990000000 -28.932322 141.20253 -16.987961 -61.241287 -16.957727 -61.210457 -28.440243 174.24608
14000000000 -29.490313 127.38403 -16.965393 -82.946388 -17.011316 -82.654793 -32.556072 -166.05023
14010000000 -31.910191 107.98235 -17.005978 -104.68092 -16.968544 -104.32951 -32.159206 -127.00778
14020000000 -34.127842 103.41544 -16.982018 -126.07561 -16.912794 -125.79605 -28.292589 -125.99128
14030000000 -35.39019 113.30514 -17.003159 -147.09213 -16.838995 -147.10466 -26.540262 -138.20296
14040000000 -33.035011 113.80659 -16.857542 -168.95813 -16.832962 -168.70041 -29.53051 -147.24736
14050000000 -30.94655 106.48858 -16.861618 168.89745 -17.017368 169.62241 -32.451603 170.75977
14060000000 -29.255507 101.28504 -16.854073 146.73772 -17.279305 148.61151 -35.393959 107.49696
14070000000 -30.046766 89.63813 -16.912809 125.80245 -16.93083 125.96684 -35.842838 137.96628
14080000000 -29.97118 93.09375 -16.799511 104.09541 -16.700003 104.7227 -39.312096 172.26974
14090000000 -29.789007 90.185265 -16.752325 81.956261 -16.751511 82.294357 -38.314941 145.36513
14100000000 -28.607821 85.868118 -16.807016 59.733173 -16.837049 60.138695 -34.020439 170.53433
14110000000 -27.384592 69.732979 -16.859484 38.610641 -16.903854 38.889603 -42.704144 96.648582
14120000000 -28.44548 54.355762 -16.764076 17.575499 -16.805702 17.45936 -40.772102 71.03141
14130000000 -28.628498 42.252907 -16.622805 -4.7373319 -16.728104 -4.1219506 -41.917065 16.220518
14140000000 -29.9503 31.841547 -16.646912 -27.435518 -16.677633 -26.789787 -37.159004 -27.020275
14150000000 -30.059551 48.652809 -16.761045 -49.238289 -16.706181 -48.548798 -36.734978 -52.143223
14160000000 -28.596025 38.150063 -16.831333 -70.251656 -17.463463 -68.58754 -33.66637 -88.086327
14170000000 -27.263607 43.226616 -16.709705 -91.572578 -17.100117 -92.35556 -49.704613 45.22094
14180000000 -26.427441 41.02644 -16.690533 -114.09219 -16.935349 -112.60706 -29.248518 60.064358
14190000000 -26.325932 40.679779 -16.67556 -135.73752 -16.9681 -135.45248 -27.496838 46.332924
14200000000 -26.02323 35.909725 -16.69706 -157.24217 -16.606512 -156.74413 -29.994247 4.1229334
14210000000 -25.724897 37.760334 -16.643005 -178.49533 -16.742363 -178.07968 -29.379747 -18.586521
14220000000 -25.736521 24.23768 -16.625082 159.44795 -16.744644 159.57928 -37.559193 -31.629154
14230000000 -26.359812 15.592896 -16.563997 137.42686 -16.723942 137.72812 -37.269203 4.9911137
14240000000 -27.123436 8.7138987 -16.640711 115.57949 -16.716616 115.85638 -29.52113 18.103779
14250000000 -27.907299 14.808958 -16.592697 94.520195 -16.508528 94.515648 -27.841423 -14.615985
14260000000 -26.055382 12.503731 -16.469601 72.724075 -16.566568 72.430496 -27.863676 -41.406452
14270000000 -25.64797 11.699111 -16.4555 49.368511 -16.574503 49.897545 -29.333221 -59.556503
14280000000 -24.91572 10.953423 -16.628164 27.450806 -16.914284 30.314323 -31.662069 -57.068008
14290000000 -24.431623 10.178069 -16.676449 6.7911553 -17.163971 6.9548259 -29.233576 -14.420097
14300000000 -24.762112 9.9329863 -16.58156 -14.003747 -16.62166 -14.16358 -28.199749 11.845093
14310000000 -24.657616 10.783133 -16.449696 -36.657097 -16.774485 -36.369526 -25.134924 12.48499
14320000000 -24.355309 3.2497199 -16.509663 -58.858028 -16.572313 -58.784782 -26.966324 -5.8785334
14330000000 -25.104895 -5.3850908 -16.571533 -80.474876 -16.402163 -79.756111 -25.621767 -25.375364
14340000000 -26.21331 -10.183475 -16.552807 -101.60687 -16.503857 -101.90094 -26.918526 -32.856983
14350000000 -27.045395 -10.032553 -16.437641 -123.76032 -16.561113 -123.69284 -28.456411 -73.856155
14360000000 -26.934177 -0.51202178 -16.461897 -146.0304 -16.55727 -145.88388 -34.641281 -51.110764
14370000000 -25.893047 -1.7529438 -16.541588 -167.8551 -16.460581 -167.29263 -35.562809 17.671993
14380000000 -24.607206 -3.6109965 -16.603386 171.44843 -16.463221 171.54892 -29.287844 4.0609031
14390000000 -23.660692 -8.1222401 -16.443584 149.59628 -16.399128 149.59445 -25.019684 -18.929756
14400000000 -24.097006 -8.3041067 -16.418297 127.26925 -16.487257 127.7774 -24.233755 -31.980759
14410000000 -23.978745 -12.46087 -16.432146 105.00137 -16.705357 106.527 -23.400835 -49.208252
14420000000 -24.394409 -11.216361 -16.47834 83.797157 -16.541018 83.464752 -27.442841 -38.590351
14430000000 -24.663515 -11.887159 -16.417076 62.121925 -16.419687 62.009068 -28.561146 5.4389338
14440000000 -25.616028 -13.39033 -16.435175 39.918362 -16.443302 40.161903 -27.383427 9.4214735
14450000000 -25.970615 -14.163074 -16.453541 18.158958 -16.428772 18.636503 -27.661892 -37.778049
14460000000 -27.653742 -5.9063201 -16.434647 -2.9970922 -16.344542 -2.5817471 -28.697601 -40.625645
14470000000 -25.964285 -0.20164625 -16.317116 -25.294941 -16.368328 -25.401934 -38.630165 -43.809311
14480000000 -24.489933 -2.749532 -16.349543 -48.155083 -16.463266 -47.902367 -31.968699 15.309384
14490000000 -23.060497 -10.619126 -16.535706 -70.148895 -16.558865 -69.970222 -25.281355 16.100273
14500000000 -23.309156 -19.228378 -16.655146 -90.854668 -16.541866 -90.052116 -23.345932 -12.883219
14510000000 -23.108698 -19.507929 -16.590078 -111.7459 -16.547319 -111.35468 -23.200867 -36.701008
14520000000 -23.845957 -18.059055 -16.448973 -133.7692 -16.455336 -133.4081 -24.237 -47.537773
14530000000 -23.87742 -13.788972 -16.465178 -156.2715 -16.66367 -155.47005 -26.223894 -45.577576
14540000000 -23.989697 -14.39593 -16.475885 -178.06783 -16.761444 -177.97522 -26.640856 -17.388227
14550000000 -24.280655 -11.987437 -16.509851 160.58759 -16.58444 160.93459 -29.637012 5.2679472
14560000000 -25.047596 -7.6314163 -16.49555 138.6682 -16.666794 139.52637 -26.031147 24.067604
14570000000 -24.450773 -1.8408668 -16.562632 116.85151 -16.549908 117.83692 -26.84025 12.812469
14580000000 -22.996555 -5.809761 -16.635746 95.046715 -16.504166 95.749825 -24.460672 -3.6797473
14590000000 -22.258566 -11.271778 -16.660734 74.455696 -16.604521 74.334007 -23.867748 -3.5100915
14600000000 -21.72508 -20.933987 -16.520882 52.809147 -16.601 52.418987 -24.116814 -23.254307
14610000000 -22.485859 -26.151764 -16.395447 30.624592 -16.622456 31.011929 -23.764879 -13.175968
14620000000 -22.757599 -24.813745 -16.472414 7.8926234 -16.520884 8.769248 -24.342716 -14.860878
14630000000 -22.703373 -21.084715 -16.61134 -13.508552 -16.533495 -12.375993 -23.664469 -26.34544
14640000000 -21.672928 -16.539272 -16.602604 -34.721169 -16.618898 -34.377632 -22.843157 -31.796112
14650000000 -21.663034 -18.689833 -16.503561 -56.439697 -16.634455 -56.105476 -24.777491 -22.7808
14660000000 -21.534218 -18.225925 -16.535135 -78.798553 -16.73237 -77.774918 -24.131754 12.405545
14670000000 -21.495438 -17.30789 -16.639099 -100.54088 -16.644909 -99.49044 -23.16724 20.560934
14680000000 -21.083773 -17.219742 -16.654907 -121.52524 -16.533421 -120.75037 -20.257948 6.4639897
14690000000 -20.765966 -21.038921 -16.607185 -143.0388 -16.577881 -142.73404 -19.870068 -7.1059952
14700000000 -20.128048 -27.198301 -16.59058 -165.15082 -16.637032 -164.37836 -20.489948 -34.830486
14710000000 -20.697182 -34.533016 -16.675371 173.37529 -16.625757 174.08926 -21.793001 -33.397221
14720000000 -21.232203 -35.138092 -16.670341 152.18694 -16.585606 152.50398 -24.494383 -30.729301
14730000000 -21.317631 -32.841293 -16.573444 130.81386 -16.650234 130.655 -23.408375 -18.063908
14740000000 -20.571592 -28.600981 -16.493948 108.55017 -16.646017 108.94949 -21.900816 -13.255054
14750000000 -19.855629 -31.818314 -16.582245 86.273354 -16.633602 87.90361 -20.210165 -23.715633
14760000000 -19.396799 -34.32806 -16.667336 64.988777 -16.605171 66.71386 -19.326303 -34.729759
14770000000 -19.532675 -36.989662 -16.593454 43.820179 -16.520628 44.627769 -19.150875 -32.25724
14780000000 -20.002775 -37.230106 -16.494236 21.805515 -16.493929 21.695818 -20.117847 -18.754293
14790000000 -19.648676 -36.418793 -16.529409 -0.2275576 -16.609058 -0.2258229 -22.54641 -17.144732
14800000000 -19.331373 -40.85656 -16.615467 -22.242516 -16.659897 -21.145107 -20.709452 -35.563606
14810000000 -19.434481 -46.673912 -16.701363 -43.093613 -16.612398 -41.806087 -21.02142 -27.81229
14820000000 -19.914635 -51.953075 -16.625385 -64.476845 -16.514305 -63.928303 -21.143972 -36.663097
14830000000 -20.321218 -51.131733 -16.551521 -86.111244 -16.567753 -86.172203 -19.629019 -40.617474
14840000000 -20.293411 -49.918343 -16.517107 -108.40516 -16.580673 -108.27529 -20.513559 -41.155205
14850000000 -19.453993 -48.980156 -16.618963 -129.95042 -16.664154 -129.40829 -20.541544 -51.060093
14860000000 -18.674532 -53.767181 -16.604218 -151.39865 -16.724474 -150.60884 -21.450449 -38.927803
14870000000 -18.922379 -58.748856 -16.574099 -172.72681 -16.661291 -172.19527 -20.26622 -38.415966
14880000000 -19.512039 -60.293995 -16.572882 165.11873 -16.615448 166.22507 -18.0532 -47.087292
14890000000 -19.906134 -57.146141 -16.617208 143.7047 -16.655645 144.59583 -16.91947 -52.198971
14900000000 -19.820484 -56.803837 -16.560732 122.39099 -16.522118 122.63302 -18.845083 -58.549271
14910000000 -19.392775 -57.157452 -16.472771 101.06473 -16.503422 100.96535 -29.216429 -36.559731
14920000000 -19.115891 -65.387352 -16.420174 78.92012 -16.494982 79.379745 -26.000048 -86.960411
14930000000 -19.88006 -70.584671 -16.472866 56.659222 -16.434393 57.783455 -22.733343 -38.79493
14940000000 -20.377995 -74.47937 -16.550835 35.089664 -16.413958 36.043781 -21.563648 -38.909626
14950000000 -20.900059 -71.25988 -16.493114 13.69353 -16.46769 13.870759 -19.048574 -58.56535
14960000000 -20.222727 -70.174911 -16.397255 -8.0076571 -16.486912 -7.8422723 -19.636015 -60.935307
14970000000 -20.03862 -75.220932 -16.450121 -30.370949 -16.471016 -29.603003 -21.234642 -73.512466
14980000000 -20.012705 -77.966629 -16.516281 -51.598606 -16.549456 -50.872402 -22.456858 -67.381668
14990000000 -21.046354 -79.100288 -16.403643 -73.064987 -16.507765 -72.63269 -22.949577 -56.345371
