!Keysight Technologies,P9374A,MY57211810,A.19.30.04
!Date: Friday, May 02, 2025 10:38:08
!Correction: S11(C* 2-Port  ) 
!S21(C* 2-Port  ) 
!S12(C* 2-Port  ) 
!S22(C* 2-Port  ) 
!S2P File: Measurements: S11, S21, S12, S22:
# Hz S  dB   R 50
13000000000 -16.277872 -65.958504 -9.4905195 -141.65491 -9.5364714 -141.27374 -15.281982 -72.502899
13010000000 -16.148001 -75.17701 -9.5327501 -153.15814 -9.7440786 -152.41862 -15.136587 -78.553833
13020000000 -15.971465 -81.929817 -9.51933 -164.52563 -9.6256905 -164.07889 -14.940137 -85.747559
13030000000 -15.962725 -89.169701 -9.4611378 -176.65077 -9.5949984 -176.08168 -15.150753 -91.088982
13040000000 -15.992541 -97.695221 -9.4511681 171.77277 -9.6300087 172.11386 -15.477332 -95.382149
13050000000 -16.902256 -108.7422 -9.3326015 160.31674 -9.3160896 161.05502 -16.287058 -93.795418
13060000000 -18.111906 -117.39182 -9.3233204 148.61821 -9.3748436 149.48235 -16.916893 -89.970688
13070000000 -19.648806 -124.27591 -9.2336874 136.49887 -9.2822723 137.1545 -18.325041 -92.532021
13080000000 -21.672888 -129.67911 -9.1690884 124.39544 -9.1837425 124.53719 -18.474457 -95.685196
13090000000 -24.903263 -132.02145 -9.1547546 111.97645 -9.1423283 112.34946 -18.78907 -92.050461
13100000000 -29.0291 -122.96459 -9.1557493 99.838394 -9.1491957 100.57264 -20.099918 -92.515739
13110000000 -34.637264 -17.092396 -9.3214016 88.579041 -9.7203045 90.424225 -20.928724 -84.240196
13120000000 -26.292866 -30.192804 -9.173439 75.907249 -9.3422499 75.66024 -21.545189 -80.020859
13130000000 -24.008017 -45.646427 -9.0896416 63.220852 -9.132268 63.904171 -21.15049 -71.253601
13140000000 -21.61569 -48.144112 -9.0983877 51.192448 -9.1591454 51.435879 -19.563356 -62.856495
13150000000 -19.482601 -53.724281 -9.1431828 38.883717 -9.138732 39.693562 -18.153946 -62.594223
13160000000 -18.339325 -59.857635 -9.2310123 26.234234 -9.2018576 27.185379 -16.759686 -66.004227
13170000000 -17.803255 -67.603348 -9.323494 14.65693 -9.2744274 15.22025 -15.571678 -70.094788
13180000000 -17.230877 -73.489052 -9.3382893 3.4570911 -9.2809238 4.0879912 -14.574519 -71.484123
13190000000 -16.948904 -81.912071 -9.3390188 -8.2185249 -9.3048429 -7.1987572 -14.681909 -74.704727
13200000000 -17.089582 -89.003899 -9.3393478 -19.746927 -9.3960485 -18.934761 -14.992845 -86.162178
13210000000 -15.991813 -91.80294 -9.363636 -33.905994 -10.051762 -31.741587 -15.653358 -90.580261
13220000000 -16.645325 -98.366295 -9.3390722 -44.243923 -9.6227188 -45.183895 -15.975524 -97.823219
13230000000 -18.807434 -109.59395 -9.3017664 -53.65321 -9.4534597 -51.324757 -16.425026 -97.009216
13240000000 -20.101358 -113.26107 -9.2722692 -65.130402 -9.539711 -64.526642 -17.21155 -100.24156
13250000000 -19.286791 -118.35505 -9.1690159 -78.681557 -9.1543226 -77.672302 -17.468901 -107.16695
13260000000 -19.801807 -120.80416 -9.0720816 -90.949806 -9.1003675 -90.417412 -17.526693 -103.14326
13270000000 -21.190098 -123.79916 -9.1088228 -102.82878 -9.1210155 -102.44367 -17.793127 -101.44485
13280000000 -22.611704 -118.9679 -9.1270723 -114.66948 -9.1131401 -113.65247 -17.703299 -100.30658
13290000000 -23.590975 -112.06276 -9.1488113 -126.59103 -9.1248789 -125.80206 -17.861462 -99.631165
13300000000 -23.445976 -105.71703 -9.1182985 -138.04359 -9.1232891 -137.21184 -18.469233 -100.59818
13310000000 -22.923681 -100.96609 -9.0685577 -149.95651 -9.013978 -149.08591 -19.032864 -96.779327
13320000000 -22.304922 -99.487846 -9.0056658 -161.90993 -8.9774103 -160.85954 -20.176136 -97.506859
13330000000 -21.414322 -89.714989 -9.0730343 -174.85269 -9.385335 -172.27042 -20.497704 -90.944809
13340000000 -19.717903 -91.560074 -9.1157436 172.99243 -9.6606941 173.22809 -20.484404 -87.942459
13350000000 -21.215885 -107.6785 -8.9577093 161.87346 -8.9462538 162.8651 -19.050142 -88.967171
13360000000 -21.580723 -113.26625 -8.9878893 149.75764 -9.007309 151.19746 -18.028223 -92.145943
13370000000 -22.219143 -116.19408 -9.0120392 137.98047 -9.0159149 139.0359 -17.589638 -100.06272
13380000000 -22.263227 -115.48813 -8.9688368 125.91075 -9.029911 126.55219 -17.180923 -106.22057
13390000000 -22.535847 -119.58467 -8.9694452 113.8314 -9.0827818 114.0452 -17.700993 -109.3605
13400000000 -23.747242 -116.54077 -8.9374342 102.20815 -8.9690857 103.19197 -18.028172 -112.95365
13410000000 -24.361692 -112.58883 -8.9508162 90.326859 -9.0540323 91.677254 -18.686768 -110.05399
13420000000 -23.62924 -107.12807 -8.9194002 78.413643 -8.9519854 79.54306 -19.566236 -108.42551
13430000000 -23.249901 -106.86804 -8.8988104 66.388176 -8.908288 67.182449 -19.958754 -104.13785
13440000000 -22.560169 -104.64415 -8.9139872 54.510132 -8.9247198 55.386177 -20.32308 -99.432762
13450000000 -21.718845 -110.18922 -8.8791723 42.463062 -8.8699074 43.452896 -19.620956 -102.11785
13460000000 -21.491079 -97.461914 -9.1060476 30.559538 -9.7059822 32.210304 -19.69129 -101.10506
13470000000 -21.127747 -112.34135 -9.0168324 18.936962 -9.2831936 18.242687 -19.28907 -110.80168
13480000000 -21.362253 -129.342 -8.8653908 7.1445436 -8.9288673 8.3420277 -18.575188 -118.392
13490000000 -21.608177 -135.71106 -8.8239002 -4.7100916 -8.931901 -3.7553029 -18.700354 -124.23034
13500000000 -21.240768 -140.0316 -8.7737722 -16.711287 -8.771677 -16.101889 -18.733208 -131.30772
13510000000 -21.43919 -146.49454 -8.7402954 -29.111233 -8.9179487 -28.781065 -19.777212 -133.11612
13520000000 -21.945272 -157.04965 -8.7355394 -40.911938 -8.841156 -40.352951 -20.966654 -131.63165
13530000000 -23.058548 -166.93243 -8.7005215 -52.927654 -8.7249632 -51.821877 -21.638206 -126.96472
13540000000 -24.289919 -177.49496 -8.7023077 -64.968559 -8.7199793 -63.986263 -21.684366 -120.77668
13550000000 -26.007521 167.9966 -8.657835 -76.88942 -8.6585989 -76.181633 -23.384159 -120.12822
13560000000 -28.524992 140.43829 -8.6311321 -89.005821 -8.6141891 -88.305786 -25.2134 -108.85884
13570000000 -32.279041 112.57102 -8.6297016 -101.03431 -8.6177664 -100.20876 -26.214317 -121.1951
13580000000 -28.730234 48.052135 -8.6321077 -113.0629 -8.9106941 -111.16257 -26.162872 -113.00751
13590000000 -25.943192 9.1125383 -8.6676311 -125.52709 -9.1565857 -125.67922 -28.579231 -103.49841
13600000000 -28.252325 -16.384148 -8.6671896 -137.85248 -8.6745243 -137.03102 -27.79051 -108.13802
13610000000 -26.567142 -43.883686 -8.6673193 -149.79349 -8.6994066 -148.66771 -25.504271 -86.978645
13620000000 -24.479572 -57.721985 -8.7096729 -161.9498 -8.7406616 -161.21935 -23.655743 -82.031334
13630000000 -22.267677 -72.493141 -8.7726593 -174.14597 -8.7808733 -173.57956 -21.322111 -83.612808
13640000000 -20.91535 -86.943001 -8.8552885 174.19093 -8.8520784 174.29314 -19.944574 -86.844292
13650000000 -20.444559 -103.2521 -8.8747129 162.97845 -8.8603544 163.63963 -18.902142 -94.962868
13660000000 -20.167969 -113.9846 -8.9026957 151.14299 -8.7594509 151.98773 -17.846245 -106.05434
13670000000 -20.439434 -127.11426 -8.9054775 139.51987 -8.8112669 140.17935 -18.218662 -110.45255
13680000000 -19.665577 -132.31804 -8.9052267 127.03561 -9.1820707 129.71701 -20.316441 -112.21594
13690000000 -19.162678 -143.28082 -8.9383621 115.26977 -9.5244513 114.5408 -22.54582 -130.71046
13700000000 -21.977737 -165.86967 -8.8501787 104.4463 -8.8608017 104.87964 -21.155836 -135.83662
13710000000 -24.547539 161.54768 -8.7846136 93.333374 -9.1936121 94.268669 -23.114243 -135.89034
13720000000 -25.346453 153.71568 -8.7658987 81.004677 -8.9517221 80.548477 -23.815163 -148.12199
13730000000 -24.883289 149.00493 -8.7590456 68.653259 -8.7625647 69.781479 -24.285601 -141.82237
13740000000 -25.837402 132.1709 -8.738122 56.947815 -8.7556915 57.539654 -26.553455 -137.22171
13750000000 -28.299437 103.39242 -8.6805449 44.940945 -8.6850882 45.403156 -26.214735 -139.88596
13760000000 -29.855257 66.124725 -8.6348524 32.709591 -8.7338238 32.879738 -28.810364 -124.7432
13770000000 -29.82015 26.812559 -8.6579657 20.414501 -8.6970387 20.792881 -29.483938 -112.18709
13780000000 -27.32061 -6.6671629 -8.6822071 8.578516 -8.6620245 9.3306379 -26.98658 -102.43288
13790000000 -24.933754 -32.301125 -8.7203255 -3.7758806 -8.7085705 -3.0744956 -25.31193 -88.663368
13800000000 -23.607038 -51.986946 -8.6973019 -15.755252 -8.6998301 -15.355574 -26.009346 -80.23111
13810000000 -20.226744 -71.275864 -8.716012 -28.469517 -9.4223289 -27.1509 -26.328142 -58.527504
13820000000 -20.683092 -87.129913 -8.7956553 -40.376301 -9.1292019 -41.337303 -24.582907 -77.882294
13830000000 -21.981806 -99.128815 -8.8604212 -51.782017 -9.1344404 -49.446819 -21.649683 -83.739937
13840000000 -21.454571 -113.29477 -8.9361181 -63.615242 -9.4130821 -63.037762 -20.671583 -96.183693
13850000000 -21.019283 -128.0038 -8.9481096 -75.102165 -8.9232025 -74.561981 -18.617624 -113.52183
13860000000 -20.608982 -142.9857 -8.9988461 -87.046204 -9.1658106 -86.470261 -18.70014 -120.05244
13870000000 -21.11202 -158.34563 -9.0217314 -98.268608 -9.1314354 -97.974052 -18.710886 -132.60298
13880000000 -22.012539 -168.50999 -9.0005121 -109.83073 -9.1031818 -109.58163 -19.258886 -142.53998
13890000000 -22.708075 179.78175 -8.9765291 -121.3828 -9.1074886 -121.32936 -20.575346 -151.66187
13900000000 -23.027496 167.05562 -8.9781914 -133.24913 -8.9737663 -132.79089 -21.775454 -158.64708
13910000000 -24.183968 154.54929 -8.9901943 -144.56287 -9.0260429 -143.83163 -23.318562 -157.2789
13920000000 -24.550127 139.60858 -8.9486065 -156.57103 -8.9891624 -155.78023 -25.439127 -162.06799
13930000000 -26.679684 118.23346 -8.9443913 -168.27322 -9.2795963 -166.26373 -28.965712 -177.21277
13940000000 -29.26346 100.9194 -8.9193497 -179.92532 -9.4771214 179.88176 -29.146927 163.59598
13950000000 -27.403551 94.611732 -8.9084826 168.20412 -8.892725 168.93303 -28.552715 173.57948
13960000000 -27.697903 86.571243 -8.8610811 156.4718 -8.8716097 157.31213 -31.587212 165.54193
13970000000 -29.798332 64.607567 -8.8237638 144.54683 -8.8340082 145.18987 -31.595188 158.60031
13980000000 -33.236366 35.564758 -8.7763195 132.57095 -8.7761345 133.29646 -37.742043 177.63498
13990000000 -38.226677 -5.0112944 -8.7419729 120.46516 -8.730257 120.88451 -49.252457 -38.806133
14000000000 -39.64991 -40.256504 -8.783226 108.65784 -8.7643967 109.07229 -32.652935 -77.330208
14010000000 -40.111103 -83.57592 -8.740756 96.555901 -8.7018509 96.58358 -29.101475 -82.80825
14020000000 -39.835136 -115.53316 -8.7686014 84.342796 -8.746439 84.602768 -26.182402 -91.736061
14030000000 -38.833824 -149.20105 -8.8349257 72.649895 -8.7465801 73.382813 -23.890104 -105.61735
14040000000 -36.734173 -167.33696 -8.8699188 60.944221 -8.7402 61.957165 -23.887913 -113.13918
14050000000 -31.649387 162.92693 -8.882865 49.128765 -8.8709135 49.647243 -25.519043 -143.01109
14060000000 -33.298508 124.38136 -8.8757162 37.688049 -9.2199583 38.252892 -28.647871 -178.00897
14070000000 -30.464668 124.53193 -8.8929882 26.026636 -9.0612202 25.228228 -26.617191 161.59587
14080000000 -27.033457 118.68175 -8.8990154 14.306108 -8.900526 15.333179 -28.851599 151.57594
14090000000 -26.028997 106.77299 -8.8673334 2.6523509 -8.8627424 3.4810979 -30.75169 129.21457
14100000000 -27.754696 94.099236 -8.8230419 -9.0540733 -8.8160477 -8.5936899 -32.145027 147.74417
14110000000 -28.155495 88.166328 -8.787405 -20.884155 -8.8226423 -20.805868 -38.741947 77.157806
14120000000 -27.498163 81.207832 -8.7887039 -32.835312 -8.8208923 -32.78072 -43.009785 59.98988
14130000000 -26.671789 67.847839 -8.8156509 -44.420258 -8.8566217 -44.164917 -56.633881 18.517212
14140000000 -26.121426 55.091228 -8.8049726 -56.393509 -8.8469372 -56.16758 -59.548714 11.357304
14150000000 -26.122274 50.075966 -8.8145142 -67.821159 -8.8073301 -67.347061 -44.568363 49.433395
14160000000 -28.543781 31.399118 -8.788867 -79.262306 -9.4296923 -77.260521 -40.914654 -25.834332
14170000000 -27.075342 37.72084 -8.7220936 -90.887993 -9.0108528 -91.776779 -32.926834 18.891773
14180000000 -23.841908 36.358616 -8.6667376 -103.21127 -8.8667555 -102.57041 -28.765995 32.243809
14190000000 -23.829174 27.231895 -8.6291189 -115.22416 -8.9829283 -115.75176 -29.321007 33.012741
14200000000 -25.563936 25.365715 -8.617487 -126.99174 -8.6178913 -126.75275 -32.980423 -4.8320475
14210000000 -27.301582 33.188217 -8.5972557 -138.73192 -8.7194099 -138.04781 -31.412447 -11.302413
14220000000 -26.487976 29.385687 -8.5848389 -151.01199 -8.6561012 -150.72424 -36.699005 -23.366882
14230000000 -25.834349 18.958414 -8.5968781 -163.08356 -8.674077 -163.18811 -38.256824 -24.192482
14240000000 -25.766279 13.337901 -8.6009283 -174.78864 -8.7151947 -175.36668 -32.992203 22.556698
14250000000 -25.466877 11.207685 -8.6021318 173.23352 -8.6170168 173.27501 -31.72411 10.060228
14260000000 -24.717012 3.5057666 -8.6411657 161.56454 -8.7154942 161.82837 -29.681944 5.4501691
14270000000 -24.727844 2.329581 -8.6134729 149.56792 -8.6260986 149.80774 -26.529789 -4.5335345
14280000000 -23.624384 -10.379791 -8.5576067 137.87236 -8.8463335 139.86671 -24.545012 -20.057602
14290000000 -24.079445 -19.367403 -8.4991531 125.75112 -9.0666685 125.8389 -22.847668 -26.035648
14300000000 -25.149729 -11.679815 -8.5558205 113.88946 -8.5847702 114.1541 -24.422916 -25.275026
14310000000 -26.243484 -0.34493104 -8.5990915 101.98775 -8.8264418 101.92986 -24.532913 -21.130487
14320000000 -26.98041 -5.2719607 -8.5662565 90.085152 -8.6848478 89.306297 -26.529869 -44.372482
14330000000 -29.092432 -5.9274664 -8.5883341 78.062737 -8.5847597 78.758072 -25.309551 -58.726234
14340000000 -29.80191 -1.1745495 -8.6058273 66.109932 -8.5932646 66.967468 -27.606497 -70.845772
14350000000 -28.301786 2.0522118 -8.6400795 54.317978 -8.6244411 54.767361 -27.440411 -107.00443
14360000000 -27.720493 0.99989712 -8.630311 42.465683 -8.6175356 42.145748 -34.686172 -106.13862
14370000000 -27.257942 3.8098931 -8.649478 30.899509 -8.6419039 30.625643 -46.066208 -151.39435
14380000000 -26.058424 1.5866393 -8.6827478 19.153728 -8.6458292 19.515018 -53.671711 41.371769
14390000000 -25.119915 3.3856924 -8.6748514 7.6616206 -8.6166897 8.1291208 -35.227272 9.5550041
14400000000 -24.999174 5.7949657 -8.6344223 -4.3229809 -8.6457911 -4.014307 -30.068981 12.427603
14410000000 -23.422104 0.70182145 -8.5645885 -16.058813 -8.8771496 -14.833483 -26.336746 -11.927355
14420000000 -23.489424 3.5475459 -8.5453768 -28.117605 -8.6852179 -28.296938 -25.89728 2.3102803
14430000000 -22.897287 13.783025 -8.5992136 -40.152519 -8.5844917 -39.784775 -25.45726 24.129793
14440000000 -22.032249 10.190534 -8.6381102 -51.950489 -8.6286812 -51.918377 -24.306089 33.533215
14450000000 -21.624704 -3.5493102 -8.6186686 -63.661613 -8.6316614 -63.355053 -24.555853 15.45652
14460000000 -22.050089 -12.1906 -8.6159258 -75.190544 -8.5954409 -74.293098 -21.240053 6.0302172
14470000000 -21.865503 -18.596386 -8.5822201 -87.145638 -8.5658731 -86.55246 -20.973618 -9.9072266
14480000000 -21.611551 -26.096628 -8.5567408 -99.128532 -8.5870199 -99.15834 -19.810139 -27.797033
14490000000 -21.672377 -33.824406 -8.5569687 -111.28679 -8.5941973 -111.64724 -20.072287 -39.019207
14500000000 -22.63583 -41.420979 -8.6124372 -123.19199 -8.6086311 -122.66727 -20.086941 -57.626095
14510000000 -23.074478 -41.674477 -8.6504993 -135.07001 -8.6541405 -134.0343 -20.952482 -73.72776
14520000000 -24.866386 -43.895992 -8.6515379 -146.92328 -8.6487379 -146.14627 -22.794277 -81.391357
14530000000 -26.920689 -32.624527 -8.6574078 -158.91618 -8.8402796 -157.96684 -24.725317 -86.050079
14540000000 -27.405306 -21.23452 -8.6580706 -170.72462 -8.9440842 -170.42297 -30.170424 -75.567726
14550000000 -28.219843 -7.626286 -8.6949501 177.36223 -8.682848 177.946 -39.199966 -174.65196
14560000000 -28.502666 6.1474452 -8.7719936 165.57289 -8.830451 166.02632 -29.909826 86.984657
14570000000 -26.942326 9.6038513 -8.8271894 154.25989 -8.834898 154.37996 -28.560223 79.056084
14580000000 -25.374996 7.2052546 -8.8176537 142.75539 -8.8356791 143.37973 -26.828125 41.321548
14590000000 -24.61372 5.8525777 -8.8064451 131.32448 -8.8480215 132.07056 -24.370697 33.418045
14600000000 -23.271175 4.0456448 -8.7736511 119.48568 -8.7869635 120.19401 -25.385111 14.836392
14610000000 -22.256496 2.4601715 -8.768918 107.8763 -8.8462267 108.06621 -22.62981 19.72859
14620000000 -20.885315 -0.098320037 -8.7217751 96.255211 -8.7551003 96.589455 -21.935246 17.676872
14630000000 -19.840921 -5.6000142 -8.7252531 84.369827 -8.7236013 85.342529 -21.009672 6.1298366
14640000000 -18.83939 -10.814439 -8.6924477 72.331131 -8.7229319 73.479874 -19.232365 -2.4961016
14650000000 -18.85738 -16.392067 -8.7109089 60.51181 -8.7218504 61.229431 -18.096779 -5.0252476
14660000000 -18.502323 -21.747456 -8.7089624 48.674084 -8.8091068 48.910915 -17.241083 -6.4017158
14670000000 -18.895206 -28.457672 -8.7049799 37.132011 -8.7614031 37.272923 -18.324562 -19.995646
14680000000 -19.460424 -32.943592 -8.6866007 25.237011 -8.6642094 26.177233 -18.352142 -31.655817
14690000000 -20.039221 -37.663406 -8.697526 13.374008 -8.6566372 14.227416 -20.121082 -41.966343
14700000000 -20.170588 -41.697285 -8.691618 1.4724765 -8.6884661 2.1552348 -20.651348 -60.173367
14710000000 -21.066509 -46.103249 -8.6915464 -10.397851 -8.6486378 -9.8596315 -22.374569 -53.037228
14720000000 -21.712818 -45.866383 -8.7250357 -22.368626 -8.6955547 -21.796335 -24.566584 -57.145626
14730000000 -22.114664 -42.871662 -8.7647247 -34.225224 -8.7759809 -33.747635 -25.359453 -49.194939
14740000000 -21.958792 -38.208981 -8.7927418 -45.856049 -8.8162613 -45.596706 -26.50915 -31.995295
14750000000 -21.632025 -35.426815 -8.8240414 -57.661217 -8.8243246 -57.061111 -24.555954 -29.415915
14760000000 -20.978476 -34.250385 -8.8774071 -69.501038 -8.9138145 -68.328796 -22.822788 -33.283333
14770000000 -20.817465 -32.539528 -8.9154892 -81.026825 -8.9396477 -79.993507 -21.578238 -22.335585
14780000000 -20.576616 -33.146587 -8.9395342 -92.296021 -8.9484282 -91.681816 -20.98934 -2.6870158
14790000000 -20.353279 -34.804756 -8.9399595 -103.50957 -8.9476147 -103.21522 -22.509981 0.6846379
14800000000 -20.244295 -38.261951 -8.9138069 -114.99545 -8.9119549 -114.27968 -21.074572 -21.631533
14810000000 -20.606951 -40.355991 -8.8976307 -126.51468 -8.8642635 -125.4484 -20.76413 -15.571421
14820000000 -20.343489 -41.642395 -8.8692694 -137.91423 -8.8413677 -136.95856 -21.12295 -23.921505
14830000000 -20.139179 -43.592606 -8.8049536 -149.58409 -8.8105621 -148.9879 -19.369612 -26.782652
14840000000 -19.686848 -44.829594 -8.7759466 -161.14609 -8.8006725 -160.76646 -18.996267 -25.097641
14850000000 -19.347078 -47.598026 -8.7454882 -172.90645 -8.754427 -172.16122 -17.881979 -37.294994
14860000000 -18.832127 -49.781544 -8.6700268 175.62704 -8.7872753 176.3907 -17.714695 -39.002346
14870000000 -18.907377 -52.038628 -8.6212816 163.87047 -8.6801949 164.52855 -17.422234 -48.78157
14880000000 -18.692867 -52.944862 -8.5438023 151.8679 -8.6044168 152.7608 -16.689451 -59.694489
14890000000 -18.706766 -53.843239 -8.5154591 139.71605 -8.6025009 140.78839 -16.866385 -62.808289
14900000000 -18.635143 -57.160435 -8.450592 127.75324 -8.4552517 128.5101 -19.33766 -65.396996
14910000000 -19.018806 -59.759724 -8.4099388 115.60444 -8.43011 116.18198 -30.163517 -37.474468
14920000000 -18.914305 -62.741127 -8.4295721 103.35442 -8.4238472 104.08051 -24.730251 -84.791595
14930000000 -19.231878 -64.350334 -8.4965553 91.245346 -8.4345207 92.164993 -22.184193 -49.381512
14940000000 -18.987053 -67.675766 -8.5738297 79.504837 -8.4779234 80.393578 -22.463852 -49.710033
14950000000 -18.712589 -74.237915 -8.5312309 67.721375 -8.5282097 68.478317 -20.132551 -64.0541
14960000000 -18.68185 -80.462654 -8.5551844 55.840889 -8.5721111 56.344124 -20.377363 -57.834053
14970000000 -19.040358 -84.982536 -8.580142 44.293293 -8.6036301 44.933487 -20.373211 -67.909439
14980000000 -19.16131 -86.602028 -8.547905 32.389236 -8.5919609 33.341919 -20.321884 -70.72509
14990000000 -19.606285 -90.795631 -8.5732336 20.601742 -8.6265249 21.378265 -21.470436 -75.590523
