!Keysight Technologies,P9374A,MY57211810,A.19.30.04
!Date: Friday, May 02, 2025 09:01:42
!Correction: S11(Off) 
!S21(Off) 
!S12(Off) 
!S22(Off) 
!S2P File: Measurements: S11, S21, S12, S22:
# Hz S  dB   R 50
13000000000 -11.928482 112.00556 -200 45 -31.022205 -17.899242 -12.96989 -175.27515
13010000000 -12.726018 107.41703 -200 45 -30.868216 -83.875252 -18.446438 -175.75414
13020000000 -13.843856 104.29919 -200 45 -30.862482 -151.63322 -19.53875 -119.68163
13030000000 -15.072362 106.56366 -200 45 -30.914642 140.17201 -13.665995 -113.92374
13040000000 -15.889623 113.59464 -200 45 -31.12751 74.778725 -11.091709 -129.13113
13050000000 -15.669221 121.30067 -200 45 -31.379227 8.9966545 -10.657834 -146.83923
13060000000 -14.894346 126.95222 -200 45 -31.01815 -54.715115 -12.219651 -161.5401
13070000000 -13.86296 128.08797 -200 45 -30.71702 -122.89124 -15.468263 -159.58102
13080000000 -12.854681 126.19012 -200 45 -30.623549 167.89987 -15.54139 -136.2692
13090000000 -12.176179 120.88469 -200 45 -31.166176 100.20641 -12.735723 -133.08405
13100000000 -11.899008 114.69543 -200 45 -31.408873 34.375938 -11.156952 -144.00807
13110000000 -11.983251 108.76222 -200 45 -31.499901 -29.650484 -11.067445 -160.007
13120000000 -12.420776 103.17184 -200 45 -31.44401 -94.115303 -13.169041 -176.46999
13130000000 -13.181968 99.232094 -200 45 -31.075562 -160.11285 -18.775795 -175.30424
13140000000 -14.280523 97.85643 -200 45 -30.941696 131.19473 -18.543179 -118.62347
13150000000 -15.323526 100.93372 -200 45 -31.084433 63.215328 -12.921152 -118.15257
13160000000 -15.932196 107.81425 -200 45 -31.456106 -2.984705 -10.600424 -134.45863
13170000000 -15.695529 115.79628 -200 45 -31.576365 -68.409348 -10.395016 -151.90749
13180000000 -14.75205 121.90507 -200 45 -31.621639 -132.23029 -11.840071 -165.08954
13190000000 -13.548439 121.85117 -200 45 -31.334978 162.13777 -14.5925 -166.03955
13200000000 -12.596855 118.39842 -200 45 -31.279181 95.010643 -15.540505 -144.79396
13210000000 -12.100106 112.78319 -200 45 -31.119593 27.390596 -12.516352 -138.17989
13220000000 -11.926653 106.60111 -200 45 -31.316488 -38.991245 -10.68871 -151.74539
13230000000 -12.304627 100.59892 -200 45 -31.391439 -105.03336 -10.981653 -169.8633
13240000000 -12.984727 96.43679 -200 45 -31.358395 -169.95549 -13.563914 174.95459
13250000000 -14.002737 94.953758 -200 45 -31.204889 123.86993 -19.266193 -178.96907
13260000000 -15.181945 96.860855 -200 45 -31.111717 56.168968 -18.189543 -125.54288
13270000000 -15.979935 104.9153 -200 45 -31.22673 -9.9061871 -12.940349 -126.74364
13280000000 -15.952463 115.03748 -200 45 -31.128935 -75.664902 -10.750086 -142.795
13290000000 -14.769384 122.70961 -200 45 -31.047932 -141.66386 -10.553149 -159.87387
13300000000 -13.281867 124.30961 -200 45 -30.804333 150.85794 -12.089712 -172.78552
13310000000 -12.170133 120.00962 -200 45 -30.898867 83.001671 -14.751261 -169.19426
13320000000 -11.525538 114.11103 -200 45 -30.981197 16.295715 -14.111408 -152.02052
13330000000 -11.482587 107.23076 -200 45 -31.098427 -50.355988 -11.79349 -154.53932
13340000000 -11.862583 101.87959 -200 45 -31.224173 -116.2763 -10.900023 -167.97519
13350000000 -12.562587 98.350151 -200 45 -31.194805 178.92592 -11.655703 176.4436
13360000000 -13.49354 97.091225 -200 45 -31.152386 113.57031 -14.552501 165.02316
13370000000 -14.468263 100.06785 -200 45 -30.666992 45.701401 -19.271875 -176.54567
13380000000 -15.196513 106.11407 -200 45 -30.709862 -21.785185 -16.261724 -141.1899
13390000000 -14.995165 115.5344 -200 45 -30.649294 -90.209549 -12.327268 -146.55106
13400000000 -14.024478 121.71465 -200 45 -31.111496 -158.1039 -10.889643 -162.03093
13410000000 -12.658509 121.69398 -200 45 -31.28126 136.83688 -11.280215 -176.43903
13420000000 -11.792752 117.96163 -200 45 -31.322538 71.674088 -13.005645 176.95599
13430000000 -11.343828 111.35881 -200 45 -31.272938 5.7535357 -14.502696 -175.41669
13440000000 -11.452016 105.61229 -200 45 -31.130091 -60.4081 -13.364009 -165.10698
13450000000 -11.921035 100.52389 -200 45 -31.071589 -127.96281 -11.488111 -170.26959
13460000000 -12.618278 97.759109 -200 45 -31.091036 164.92862 -10.928059 176.11212
13470000000 -13.541445 97.086205 -200 45 -31.350679 97.465073 -12.011798 162.09306
13480000000 -14.35145 99.854904 -200 45 -31.475245 31.635202 -14.876725 156.00169
13490000000 -14.910869 104.56699 -200 45 -31.64015 -34.19223 -18.037764 172.76938
13500000000 -15.082764 111.54311 -200 45 -31.699451 -99.347969 -16.401447 -160.01878
13510000000 -14.325109 118.44083 -200 45 -31.688883 -164.30429 -12.930447 -159.83437
13520000000 -13.167073 119.73512 -200 45 -31.486706 128.95802 -11.409537 -172.93864
13530000000 -12.268376 116.00923 -200 45 -31.425358 62.344944 -11.764036 174.79315
13540000000 -11.99655 111.14012 -200 45 -31.586277 -5.4246612 -13.034267 170.22498
13550000000 -12.049093 106.62749 -200 45 -31.736069 -72.199043 -13.871502 173.75488
13560000000 -12.359563 103.05707 -200 45 -32.023376 -137.12866 -13.449907 178.81343
13570000000 -12.944279 101.56951 -200 45 -31.927704 159.01266 -12.463399 177.32162
13580000000 -13.284318 102.18505 -200 45 -31.804239 92.17009 -11.956231 169.66252
13590000000 -13.704078 102.62778 -200 45 -31.898567 26.99161 -12.50888 159.33949
13600000000 -14.216123 104.94602 -200 45 -31.729151 -38.708702 -14.582833 152.75465
13610000000 -14.368536 110.43172 -200 45 -31.532486 -104.86509 -17.380375 165.01534
13620000000 -13.905729 115.53029 -200 45 -31.372833 -172.5526 -16.038301 -171.9496
13630000000 -12.973655 117.45404 -200 45 -31.513908 118.97168 -13.416365 -171.79013
13640000000 -12.215783 115.72459 -200 45 -31.717127 52.708073 -12.199597 -179.86182
13650000000 -11.701726 112.17706 -200 45 -31.995775 -12.020901 -11.895076 171.56471
13660000000 -11.593395 107.91148 -200 45 -31.852699 -76.123718 -12.35009 164.23975
13670000000 -11.825585 104.50348 -200 45 -31.621557 -143.10284 -13.320183 162.06116
13680000000 -12.083448 103.36751 -200 45 -31.558527 149.61397 -13.658498 167.04311
13690000000 -12.239061 102.54002 -200 45 -31.766693 83.246979 -12.634111 168.13713
13700000000 -12.429374 101.36169 -200 45 -31.81399 18.072666 -11.973102 159.77687
13710000000 -12.866342 100.78857 -200 45 -31.643787 -47.832371 -12.840305 149.45607
13720000000 -13.348074 102.75927 -200 45 -31.615307 -114.30052 -14.800969 147.57832
13730000000 -13.400003 106.7896 -200 45 -31.433517 178.77304 -16.40288 156.73013
13740000000 -13.051301 110.99787 -200 45 -31.488243 111.59556 -16.229931 173.79764
13750000000 -12.16511 111.70872 -200 45 -31.60339 44.57568 -13.702978 179.9968
13760000000 -11.57079 109.00518 -200 45 -31.771111 -21.799431 -11.968271 171.17039
13770000000 -11.28749 104.97902 -200 45 -31.826431 -87.496758 -11.877268 160.66512
13780000000 -11.269704 101.34231 -200 45 -31.79985 -152.48781 -12.560489 155.67406
13790000000 -11.418505 98.234955 -200 45 -31.698765 140.17671 -13.099251 155.19273
13800000000 -11.589478 95.779816 -200 45 -31.735859 73.801506 -13.163959 156.44571
13810000000 -11.934303 93.187889 -200 45 -31.845722 7.7911901 -12.75821 155.14806
13820000000 -12.403081 91.630341 -200 45 -31.873276 -58.61005 -12.557261 148.93686
13830000000 -13.08255 91.52906 -200 45 -31.912996 -123.9914 -13.381932 140.55441
13840000000 -13.681711 95.724251 -200 45 -31.814003 170.05611 -15.613841 138.73088
13850000000 -13.525443 101.78536 -200 45 -31.736549 103.45419 -17.233545 156.38538
13860000000 -12.704481 105.05716 -200 45 -31.736778 35.985081 -15.411338 168.9496
13870000000 -11.789184 104.16524 -200 45 -31.801903 -30.829254 -14.032187 167.9288
13880000000 -11.131434 99.746918 -200 45 -32.189976 -97.906349 -13.075341 165.16544
13890000000 -10.970674 94.566154 -200 45 -32.522999 -162.64919 -12.498631 158.03836
13900000000 -11.083184 89.990761 -200 45 -32.441219 134.11357 -13.096116 151.61865
13910000000 -11.387064 86.540398 -200 45 -32.038544 68.219551 -13.664989 154.34831
13920000000 -11.78151 83.823235 -200 45 -32.098648 0.9531737 -12.85631 154.19215
13930000000 -12.408807 81.964355 -200 45 -32.133018 -65.112518 -12.687904 146.2003
13940000000 -13.177803 82.618484 -200 45 -32.013538 -130.80399 -13.658249 140.71915
13950000000 -13.881165 87.10466 -200 45 -31.985296 161.84233 -14.660484 140.96559
13960000000 -13.8152 94.921616 -200 45 -32.169197 95.033051 -15.705918 141.96835
13970000000 -12.777771 100.06689 -200 45 -32.368927 28.743237 -16.775076 151.21617
13980000000 -11.656595 99.105858 -200 45 -32.253559 -35.402794 -15.949986 162.07593
13990000000 -10.832265 95.024796 -200 45 -32.231083 -102.15492 -14.51456 162.65573
14000000000 -10.497171 89.042091 -200 45 -32.282337 -168.56993 -13.913845 158.58031
14010000000 -10.563066 83.463684 -200 45 -32.605377 125.89279 -13.711811 157.21254
14020000000 -10.938402 78.940056 -200 45 -32.347385 61.787209 -12.949869 155.55594
14030000000 -11.529459 75.74054 -200 45 -32.302261 -4.3191032 -12.495159 147.94084
14040000000 -12.308463 74.992706 -200 45 -31.964048 -70.739288 -13.119361 141.46764
14050000000 -13.093988 76.610443 -200 45 -31.992256 -137.96414 -13.713529 140.21419
14060000000 -13.665195 82.378883 -200 45 -32.135094 155.12268 -14.16506 136.98459
14070000000 -13.357492 89.499527 -200 45 -32.14592 90.166603 -15.39375 136.42122
14080000000 -12.39926 93.192734 -200 45 -31.942688 23.10709 -15.776889 143.74417
14090000000 -11.306731 92.645859 -200 45 -32.013729 -43.430264 -15.388692 144.01839
14100000000 -10.439344 88.251724 -200 45 -32.060513 -110.21154 -16.126781 144.96057
14110000000 -10.033493 81.773697 -200 45 -32.287048 -175.86864 -16.010921 154.88406
14120000000 -10.142443 75.205986 -200 45 -32.169159 118.13242 -14.512477 158.56888
14130000000 -10.575541 69.82795 -200 45 -32.159393 52.660984 -13.224714 155.00108
14140000000 -11.374976 66.669495 -200 45 -32.019783 -12.522087 -12.430668 147.7216
14150000000 -12.172016 66.440216 -200 45 -31.89563 -80.205521 -12.377239 138.39404
14160000000 -12.801719 69.094208 -200 45 -31.966484 -147.7921 -13.14655 129.83318
14170000000 -13.139217 72.454239 -200 45 -32.219124 146.52612 -14.796419 126.09057
14180000000 -13.030015 78.516716 -200 45 -32.160488 81.245476 -16.032217 133.65274
14190000000 -12.208259 81.835091 -200 45 -32.01384 14.652873 -15.30156 138.52272
14200000000 -11.216628 81.085701 -200 45 -32.105072 -52.035965 -15.271896 133.74651
14210000000 -10.413397 77.042366 -200 45 -32.224625 -118.0387 -16.349495 133.72919
14220000000 -10.003515 70.107193 -200 45 -32.213661 176.36711 -16.956215 140.1353
14230000000 -10.220859 63.366276 -200 45 -32.003235 110.8595 -17.074915 149.09531
14240000000 -10.755698 58.515598 -200 45 -32.066319 43.425095 -15.477205 159.57666
14250000000 -11.506197 56.153755 -200 45 -32.159348 -23.587046 -13.023154 154.63957
14260000000 -12.110244 56.719032 -200 45 -32.135628 -89.113228 -12.142869 140.43341
14270000000 -12.546078 57.011742 -200 45 -32.191971 -155.9399 -12.91559 127.88287
14280000000 -13.068608 59.887241 -200 45 -32.411514 137.72789 -14.398658 123.14469
14290000000 -13.00737 64.36689 -200 45 -32.60231 72.647682 -15.582143 124.03345
14300000000 -12.495131 67.518677 -200 45 -32.407139 8.199255 -16.456362 127.98799
14310000000 -11.674773 68.249901 -200 45 -32.254368 -57.766975 -16.305216 134.62314
14320000000 -10.905479 64.462013 -200 45 -32.127098 -124.82468 -15.394194 131.95293
14330000000 -10.622929 59.218513 -200 45 -32.167702 167.93042 -16.167879 121.8634
14340000000 -10.679682 53.835903 -200 45 -32.2239 100.41158 -19.343414 126.48125
14350000000 -11.045589 49.385849 -200 45 -32.617649 34.582603 -18.596067 154.78622
14360000000 -11.636348 46.852264 -200 45 -32.842285 -30.28619 -15.573901 155.4397
14370000000 -12.153842 46.196304 -200 45 -32.736137 -94.316063 -14.239498 148.56696
14380000000 -12.677125 46.861404 -200 45 -32.576805 -159.50305 -13.232808 140.28772
14390000000 -13.014554 48.623699 -200 45 -32.514744 134.54158 -13.032183 125.77926
14400000000 -13.151566 51.79311 -200 45 -32.340385 68.382347 -14.753955 112.52151
14410000000 -12.885696 55.023129 -200 45 -32.108234 1.8866882 -17.338602 116.35782
14420000000 -12.272296 56.540745 -200 45 -32.133423 -65.909599 -17.314226 126.84355
14430000000 -11.610793 55.014515 -200 45 -32.488361 -132.59656 -16.944841 126.33969
14440000000 -11.078756 51.668167 -200 45 -32.656548 163.74309 -17.20693 125.10246
14450000000 -10.858758 46.278656 -200 45 -32.257557 99.164429 -17.67313 121.82758
14460000000 -11.046997 42.01123 -200 45 -31.941463 32.646049 -19.749315 121.38146
14470000000 -11.283194 38.298069 -200 45 -31.707714 -36.018745 -21.076483 146.92076
14480000000 -11.781308 35.297146 -200 45 -31.942871 -103.82908 -17.16659 159.65063
14490000000 -12.340446 34.348656 -200 45 -32.174236 -170.55812 -14.552956 148.58626
14500000000 -12.846052 35.056709 -200 45 -32.4711 124.97163 -13.769631 134.32132
14510000000 -13.253752 37.350971 -200 45 -32.332077 60.05722 -14.011136 121.31892
14520000000 -13.173307 41.735653 -200 45 -32.298023 -4.9865422 -15.115666 108.94324
14530000000 -12.617132 43.590347 -200 45 -32.036163 -70.541672 -17.78886 101.10912
14540000000 -11.999876 43.260227 -200 45 -31.731264 -137.37042 -20.745329 117.05197
14550000000 -11.45891 40.766609 -200 45 -31.55821 154.29031 -18.619078 130.21805
14560000000 -11.056455 36.730804 -200 45 -31.776205 86.002098 -17.711164 118.44617
14570000000 -10.940332 31.79565 -200 45 -32.035866 19.105345 -19.584332 109.23018
14580000000 -11.038455 26.553459 -200 45 -32.312126 -45.85355 -22.115408 117.61923
14590000000 -11.553881 21.518347 -200 45 -32.248394 -110.12213 -22.890276 141.25421
14600000000 -12.386261 18.744474 -200 45 -32.144699 -176.38675 -19.410358 160.4882
14610000000 -13.278343 19.22447 -200 45 -32.148315 117.97003 -15.621111 151.76735
14620000000 -13.930181 23.045267 -200 45 -31.942801 51.260509 -13.986099 131.38106
14630000000 -14.035192 27.912788 -200 45 -31.951523 -14.986414 -14.454827 108.90148
14640000000 -13.729481 32.412102 -200 45 -31.832127 -81.963203 -16.972179 91.724258
14650000000 -12.922453 34.771118 -200 45 -31.895002 -149.01398 -20.783262 91.90522
14660000000 -12.087468 33.058765 -200 45 -32.190468 143.48083 -22.306602 109.76028
14670000000 -11.449211 28.745306 -200 45 -32.318256 78.922295 -21.203556 120.13274
14680000000 -11.157405 22.305817 -200 45 -32.397179 14.061473 -19.554287 115.48653
14690000000 -11.343914 15.667582 -200 45 -32.168488 -50.992424 -20.001879 96.404388
14700000000 -11.998099 9.9469042 -200 45 -31.985052 -118.19866 -26.414345 77.271561
14710000000 -12.924776 6.5415187 -200 45 -32.004654 175.59602 -27.828682 -175.81755
14720000000 -14.157768 6.4457145 -200 45 -32.065159 108.5362 -19.135126 168.63547
14730000000 -15.034883 11.998041 -200 45 -32.063576 42.193748 -16.375565 144.88504
14740000000 -15.191823 18.399153 -200 45 -32.166382 -23.902689 -15.490921 122.17313
14750000000 -14.867977 24.296103 -200 45 -32.395042 -89.69381 -16.03801 98.537376
14760000000 -13.909295 27.629606 -200 45 -32.327625 -153.84592 -18.707306 76.542
14770000000 -12.897781 26.10309 -200 45 -32.035084 139.94316 -25.041702 71.006783
14780000000 -12.12281 21.382181 -200 45 -31.956999 73.671669 -26.065395 125.3237
14790000000 -11.766396 14.586721 -200 45 -31.846375 5.9066973 -21.351873 118.50089
14800000000 -11.941132 6.8358793 -200 45 -31.964275 -61.65387 -21.266405 92.7817
14810000000 -12.661649 0.20568192 -200 45 -32.231129 -127.71283 -25.241083 66.84893
14820000000 -13.866946 -3.6409698 -200 45 -32.403877 167.49654 -41.029137 48.030666
14830000000 -15.175089 -2.5178158 -200 45 -32.405312 102.70471 -26.744516 -160.85654
14840000000 -16.249899 2.9675128 -200 45 -32.05933 37.292645 -19.560286 170.61006
14850000000 -16.5819 12.014377 -200 45 -31.951073 -29.038628 -16.664082 138.44148
14860000000 -15.889092 20.41955 -200 45 -31.857029 -96.619385 -16.444973 106.07761
14870000000 -14.672689 23.153217 -200 45 -31.884329 -163.98195 -18.749193 77.370934
14880000000 -13.380523 21.355021 -200 45 -31.985575 128.71985 -23.336306 61.159439
14890000000 -12.494656 14.606121 -200 45 -32.340263 63.133194 -28.589142 66.864204
14900000000 -12.237444 6.4470997 -200 45 -32.556534 -1.4175912 -31.116163 96.483459
14910000000 -12.527801 -1.4912984 -200 45 -32.311066 -65.249184 -27.390228 108.11595
14920000000 -13.335092 -8.3757257 -200 45 -32.080299 -130.48004 -25.319712 78.219276
14930000000 -14.569955 -11.605187 -200 45 -31.669445 161.87259 -27.965918 17.001575
14940000000 -15.745797 -10.609719 -200 45 -31.569136 93.837906 -27.984976 -98.074181
14950000000 -16.635483 -6.3437352 -200 45 -31.720596 25.660425 -22.82287 -166.02521
14960000000 -17.067381 0.24797365 -200 45 -32.011478 -41.616467 -21.190388 156.32999
14970000000 -16.813002 6.6942396 -200 45 -32.318905 -107.2987 -20.66379 132.31674
14980000000 -15.894876 11.450348 -200 45 -32.412029 -171.17419 -20.252317 105.52858
14990000000 -14.668113 10.345533 -200 45 -32.309933 124.29577 -21.399588 69.447472
15000000000 -13.787759 4.4977527 -200 45 -32.035198 58.798553 -25.732426 29.02397
15010000000 -13.459489 -3.3879244 -200 45 -31.681919 -9.0906925 -36.922756 1.6056272
15020000000 -13.74302 -12.754721 -200 45 -31.770498 -76.962509 -36.781467 70.80793
15030000000 -14.810875 -19.572794 -200 45 -32.094471 -145.29828 -33.831688 14.818594
15040000000 -15.973073 -20.059885 -200 45 -32.256508 150.36244 -32.640068 -52.110607
15050000000 -16.924173 -19.999474 -200 45 -32.322025 84.597694 -30.120781 -89.937485
15060000000 -17.936827 -16.423018 -200 45 -32.384991 19.631195 -25.977268 -113.9164
15070000000 -18.001736 -10.945793 -200 45 -32.388683 -46.099369 -22.630919 -146.35574
15080000000 -18.03681 -8.5402651 -200 45 -32.087139 -110.51972 -21.618235 176.26292
15090000000 -17.936335 -4.39364 -200 45 -31.715361 -177.40269 -22.867413 139.20578
15100000000 -17.048895 -0.3150104 -200 45 -31.570103 113.79156 -25.668468 105.20891
15110000000 -15.67493 -3.973603 -200 45 -31.751854 44.141087 -28.735722 70.160439
15120000000 -15.127756 -13.810762 -200 45 -32.210934 -22.255346 -30.077971 16.583946
15130000000 -15.754843 -23.517775 -200 45 -32.63229 -86.333549 -29.06241 -47.707241
15140000000 -16.905981 -26.77894 -200 45 -32.473698 -150.36375 -28.88574 -90.173386
15150000000 -17.37961 -25.44021 -200 45 -32.200832 144.18456 -30.296158 -94.672592
15160000000 -17.465435 -28.44886 -200 45 -31.987757 75.955971 -26.774698 -85.836014
15170000000 -18.161436 -32.733437 -200 45 -32.245903 8.87391 -23.308237 -100.69296
15180000000 -19.404911 -32.613701 -200 45 -32.356144 -57.841965 -21.579067 -119.52271
15190000000 -20.007376 -26.947868 -200 45 -32.521587 -123.15903 -20.677547 -139.01822
15200000000 -19.978117 -23.119989 -200 45 -32.64661 170.7959 -20.660538 -162.4093
15210000000 -19.730288 -18.841286 -200 45 -32.634449 106.75356 -22.300331 168.23012
15220000000 -18.644278 -16.826193 -200 45 -32.456078 40.509033 -27.09181 127.69746
15230000000 -17.480167 -23.091322 -200 45 -32.358494 -25.731398 -34.732586 15.541594
15240000000 -17.315266 -33.418743 -200 45 -32.346607 -92.760529 -27.590324 -67.380951
15250000000 -18.124771 -41.260403 -200 45 -32.481533 -159.94914 -25.424814 -91.27552
15260000000 -18.841951 -43.51841 -200 45 -32.698013 134.69824 -23.877638 -96.906059
15270000000 -18.945906 -47.113331 -200 45 -32.63863 69.523445 -22.588861 -105.67152
15280000000 -19.43882 -55.841583 -200 45 -32.578083 3.5965612 -22.392906 -107.75256
15290000000 -21.333847 -64.852188 -200 45 -32.454609 -62.503662 -20.417288 -106.44983
15300000000 -24.32268 -62.811726 -200 45 -32.494873 -129.04857 -18.227455 -120.07363
15310000000 -26.233454 -41.604294 -200 45 -32.555458 164.03712 -17.779251 -140.54916
15320000000 -24.618755 -24.171082 -200 45 -32.537777 98.913055 -19.24172 -160.07654
15330000000 -22.134287 -20.815643 -200 45 -32.407429 32.303764 -22.916771 -171.10315
