!Keysight Technologies,P9374A,MY57211810,A.19.30.04
!Date: Friday, May 02, 2025 09:00:18
!Correction: S11(Off) 
!S21(Off) 
!S12(Off) 
!S22(Off) 
!S2P File: Measurements: S11, S21, S12, S22:
# Hz S  dB   R 50
13000000000 -12.181767 109.80596 -200 45 -49.286648 167.94385 -13.033735 -175.43121
13010000000 -13.324055 107.77999 -200 45 -49.708374 90.437431 -18.650599 -176.10855
13020000000 -13.868434 108.83772 -200 45 -49.828594 29.113003 -19.286091 -117.96297
13030000000 -14.384013 108.20866 -200 45 -50.501965 -33.165123 -13.510948 -114.58094
13040000000 -15.435605 108.86607 -200 45 -49.315311 -96.204964 -11.109818 -129.95119
13050000000 -16.280319 118.76614 -200 45 -47.407871 -168.38255 -10.746801 -146.88828
13060000000 -15.271172 129.02689 -200 45 -48.317921 107.36541 -12.225418 -161.4821
13070000000 -13.674473 130.70311 -200 45 -51.108646 40.051617 -15.488002 -159.86372
13080000000 -12.664906 125.97165 -200 45 -50.775204 0.96427256 -15.574725 -135.46971
13090000000 -12.011978 119.99013 -200 45 -48.355473 -74.578438 -12.622762 -132.63725
13100000000 -11.921823 113.32861 -200 45 -48.191235 -151.55467 -11.061612 -144.79033
13110000000 -12.195081 107.94569 -200 45 -50.003841 131.83749 -11.164991 -160.74699
13120000000 -12.619252 104.44273 -200 45 -51.442883 77.048698 -13.245096 -176.4093
13130000000 -13.096032 101.34934 -200 45 -50.898109 21.8549 -19.014166 -174.63779
13140000000 -13.778719 97.778992 -200 45 -49.072285 -52.825462 -18.182076 -117.97032
13150000000 -15.290799 97.716682 -200 45 -50.228191 -126.52261 -12.917979 -119.16989
13160000000 -16.411854 106.83557 -200 45 -52.46751 168.30922 -10.661022 -134.44753
13170000000 -15.850804 119.12769 -200 45 -51.371052 113.7047 -10.345657 -151.64877
13180000000 -14.513911 122.08672 -200 45 -51.122055 53.922642 -11.733432 -166.07629
13190000000 -13.313903 121.08652 -200 45 -49.133026 -23.739697 -15.027396 -166.69803
13200000000 -12.677612 117.32843 -200 45 -51.584587 -98.07386 -15.26755 -141.46953
13210000000 -12.202808 112.36394 -200 45 -51.877567 -154.25854 -12.288261 -140.42972
13220000000 -12.071928 106.9881 -200 45 -50.172531 154.05104 -10.969147 -152.4912
13230000000 -12.35557 101.6605 -200 45 -49.305824 68.782272 -11.032095 -168.33585
13240000000 -12.717972 97.404213 -200 45 -50.791595 3.6644239 -13.225931 173.98312
13250000000 -13.797684 93.154266 -200 45 -51.863064 -57.065456 -20.12376 178.60614
13260000000 -15.404287 94.598297 -200 45 -51.001774 -120.91785 -17.46607 -123.4129
13270000000 -16.418159 106.49154 -200 45 -50.025242 174.12956 -12.878589 -128.97032
13280000000 -15.76405 117.77369 -200 45 -49.883839 101.06401 -10.866632 -142.35451
13290000000 -14.35642 122.71764 -200 45 -50.031429 27.516195 -10.409906 -159.87009
13300000000 -13.302076 121.95123 -200 45 -51.976398 -45.429317 -12.228621 -174.19328
13310000000 -12.397218 119.58451 -200 45 -53.738327 -77.34684 -14.923334 -166.66824
13320000000 -11.662956 115.23763 -200 45 -49.665886 -149.00032 -13.811093 -152.83876
13330000000 -11.403207 107.9633 -200 45 -48.93663 133.45523 -12.031127 -155.50447
13340000000 -11.742978 102.30292 -200 45 -50.168438 57.357544 -10.877485 -166.43825
13350000000 -12.429556 97.452171 -200 45 -51.861053 -4.4543557 -11.360411 175.21964
13360000000 -13.508375 96.114082 -200 45 -50.69986 -55.706772 -14.994435 162.88963
13370000000 -14.765031 99.427254 -200 45 -49.523254 -133.38837 -19.15527 -170.83536
13380000000 -15.269884 108.39998 -200 45 -50.427219 152.57828 -15.907538 -144.25801
13390000000 -14.741358 116.8507 -200 45 -52.274818 94.37925 -12.660408 -146.14743
13400000000 -13.778911 119.78685 -200 45 -50.466457 42.077503 -10.686003 -160.68089
13410000000 -12.776578 120.281 -200 45 -48.845699 -31.854513 -11.140812 -178.45293
13420000000 -12.07455 117.99413 -200 45 -48.843166 -110.17094 -13.489754 176.46162
13430000000 -11.395689 113.023 -200 45 -50.055279 176.41977 -14.171798 -172.43611
13440000000 -11.28377 106.72201 -200 45 -52.014256 112.91808 -13.275341 -168.49332
13450000000 -11.713902 99.712769 -200 45 -52.256504 63.120605 -11.76602 -169.07448
13460000000 -12.59789 96.580048 -200 45 -50.140533 3.1953938 -10.632653 176.84973
13470000000 -13.706241 96.036118 -200 45 -47.862888 -75.469971 -12.04705 159.82988
13480000000 -14.550016 100.57603 -200 45 -50.222481 -159.81825 -15.300172 157.44377
13490000000 -14.873346 106.96481 -200 45 -53.342915 146.07841 -17.683443 173.22403
13500000000 -14.739526 111.00822 -200 45 -51.907261 99.3284 -16.596703 -159.96843
13510000000 -14.25188 116.45087 -200 45 -50.038841 27.305735 -12.735653 -159.11954
13520000000 -13.447152 118.33858 -200 45 -49.479263 -43.532143 -11.353421 -174.66507
13530000000 -12.478016 117.18172 -200 45 -50.042225 -119.33987 -12.048453 174.86794
13540000000 -11.935504 112.87003 -200 45 -50.955956 179.75238 -12.785815 171.80952
13550000000 -11.804853 106.74265 -200 45 -51.437534 115.36201 -13.83091 171.65439
13560000000 -12.294031 102.40788 -200 45 -49.874725 59.002316 -13.709577 179.84396
13570000000 -12.967707 100.14026 -200 45 -50.129223 -20.105242 -12.269559 178.65749
13580000000 -13.457035 101.66523 -200 45 -50.945831 -79.730133 -11.736665 167.95161
13590000000 -13.944202 103.75008 -200 45 -49.141674 -142.50125 -12.873022 157.9451
13600000000 -14.044025 106.23642 -200 45 -48.727562 138.34889 -14.671082 155.89297
13610000000 -14.193066 109.98872 -200 45 -50.046745 64.840492 -17.009447 163.74066
13620000000 -13.894421 114.42334 -200 45 -52.576126 7.7582068 -16.377098 -171.99483
13630000000 -13.077783 117.47607 -200 45 -50.934406 -41.906017 -13.302496 -170.6028
13640000000 -12.288734 115.80455 -200 45 -48.710014 -110.74422 -12.089547 179.28787
13650000000 -11.697934 112.63724 -200 45 -47.819263 168.93506 -11.990848 171.43449
13660000000 -11.602796 108.38891 -200 45 -49.298386 89.178398 -12.267959 164.21899
13670000000 -11.698395 104.34834 -200 45 -53.003777 32.444759 -13.467752 161.45197
13680000000 -12.08052 102.67323 -200 45 -50.905548 -15.229136 -13.628493 169.009
13690000000 -12.425271 102.3222 -200 45 -48.752693 -87.343597 -12.390225 167.09207
13700000000 -12.427411 102.40193 -200 45 -49.971485 -160.13995 -12.257751 158.40775
13710000000 -12.768008 100.97914 -200 45 -49.381023 138.56847 -12.973013 151.92613
13720000000 -13.267845 101.34665 -200 45 -49.203438 65.377312 -14.371434 146.8997
13730000000 -13.661798 107.04291 -200 45 -49.642002 -1.7089521 -16.901537 154.83479
13740000000 -13.010965 112.14352 -200 45 -50.666058 -70.433449 -16.118599 177.11276
13750000000 -11.973447 112.17506 -200 45 -50.109844 -123.69716 -13.390252 178.60165
13760000000 -11.503485 107.82964 -200 45 -48.881016 165.11919 -12.16678 169.98119
13770000000 -11.412803 104.3213 -200 45 -48.750332 90.690109 -11.957112 162.3764
13780000000 -11.478552 101.88409 -200 45 -49.625809 21.763952 -12.3285 154.85472
13790000000 -11.364007 99.685623 -200 45 -49.653816 -42.834137 -13.341767 154.21539
13800000000 -11.366254 95.943024 -200 45 -51.007175 -110.14008 -13.138186 158.22781
13810000000 -11.806532 91.731468 -200 45 -50.580883 -164.28996 -12.495822 154.12138
13820000000 -12.592855 90.396835 -200 45 -48.771244 126.6654 -12.791988 148.1385
13830000000 -13.350447 92.44075 -200 45 -48.90234 50.235764 -13.419933 142.03703
13840000000 -13.570118 97.245407 -200 45 -50.356647 -15.980276 -15.572758 138.73747
13850000000 -13.333098 101.80302 -200 45 -50.281612 -75.879036 -17.183432 156.17496
13860000000 -12.598057 104.12541 -200 45 -49.293491 -146.57909 -15.665395 169.20828
13870000000 -11.846318 103.22858 -200 45 -50.633419 143.40169 -13.749833 169.20851
13880000000 -11.310574 99.644363 -200 45 -51.659164 83.06842 -12.994188 163.11302
13890000000 -11.050653 95.382431 -200 45 -49.710491 20.214701 -12.725296 157.93353
13900000000 -11.073017 90.957939 -200 45 -50.285469 -52.219425 -13.068644 152.96709
13910000000 -11.219528 86.950821 -200 45 -51.643986 -119.8812 -13.506714 154.17413
13920000000 -11.585942 83.411674 -200 45 -51.239292 -171.73444 -12.810043 153.30739
13930000000 -12.393052 79.555969 -200 45 -49.900002 119.95605 -12.929844 146.03348
13940000000 -13.599617 81.814545 -200 45 -49.52108 49.648705 -13.66451 142.97987
13950000000 -14.120506 89.994263 -200 45 -49.277557 -22.54096 -14.284012 139.16066
13960000000 -13.431952 96.592148 -200 45 -50.015129 -91.540985 -16.337936 139.7527
13970000000 -12.482961 98.790886 -200 45 -51.257778 -160.05194 -16.708357 156.69057
13980000000 -11.68015 96.997635 -200 45 -51.609344 147.41049 -15.217999 158.61478
13990000000 -11.111595 94.223351 -200 45 -49.902779 82.81646 -15.178924 160.89117
14000000000 -10.76071 90.529327 -200 45 -49.292263 8.8817854 -13.794806 162.77769
14010000000 -10.407561 85.220329 -200 45 -50.253231 -63.401695 -13.233283 155.63525
14020000000 -10.700218 78.965904 -200 45 -51.170414 -125.70022 -13.267381 153.72902
14030000000 -11.36926 74.196518 -200 45 -50.869717 172.88702 -12.692774 150.15233
14040000000 -12.490945 73.365768 -200 45 -50.883224 104.69639 -12.733679 141.96835
14050000000 -13.391833 77.195442 -200 45 -50.886036 40.932102 -13.913928 136.93372
14060000000 -13.611052 84.028862 -200 45 -50.714111 -23.630886 -14.359548 139.37068
14070000000 -13.222301 89.791199 -200 45 -50.06488 -90.1688 -15.106965 135.92899
14080000000 -12.244031 92.725319 -200 45 -50.56469 -159.97694 -15.895544 143.85057
14090000000 -11.307642 91.556694 -200 45 -50.332832 136.7672 -15.253094 144.04063
14100000000 -10.571131 87.730293 -200 45 -51.130577 65.871742 -16.304386 144.60648
14110000000 -10.133689 82.501534 -200 45 -51.450562 7.2110662 -15.776126 157.02206
14120000000 -10.159986 75.817963 -200 45 -49.777489 -54.554623 -14.494989 156.56232
14130000000 -10.487904 70.573105 -200 45 -49.422318 -129.39282 -13.434099 155.95303
14140000000 -11.205035 66.228889 -200 45 -50.475811 157.57877 -12.254055 148.41035
14150000000 -12.123661 65.131332 -200 45 -51.013721 101.51486 -12.298656 136.81732
14160000000 -13.084061 68.11866 -200 45 -50.402653 36.337036 -13.433509 129.41537
14170000000 -13.321451 74.545067 -200 45 -50.072727 -31.809816 -14.683962 127.9869
14180000000 -12.797531 79.475128 -200 45 -49.789268 -96.108566 -15.844998 132.14299
14190000000 -12.061224 81.125671 -200 45 -49.417721 -168.0381 -15.549359 138.30367
14200000000 -11.210705 80.244629 -200 45 -49.621128 120.52239 -15.241941 135.7785
14210000000 -10.503091 76.192085 -200 45 -51.359993 56.487473 -16.033176 132.53876
14220000000 -10.176966 70.32988 -200 45 -50.216476 0.96890974 -17.388687 139.41736
14230000000 -10.24555 64.644875 -200 45 -49.356236 -71.946358 -16.918911 151.59471
14240000000 -10.620186 59.137077 -200 45 -50.570145 -145.17804 -15.270594 157.98334
14250000000 -11.369211 55.961315 -200 45 -50.484257 158.08745 -13.124271 154.4099
14260000000 -12.064487 55.286625 -200 45 -50.024223 91.588448 -12.113845 140.34953
14270000000 -12.73673 56.335922 -200 45 -49.691486 22.921288 -12.992188 128.0143
14280000000 -13.217079 60.591434 -200 45 -50.194672 -49.678684 -14.232268 123.87437
14290000000 -13.033445 65.753853 -200 45 -51.461586 -103.04066 -15.595925 121.14459
14300000000 -12.258479 68.383308 -200 45 -50.155243 -165.87022 -16.912792 130.94678
14310000000 -11.471542 66.533119 -200 45 -48.808815 125.319 -15.626045 135.43448
14320000000 -11.078556 63.344963 -200 45 -48.320026 45.50951 -15.57795 127.92723
14330000000 -10.818059 59.483276 -200 45 -50.862953 -27.158642 -16.744705 124.2964
14340000000 -10.716822 54.89761 -200 45 -52.054615 -76.032394 -18.803749 129.58723
14350000000 -10.950418 50.312923 -200 45 -49.74931 -134.16693 -18.508823 150.34628
14360000000 -11.43448 46.631641 -200 45 -49.298244 148.6523 -16.128172 156.12306
14370000000 -12.143806 45.064194 -200 45 -49.472454 86.190659 -13.969535 151.67424
14380000000 -12.827918 46.100716 -200 45 -48.834312 8.5144672 -12.762523 137.48679
14390000000 -13.155267 49.432068 -200 45 -51.138489 -57.813625 -13.541745 122.97456
14400000000 -13.085017 52.637421 -200 45 -50.548744 -107.48564 -15.021403 117.4899
14410000000 -12.803796 54.938118 -200 45 -48.802662 -179.20869 -16.491741 115.55977
14420000000 -12.251647 56.501724 -200 45 -49.190086 102.92798 -17.973051 122.40579
14430000000 -11.525429 54.754753 -200 45 -51.324112 44.577702 -17.23546 131.76115
14440000000 -11.150844 50.680367 -200 45 -50.0812 -12.879296 -16.449614 124.16174
14450000000 -11.030343 46.931557 -200 45 -48.629288 -85.070534 -18.07472 117.37027
14460000000 -10.939162 42.778557 -200 45 -49.248459 -157.58955 -20.231281 126.12522
14470000000 -11.239413 37.951611 -200 45 -49.908081 139.82367 -20.16436 146.48695
14480000000 -11.77035 35.346035 -200 45 -48.98225 75.723061 -17.44286 157.46492
14490000000 -12.32214 34.187756 -200 45 -49.347294 3.0648556 -14.653717 150.22343
14500000000 -12.892168 34.777256 -200 45 -49.426403 -59.318062 -13.601211 134.70424
14510000000 -13.204517 37.618523 -200 45 -50.162338 -129.19876 -13.934505 120.56337
14520000000 -13.248484 41.334747 -200 45 -49.257236 175.20891 -15.211982 106.5427
14530000000 -12.629403 44.391788 -200 45 -48.234791 101.91512 -18.516151 102.63889
14540000000 -11.866633 43.192722 -200 45 -48.20602 28.897364 -19.589489 120.22936
14550000000 -11.48842 39.951363 -200 45 -50.007965 -42.808693 -18.825674 122.60762
14560000000 -11.177036 36.721413 -200 45 -49.954708 -97.060745 -18.627781 122.56779
14570000000 -10.952747 32.399796 -200 45 -49.236443 -161.42915 -18.581657 114.52567
14580000000 -10.95502 26.882538 -200 45 -48.892155 123.49291 -21.944727 106.39645
14590000000 -11.459672 21.250813 -200 45 -49.816563 61.937263 -24.193415 153.72365
14600000000 -12.397352 17.820889 -200 45 -49.37455 -4.3371863 -18.251787 160.08949
14610000000 -13.40174 19.21759 -200 45 -48.744122 -70.233696 -15.734235 147.34013
14620000000 -13.996392 23.419746 -200 45 -48.857227 -143.52643 -14.382304 131.17061
14630000000 -14.005664 28.849514 -200 45 -49.805458 149.46211 -14.45645 110.83223
14640000000 -13.581999 32.537041 -200 45 -50.538937 92.410629 -16.577366 91.759918
14650000000 -12.871687 33.72681 -200 45 -49.049042 26.422586 -21.018005 88.392235
14660000000 -12.189717 32.431175 -200 45 -48.929611 -47.997616 -22.739998 113.37248
14670000000 -11.608455 28.756254 -200 45 -49.906754 -116.25908 -20.548096 122.51604
14680000000 -11.215148 23.386501 -200 45 -50.509872 -176.18581 -19.544947 111.64391
14690000000 -11.206146 16.470385 -200 45 -50.321617 121.37476 -20.783056 95.461823
14700000000 -11.794398 9.263381 -200 45 -49.060303 55.773495 -26.416992 83.249023
14710000000 -13.00167 5.1431894 -200 45 -49.839336 -15.951469 -28.391029 -179.66959
14720000000 -14.372723 6.4203606 -200 45 -49.249104 -79.229744 -19.117065 168.93826
14730000000 -15.102098 13.532386 -200 45 -49.141129 -149.14479 -16.199404 144.51038
14740000000 -15.044406 19.163471 -200 45 -49.553135 139.07956 -15.445956 121.90654
14750000000 -14.696027 23.042732 -200 45 -50.701454 79.778267 -15.973833 98.330818
14760000000 -14.042333 26.380032 -200 45 -50.445862 14.76017 -18.966436 74.497231
14770000000 -13.070296 26.484774 -200 45 -50.231743 -48.730659 -25.852983 76.294884
14780000000 -12.16688 22.582075 -200 45 -50.163036 -114.85805 -25.391994 118.95944
14790000000 -11.646324 15.355235 -200 45 -49.216824 -177.38318 -22.10741 117.55179
14800000000 -11.752938 6.4301987 -200 45 -48.885849 105.87002 -21.151722 96.872238
14810000000 -12.694572 -1.1887413 -200 45 -49.818817 38.911037 -24.164654 65.560577
14820000000 -14.005419 -4.3725696 -200 45 -50.34309 -23.777679 -42.466267 1.9397166
14830000000 -15.398664 -1.7285459 -200 45 -50.592716 -85.898888 -25.482843 -163.04343
14840000000 -16.319118 5.2510581 -200 45 -50.100094 -148.80782 -19.334612 167.86057
14850000000 -16.100786 13.188096 -200 45 -48.948574 142.51079 -16.841627 136.83839
14860000000 -15.674846 17.496374 -200 45 -49.399872 72.311241 -16.776289 106.18206
14870000000 -14.964714 21.161562 -200 45 -49.279549 4.1520147 -18.732342 81.194855
14880000000 -13.762064 22.391994 -200 45 -50.509895 -65.629028 -22.011467 56.823147
14890000000 -12.500979 16.849949 -200 45 -50.842331 -118.90212 -31.404461 51.575176
14900000000 -11.975686 7.7208467 -200 45 -49.710323 173.65387 -28.548635 118.40129
14910000000 -12.247765 -2.3385735 -200 45 -49.272049 109.02277 -25.430517 94.112869
14920000000 -13.268481 -10.467749 -200 45 -49.265163 40.507935 -27.295053 65.725044
14930000000 -14.846326 -13.035597 -200 45 -48.856232 -26.379221 -32.23568 21.538605
14940000000 -16.103178 -9.2403593 -200 45 -47.989899 -94.077629 -31.586912 -94.952545
14950000000 -16.497175 -3.5103621 -200 45 -48.312531 -171.82188 -23.49398 -155.52634
14960000000 -16.663092 0.16088183 -200 45 -50.769951 118.38313 -20.233004 160.81122
14970000000 -16.641586 4.6677918 -200 45 -51.458313 75.863937 -19.953241 126.8427
14980000000 -16.129913 9.9559717 -200 45 -48.743534 13.491917 -20.660864 100.01405
14990000000 -14.978517 11.033523 -200 45 -47.445339 -65.330086 -22.125906 69.032303
15000000000 -13.797079 6.4897285 -200 45 -48.985973 -138.97192 -26.647224 36.187012
15010000000 -13.218001 -2.8523085 -200 45 -49.143539 159.66301 -33.469505 23.171606
15020000000 -13.53868 -13.540867 -200 45 -48.820251 92.155785 -40.317497 23.156111
15030000000 -14.804282 -21.054411 -200 45 -49.400043 25.881384 -38.933113 31.151878
15040000000 -16.344685 -22.272709 -200 45 -49.910954 -33.745869 -33.029457 -32.185833
15050000000 -17.410858 -17.747585 -200 45 -48.542618 -99.627205 -28.483562 -82.176186
15060000000 -17.593998 -13.272896 -200 45 -48.36581 -167.76411 -24.973539 -119.60958
15070000000 -17.672552 -12.566545 -200 45 -48.026787 120.69118 -23.12693 -152.23495
15080000000 -18.187231 -9.61028 -200 45 -48.432987 51.36113 -22.314289 176.8922
15090000000 -17.934334 -3.6364534 -200 45 -49.20607 -16.119642 -22.755688 143.0768
15100000000 -16.918375 -1.8000642 -200 45 -49.015717 -73.854752 -24.837572 105.54314
15110000000 -15.963573 -5.1779938 -200 45 -48.514637 -142.8884 -28.292065 62.034512
15120000000 -15.722963 -12.723841 -200 45 -48.491417 147.29253 -31.34226 3.3983343
15130000000 -15.693024 -19.341541 -200 45 -48.945042 86.983192 -30.977877 -43.000469
15140000000 -16.229494 -26.625071 -200 45 -47.235355 18.205124 -27.93955 -78.695099
15150000000 -17.372919 -30.473579 -200 45 -48.22974 -60.683807 -29.24626 -104.91672
15160000000 -18.088594 -28.367435 -200 45 -50.067577 -120.71867 -27.753765 -82.548035
15170000000 -18.184944 -29.426245 -200 45 -48.656952 179.70596 -22.969883 -98.554497
15180000000 -18.934193 -32.522289 -200 45 -48.38501 109.59773 -21.36125 -121.98605
15190000000 -20.168833 -30.461685 -200 45 -48.2985 45.095467 -21.095556 -139.49042
15200000000 -20.355223 -20.655781 -200 45 -48.021595 -26.034737 -20.411388 -160.54454
15210000000 -19.188725 -17.222332 -200 45 -48.217388 -96.996849 -21.931612 163.65163
15220000000 -18.485603 -20.282503 -200 45 -49.081722 -161.82706 -28.826786 120.83407
15230000000 -18.045441 -24.824301 -200 45 -49.1394 134.08832 -40.160877 8.9548302
15240000000 -17.693708 -29.972975 -200 45 -49.485371 72.479988 -28.5942 -59.433151
15250000000 -17.799147 -38.127003 -200 45 -48.919083 5.1976776 -24.461538 -86.431915
15260000000 -18.17041 -44.175331 -200 45 -48.418697 -57.100574 -23.52166 -101.64654
15270000000 -18.90065 -52.895416 -200 45 -47.293858 -132.2355 -23.251539 -108.128
15280000000 -20.352547 -57.179218 -200 45 -48.421158 155.59122 -22.52792 -103.80177
15290000000 -21.637617 -58.479717 -200 45 -49.532749 90.879387 -19.870668 -106.48376
15300000000 -23.615011 -59.158516 -200 45 -49.503254 32.548515 -18.109144 -122.8923
15310000000 -25.958242 -48.002228 -200 45 -48.810436 -33.096283 -18.201244 -141.50682
15320000000 -24.969942 -22.712418 -200 45 -47.907322 -104.53932 -19.374426 -156.70134
15330000000 -22.058029 -21.551825 -200 45 -49.384678 -174.95946 -22.272112 -171.3493
