!Keysight Technologies,P9374A,MY57211810,A.19.30.04
!Date: Friday, May 02, 2025 09:02:34
!Correction: S11(Off) 
!S21(Off) 
!S12(Off) 
!S22(Off) 
!S2P File: Measurements: S11, S21, S12, S22:
# Hz S  dB   R 50
13000000000 -12.420759 111.06774 -200 45 -40.667435 -96.776123 -13.021669 -174.75928
13010000000 -13.093757 109.8486 -200 45 -40.309784 -164.76917 -18.311855 -175.41962
13020000000 -13.602336 107.91549 -200 45 -40.090813 126.13052 -19.69775 -119.75385
13030000000 -14.429272 106.77389 -200 45 -40.467075 60.139366 -13.641857 -113.34258
13040000000 -15.631088 107.8513 -200 45 -40.123558 -6.0926147 -11.038698 -129.54291
13050000000 -16.542732 119.7177 -200 45 -40.505821 -76.411369 -10.724521 -147.25992
13060000000 -15.31795 131.10254 -200 45 -40.968487 -139.99252 -12.265306 -160.79926
13070000000 -13.360689 131.37639 -200 45 -40.505405 155.40982 -15.286115 -159.71703
13080000000 -12.357076 124.62652 -200 45 -40.510921 87.230904 -15.719992 -136.94177
13090000000 -12.13177 117.62392 -200 45 -40.532967 19.452818 -12.75865 -131.92555
13100000000 -12.301809 113.14233 -200 45 -40.585457 -47.726467 -10.997399 -144.04889
13110000000 -12.404005 110.06976 -200 45 -40.86729 -113.83516 -11.076963 -161.07092
13120000000 -12.377234 106.9277 -200 45 -41.035892 -179.58987 -13.342032 -176.70076
13130000000 -12.67046 100.44114 -200 45 -41.081852 114.59876 -18.77817 -172.98813
13140000000 -13.778412 94.846695 -200 45 -41.255028 49.024082 -18.403902 -120.41199
13150000000 -15.700417 95.968201 -200 45 -40.797489 -16.081942 -13.055482 -118.48025
13160000000 -16.774265 109.40272 -200 45 -41.040894 -84.574814 -10.681129 -133.78838
13170000000 -15.642551 121.84483 -200 45 -40.981018 -149.46098 -10.290593 -151.23392
13180000000 -13.997377 122.37889 -200 45 -41.078506 144.72168 -11.720476 -166.09509
13190000000 -13.202179 118.57064 -200 45 -40.921932 78.12722 -14.877218 -166.6926
13200000000 -12.890147 114.72578 -200 45 -41.049763 11.999244 -15.44069 -142.84763
13210000000 -12.673485 113.11102 -200 45 -41.095181 -54.198082 -12.3751 -139.09836
13220000000 -12.167461 109.96861 -200 45 -40.954014 -121.69737 -10.797504 -152.37082
13230000000 -11.954039 103.74705 -200 45 -40.991726 171.81908 -11.051385 -169.3235
13240000000 -12.347107 95.983063 -200 45 -41.123238 106.04507 -13.446588 175.29254
13250000000 -13.751408 89.775826 -200 45 -41.230881 39.689247 -19.253506 179.78741
13260000000 -15.932257 93.391869 -200 45 -41.079788 -24.204199 -18.24605 -124.71274
13270000000 -16.791283 109.19243 -200 45 -40.796104 -90.554291 -12.834979 -126.61292
13280000000 -15.407512 120.62176 -200 45 -40.668335 -159.71765 -10.720539 -143.32683
13290000000 -13.951039 121.89951 -200 45 -40.761086 134.0968 -10.627838 -160.20325
13300000000 -13.090141 118.98402 -200 45 -40.985844 65.583557 -12.169454 -171.94391
13310000000 -12.757071 117.25234 -200 45 -41.239536 2.0234966 -14.517486 -168.91264
13320000000 -12.156788 115.86523 -200 45 -41.269993 -61.534569 -14.244145 -153.27522
13330000000 -11.519671 111.70075 -200 45 -40.649776 -127.97472 -11.895007 -153.50612
13340000000 -11.292864 104.34372 -200 45 -40.330036 166.42847 -10.76448 -167.45445
13350000000 -11.842541 96.037949 -200 45 -40.178688 94.963997 -11.573274 175.37585
13360000000 -13.5435 90.653465 -200 45 -40.147774 28.284981 -14.767644 164.41908
13370000000 -15.653731 98.160194 -200 45 -40.5732 -39.713642 -19.234327 -174.68111
13380000000 -15.655075 113.89093 -200 45 -40.498871 -106.89329 -16.104475 -142.08929
13390000000 -14.102176 119.88563 -200 45 -40.600761 -172.16118 -12.428258 -146.95053
13400000000 -13.174447 117.98507 -200 45 -40.660091 121.43631 -10.937499 -161.74783
13410000000 -12.810829 115.66715 -200 45 -40.683197 54.43243 -11.243736 -176.28554
13420000000 -12.702846 116.25974 -200 45 -40.722492 -11.315356 -13.007536 176.44228
13430000000 -11.853074 116.25282 -200 45 -40.293209 -78.876709 -14.533341 -174.92111
13440000000 -11.044843 110.25493 -200 45 -40.716385 -148.27623 -13.265564 -165.3423
13450000000 -11.1053 100.38194 -200 45 -41.457615 144.70232 -11.541265 -170.70235
13460000000 -12.213248 92.684868 -200 45 -41.563526 84.084167 -10.997686 176.6786
13470000000 -14.185475 91.687706 -200 45 -40.721874 20.437401 -11.896277 162.71327
13480000000 -15.473726 102.91851 -200 45 -40.740849 -48.753788 -14.742768 154.04343
13490000000 -14.715671 112.89378 -200 45 -40.492847 -116.76903 -18.600571 173.92068
13500000000 -13.829967 112.00455 -200 45 -40.733307 175.41817 -15.90417 -158.8423
13510000000 -13.982285 111.62257 -200 45 -41.013733 109.30045 -12.921368 -162.10881
13520000000 -13.947074 115.24267 -200 45 -41.006016 43.41568 -11.686461 -172.66556
13530000000 -13.03466 119.46983 -200 45 -40.869667 -23.444939 -11.698117 176.45747
13540000000 -11.866533 115.8484 -200 45 -40.826271 -90.562386 -12.794497 169.34644
13550000000 -11.392056 108.52705 -200 45 -41.185207 -158.02245 -14.085972 172.71765
13560000000 -11.821911 99.762535 -200 45 -41.414616 135.21451 -13.491563 -179.81943
13570000000 -13.152886 96.696281 -200 45 -41.382046 71.441078 -12.304167 177.30176
13580000000 -14.16057 102.0314 -200 45 -41.560062 5.078856 -11.963554 168.91667
13590000000 -13.931671 107.9844 -200 45 -41.374252 -60.197449 -12.606803 159.35297
13600000000 -13.560642 107.80254 -200 45 -41.370872 -126.74188 -14.607081 153.61052
13610000000 -13.80207 107.34895 -200 45 -41.618778 168.55099 -17.203146 164.95387
13620000000 -14.141549 111.19624 -200 45 -41.329391 104.11563 -16.212858 -172.73532
13630000000 -13.612622 118.1695 -200 45 -41.040295 36.634178 -13.469008 -170.83209
13640000000 -12.240255 118.91465 -200 45 -40.861069 -30.385483 -12.07855 -179.69423
13650000000 -11.392375 113.32421 -200 45 -40.727375 -98.664124 -11.894819 170.74344
13660000000 -11.336228 106.68153 -200 45 -41.198299 -167.02469 -12.458511 164.02383
13670000000 -11.870702 102.82789 -200 45 -41.173088 127.69024 -13.326083 162.97925
13680000000 -12.328473 102.86079 -200 45 -41.212257 62.26236 -13.473197 167.05305
13690000000 -12.378434 103.79982 -200 45 -41.416302 -3.3728852 -12.657129 167.26553
13700000000 -12.322594 102.63092 -200 45 -41.214813 -69.807579 -12.1557 160.16685
13710000000 -12.607176 100.51812 -200 45 -40.888176 -137.09859 -12.791957 150.92155
13720000000 -13.350621 100.88238 -200 45 -41.313053 155.32759 -14.579159 146.39841
13730000000 -13.706115 106.63144 -200 45 -41.208 90.68084 -16.740803 155.66145
13740000000 -13.08302 112.4496 -200 45 -41.150421 21.939857 -16.166418 175.49532
13750000000 -12.030367 112.47166 -200 45 -41.516258 -44.040806 -13.556351 179.11598
13760000000 -11.39328 108.5109 -200 45 -41.446518 -107.16451 -12.024578 170.7532
13770000000 -11.289472 103.50494 -200 45 -41.218914 -174.28101 -11.906557 161.15451
13780000000 -11.483089 100.71442 -200 45 -41.008648 118.34755 -12.549473 155.69402
13790000000 -11.618239 99.413887 -200 45 -41.244453 52.889221 -13.126663 155.23061
13800000000 -11.498307 97.702866 -200 45 -40.892597 -15.240751 -13.134922 156.27228
13810000000 -11.547791 93.365295 -200 45 -40.9692 -84.001579 -12.735364 155.11684
13820000000 -12.256259 88.832664 -200 45 -41.361813 -150.61983 -12.580748 148.70645
13830000000 -13.456391 89.650864 -200 45 -41.571243 145.41269 -13.447646 140.72778
13840000000 -14.135597 97.546783 -200 45 -41.206741 79.232094 -15.545841 139.812
13850000000 -13.349971 105.26003 -200 45 -41.228115 9.1852779 -17.092813 154.61467
13860000000 -12.173179 105.13425 -200 45 -41.568718 -56.694538 -15.761086 169.13103
13870000000 -11.58571 101.08667 -200 45 -42.177246 -123.25328 -13.883638 169.83992
13880000000 -11.467057 97.266533 -200 45 -42.0005 172.99466 -12.845946 163.7283
13890000000 -11.459334 95.509972 -200 45 -41.848888 108.70041 -12.764378 156.90085
13900000000 -11.188681 93.289993 -200 45 -41.843872 39.869522 -13.212641 153.70428
13910000000 -10.952734 88.661438 -200 45 -41.983353 -23.836695 -13.30725 154.0656
13920000000 -11.300459 82.332062 -200 45 -41.763828 -91.030586 -12.983685 152.51291
13930000000 -12.29212 77.689934 -200 45 -41.533714 -157.82504 -12.895695 147.39291
13940000000 -13.995611 80.016907 -200 45 -41.625732 135.01743 -13.446324 141.8916
13950000000 -14.38149 92.360085 -200 45 -41.692078 64.419548 -14.614005 138.97008
13960000000 -13.248055 99.088234 -200 45 -42.379856 -1.9660553 -15.999352 142.5278
13970000000 -12.13157 98.275505 -200 45 -42.717121 -65.739838 -16.601982 152.25214
13980000000 -11.533443 95.062164 -200 45 -42.528896 -130.68648 -15.864539 160.48596
13990000000 -11.361229 92.151176 -200 45 -42.459812 163.8215 -14.691352 162.50772
14000000000 -11.077188 91.07074 -200 45 -42.53521 98.25106 -13.878449 159.82147
14010000000 -10.57527 87.787277 -200 45 -42.799408 30.505714 -13.510297 156.94362
14020000000 -10.335199 81.018028 -200 45 -42.977577 -34.928516 -13.040612 154.51311
14030000000 -10.903296 73.075394 -200 45 -43.007458 -96.870071 -12.66653 148.78114
14040000000 -12.488626 68.799538 -200 45 -42.742092 -162.52507 -12.964939 142.45193
14050000000 -14.098862 76.522934 -200 45 -42.19743 132.53922 -13.640074 138.6297
14060000000 -13.957024 88.324211 -200 45 -42.216015 63.797104 -14.433064 136.77612
14070000000 -12.589238 93.057877 -200 45 -41.8283 -2.0764246 -15.272316 138.03554
14080000000 -11.708421 89.947235 -200 45 -41.9757 -72.895676 -15.581923 142.22816
14090000000 -11.468466 87.6493 -200 45 -42.376911 -141.17046 -15.593005 143.79376
14100000000 -11.171168 87.530777 -200 45 -42.993294 152.23465 -16.07597 146.11009
14110000000 -10.389488 85.37957 -200 45 -43.343029 90.203995 -15.9312 154.32974
14120000000 -9.8420238 78.814285 -200 45 -43.135887 26.646425 -14.59181 158.52863
14130000000 -9.9752817 69.717453 -200 45 -43.086254 -37.43671 -13.232014 155.51152
14140000000 -11.049383 62.897518 -200 45 -42.700325 -101.76988 -12.416971 147.74718
14150000000 -12.662153 62.674549 -200 45 -42.488815 -170.32773 -12.360164 137.98209
14160000000 -13.519213 70.865547 -200 45 -42.635372 122.2569 -13.263128 129.25119
14170000000 -13.075843 78.031204 -200 45 -42.371582 58.43018 -14.798928 127.41509
14180000000 -12.283436 79.035088 -200 45 -41.964909 -8.668992 -15.699232 132.93013
14190000000 -11.914773 78.438484 -200 45 -42.086159 -77.625259 -15.568763 137.18538
14200000000 -11.482163 78.089714 -200 45 -42.18911 -144.13966 -15.362656 136.38219
14210000000 -10.93815 77.160141 -200 45 -42.138393 149.7511 -15.960062 133.48314
14220000000 -10.218523 73.145622 -200 45 -42.050282 81.312088 -17.260529 137.51808
14230000000 -9.9162207 65.975502 -200 45 -42.219219 14.956815 -17.275185 151.77417
14240000000 -10.239601 58.050236 -200 45 -42.240345 -51.114994 -15.113991 159.26961
14250000000 -11.29657 52.509148 -200 45 -42.565453 -119.47438 -13.092708 152.96844
14260000000 -12.688202 53.418121 -200 45 -42.804928 178.11334 -12.341963 140.82948
14270000000 -13.187723 60.6777 -200 45 -42.77813 110.45018 -12.825401 129.30072
14280000000 -12.649528 64.239624 -200 45 -42.671471 46.493092 -14.189487 122.21692
14290000000 -12.337047 63.320377 -200 45 -42.853756 -19.849501 -15.809185 122.95502
14300000000 -12.44224 63.434105 -200 45 -42.652081 -86.654793 -16.557796 130.17499
14310000000 -12.217031 66.584137 -200 45 -42.411125 -154.1456 -15.932041 134.49927
14320000000 -11.287965 67.208603 -200 45 -42.945698 139.91127 -15.476617 129.42348
14330000000 -10.375241 62.162815 -200 45 -42.634747 73.964851 -16.658598 123.27079
14340000000 -10.203563 53.343262 -200 45 -42.859421 7.5834184 -18.799919 129.66615
14350000000 -10.955109 46.279404 -200 45 -42.840855 -58.47086 -18.676231 149.71388
14360000000 -12.076427 45.252014 -200 45 -42.925804 -125.32564 -16.028463 157.20708
14370000000 -12.48802 48.727665 -200 45 -43.242973 171.01274 -13.935993 150.57625
14380000000 -12.391872 49.301979 -200 45 -42.974094 105.368 -12.992414 138.31227
14390000000 -12.58124 47.717342 -200 45 -42.85146 36.945843 -13.340195 124.31609
14400000000 -13.194731 48.808262 -200 45 -43.132206 -29.414886 -14.969845 115.17989
14410000000 -13.333054 54.481895 -200 45 -43.185276 -92.575027 -16.828785 116.54089
14420000000 -12.450711 59.13504 -200 45 -42.988491 -160.94371 -17.514051 124.03031
14430000000 -11.278471 56.641182 -200 45 -43.323647 132.98784 -17.176105 128.35872
14440000000 -10.81451 50.339642 -200 45 -43.026463 71.203423 -16.870697 125.75751
14450000000 -10.905962 44.618828 -200 45 -42.996922 2.0306668 -17.728666 119.71391
14460000000 -11.242607 41.387535 -200 45 -43.079777 -62.149475 -20.128992 122.66853
14470000000 -11.516002 38.749481 -200 45 -42.905922 -128.41748 -20.636526 147.55981
14480000000 -11.808982 37.441952 -200 45 -42.783466 167.10442 -17.306286 157.67561
14490000000 -12.060534 35.282898 -200 45 -42.417042 99.833389 -14.759721 149.75696
14500000000 -12.521839 33.598652 -200 45 -42.049644 30.86153 -13.579382 135.33723
14510000000 -13.366995 34.711796 -200 45 -42.462872 -36.945194 -13.840621 119.85082
14520000000 -13.570611 41.316818 -200 45 -43.129097 -104.8462 -15.417178 107.77165
14530000000 -12.845618 46.140682 -200 45 -42.889355 -167.25693 -17.983526 104.14588
14540000000 -11.755753 45.492737 -200 45 -43.013241 127.14548 -20.036072 116.60174
14550000000 -10.991995 40.367805 -200 45 -42.6422 61.637383 -18.971483 127.0204
14560000000 -10.952675 33.335751 -200 45 -42.658764 -5.7077794 -18.102829 120.98727
14570000000 -11.363809 29.873234 -200 45 -42.534477 -71.8638 -19.111513 111.78143
14580000000 -11.512892 28.524818 -200 45 -42.30397 -137.86691 -21.977095 112.06284
14590000000 -11.41683 25.327587 -200 45 -42.31171 154.77248 -23.671795 144.08829
14600000000 -11.765903 19.527727 -200 45 -42.314793 86.038017 -18.961063 161.62675
14610000000 -12.876491 15.278661 -200 45 -42.417122 20.424458 -15.474721 149.92116
14620000000 -14.50192 18.441244 -200 45 -42.198414 -45.218594 -14.174436 130.38972
14630000000 -14.818823 31.493979 -200 45 -42.301258 -114.79881 -14.679592 110.1786
14640000000 -13.436377 37.486942 -200 45 -42.52417 176.23691 -16.735722 93.802216
14650000000 -12.22719 34.619301 -200 45 -42.984955 112.2072 -20.379065 88.156136
14660000000 -11.820965 29.315815 -200 45 -43.039349 46.690643 -23.245527 110.26806
14670000000 -11.791049 25.441158 -200 45 -43.135502 -19.097155 -20.701401 124.25725
14680000000 -11.750739 22.983788 -200 45 -42.936714 -84.30175 -19.127203 112.26179
14690000000 -11.527284 19.347631 -200 45 -42.835472 -149.48605 -20.565678 93.04348
14700000000 -11.58055 12.991703 -200 45 -42.58662 141.56839 -27.390858 85.232719
14710000000 -12.265618 5.5975928 -200 45 -42.721951 72.959091 -27.622065 173.73024
14720000000 -13.937868 1.0397644 -200 45 -43.188843 5.7976484 -19.743248 168.7495
14730000000 -16.00069 8.5119972 -200 45 -43.770706 -57.66412 -16.355873 147.16829
14740000000 -15.893229 24.177097 -200 45 -43.8992 -121.98998 -15.233827 122.00841
14750000000 -14.205452 29.271675 -200 45 -43.203781 173.45573 -16.014154 97.266464
14760000000 -13.136422 25.664835 -200 45 -43.155731 107.89491 -18.963736 75.815269
14770000000 -12.789378 21.278753 -200 45 -42.98941 38.793533 -25.167986 74.211365
14780000000 -12.732476 18.647701 -200 45 -43.240299 -30.646669 -25.703499 121.53211
14790000000 -12.44426 17.048834 -200 45 -43.41452 -96.121536 -21.767521 117.49286
14800000000 -11.828891 12.186618 -200 45 -43.9277 -161.58229 -21.343746 95.854164
14810000000 -11.870437 1.7750021 -200 45 -43.871353 132.77036 -24.475716 67.960426
14820000000 -13.197268 -8.1749935 -200 45 -43.911266 66.2892 -39.378246 16.178766
14830000000 -15.758473 -9.8112535 -200 45 -44.040936 0.721632 -25.658895 -159.51968
14840000000 -17.568764 6.1989269 -200 45 -44.490383 -64.402138 -19.321943 167.60202
14850000000 -16.324078 20.934971 -200 45 -44.465 -130.4709 -16.992926 136.57845
14860000000 -14.651686 20.75412 -200 45 -44.714802 164.72513 -16.862005 107.66665
14870000000 -14.227526 16.664318 -200 45 -44.966793 100.58209 -18.460545 81.272781
14880000000 -14.106196 16.320606 -200 45 -45.030121 39.052757 -22.292885 57.819916
14890000000 -13.385942 17.265072 -200 45 -44.633865 -22.900707 -30.474968 55.887325
14900000000 -12.264063 11.843197 -200 45 -44.025871 -88.277245 -30.177189 114.8285
14910000000 -11.884168 1.2916429 -200 45 -43.208435 -153.80119 -25.715418 101.39732
14920000000 -12.599858 -10.448939 -200 45 -42.70311 134.76242 -25.890995 67.042068
14930000000 -14.445946 -17.890604 -200 45 -42.872944 65.347466 -30.768002 9.4783039
14940000000 -16.847857 -13.892978 -200 45 -43.463436 -1.8684535 -30.534924 -105.75552
14950000000 -17.289642 0.15955728 -200 45 -43.568459 -67.211464 -24.195147 -161.19046
14960000000 -16.397757 5.7486315 -200 45 -43.401524 -130.8708 -20.949266 163.52061
14970000000 -15.903554 4.6844416 -200 45 -43.034676 161.73036 -19.698944 131.30122
14980000000 -15.850572 6.0749135 -200 45 -42.864155 92.996025 -20.191383 98.959244
14990000000 -15.358975 8.04914 -200 45 -43.29287 24.270594 -22.526922 67.058815
15000000000 -14.240547 7.4425583 -200 45 -43.592625 -42.856163 -26.791473 40.060158
15010000000 -13.353524 -0.41201454 -200 45 -44.243813 -105.33951 -32.589115 21.475286
15020000000 -13.319809 -11.007421 -200 45 -44.126514 -167.63556 -39.834404 23.514519
15030000000 -14.264731 -21.502325 -200 45 -43.479145 129.2397 -39.424629 25.69665
15040000000 -16.274012 -26.532848 -200 45 -43.147602 61.212341 -34.154099 -30.224977
15050000000 -18.092566 -19.076038 -200 45 -42.607563 -6.3610487 -28.76149 -79.440018
15060000000 -17.864557 -9.7877808 -200 45 -42.657764 -74.344444 -24.949789 -116.67053
15070000000 -17.344513 -9.6116838 -200 45 -42.495438 -142.66826 -22.668943 -151.28334
15080000000 -17.58219 -11.24404 -200 45 -42.51202 150.97755 -22.17897 175.25159
15090000000 -18.046366 -8.1438484 -200 45 -42.309845 81.286057 -23.288542 142.43643
15100000000 -17.597876 -1.4287798 -200 45 -42.831161 12.158859 -25.246923 109.20969
15110000000 -16.062424 -1.2318298 -200 45 -43.099358 -54.801533 -27.845551 68.07579
15120000000 -15.005535 -10.235741 -200 45 -43.554546 -119.03031 -30.041922 9.4677105
15130000000 -15.093182 -22.083916 -200 45 -43.301708 176.61293 -29.677099 -50.664673
15140000000 -16.382767 -31.080574 -200 45 -43.14941 109.822 -29.529856 -86.721359
15150000000 -17.911373 -31.013126 -200 45 -43.298363 40.321842 -29.524397 -92.543205
15160000000 -18.484842 -26.355877 -200 45 -43.782043 -25.572611 -26.76409 -89.787697
15170000000 -18.220966 -25.356691 -200 45 -43.817322 -89.076851 -23.637495 -100.42416
15180000000 -18.20577 -29.787558 -200 45 -43.915474 -154.86295 -21.578695 -117.19415
15190000000 -19.284147 -34.631809 -200 45 -43.751793 141.48813 -20.388597 -138.51277
15200000000 -21.058779 -29.044649 -200 45 -43.184715 74.702423 -20.518803 -164.76556
15210000000 -20.534861 -13.688953 -200 45 -43.285854 6.5826569 -22.661814 165.4312
15220000000 -18.337805 -12.429416 -200 45 -43.245941 -61.118103 -28.109619 131.15208
15230000000 -16.947264 -21.994884 -200 45 -43.013374 -129.657 -38.386971 26.05917
15240000000 -16.850281 -35.27433 -200 45 -43.568516 161.04335 -28.52132 -59.849125
15250000000 -17.959126 -45.30323 -200 45 -44.069649 94.574379 -24.582613 -86.558823
15260000000 -19.527557 -47.837059 -200 45 -44.100693 28.823355 -23.397278 -102.20273
15270000000 -19.443052 -41.993637 -200 45 -44.77153 -36.688866 -23.416292 -106.35608
15280000000 -18.946821 -49.93288 -200 45 -44.762638 -98.362511 -22.269226 -103.64409
15290000000 -19.868305 -64.174301 -200 45 -44.249645 -162.3152 -20.076622 -107.91774
15300000000 -23.52013 -77.377953 -200 45 -44.141605 128.42316 -18.337824 -121.47236
15310000000 -29.914492 -47.69487 -200 45 -44.172718 61.778851 -17.934788 -140.35518
15320000000 -24.505945 -6.0256453 -200 45 -44.313 -4.162827 -19.285707 -158.79379
15330000000 -20.573662 -17.734421 -200 45 -44.550606 -72.782112 -22.595137 -169.94513
