!Keysight Technologies,P9374A,MY57211810,A.19.30.04
!Date: Friday, May 02, 2025 08:57:32
!Correction: S11(Off) 
!S21(Off) 
!S12(Off) 
!S22(Off) 
!S2P File: Measurements: S11, S21, S12, S22:
# Hz S  dB   R 50
13000000000 -12.05364 111.49333 -200 45 -20.96439 26.372921 -13.263221 -177.43089
13010000000 -12.829628 107.56465 -200 45 -20.808825 -40.633762 -18.889835 -171.25749
13020000000 -13.856024 105.25163 -200 45 -20.788439 -108.00164 -18.949724 -122.73767
13030000000 -14.874608 106.82494 -200 45 -20.958851 -175.2872 -13.913796 -114.4445
13040000000 -15.824793 112.83138 -200 45 -21.045454 119.20613 -11.041125 -128.43448
13050000000 -15.971294 119.64442 -200 45 -21.025679 52.868084 -10.631145 -147.41544
13060000000 -14.938318 129.3688 -200 45 -20.900629 -12.944674 -12.330574 -161.4384
13070000000 -13.646967 127.99957 -200 45 -20.837416 -80.579048 -15.283539 -158.95537
13080000000 -12.818499 125.34055 -200 45 -20.910435 -147.84659 -15.707875 -137.74051
13090000000 -12.242695 120.51303 -200 45 -21.168875 144.98265 -12.797805 -131.13196
13100000000 -11.905812 114.42076 -200 45 -21.352859 79.211105 -10.851324 -144.03088
13110000000 -12.175088 109.24393 -200 45 -21.454641 14.704899 -11.048808 -162.2581
13120000000 -12.248467 104.3344 -200 45 -21.202692 -50.808613 -13.609323 -176.84506
13130000000 -13.063386 98.654686 -200 45 -21.159773 -117.49996 -18.681494 -170.35414
13140000000 -14.215167 96.637749 -200 45 -21.128096 174.99388 -18.310053 -122.27483
13150000000 -15.499843 100.11192 -200 45 -21.275925 108.31259 -13.181934 -118.43131
13160000000 -16.233433 108.8581 -200 45 -21.491865 42.398975 -10.682765 -133.26347
13170000000 -15.494652 118.78371 -200 45 -21.416727 -22.182985 -10.183336 -151.15623
13180000000 -14.368351 120.13385 -200 45 -21.320583 -88.117241 -11.653918 -167.27547
13190000000 -13.639057 119.89664 -200 45 -21.112589 -154.30666 -15.26126 -166.96361
13200000000 -12.818029 118.33044 -200 45 -21.130661 138.03456 -15.153185 -140.41411
13210000000 -12.234744 113.52319 -200 45 -21.266884 71.19828 -12.212834 -140.8017
13220000000 -11.942681 108.14524 -200 45 -21.330292 5.9253964 -11.038656 -153.04523
13230000000 -12.016422 101.71955 -200 45 -21.331787 -59.879826 -11.136379 -167.93326
13240000000 -12.671492 94.39328 -200 45 -21.260139 -124.72276 -13.168746 175.24734
13250000000 -14.284983 92.655899 -200 45 -20.97196 168.96335 -19.59947 176.46837
13260000000 -15.613597 97.212135 -200 45 -20.836546 101.37196 -17.89061 -122.36961
13270000000 -16.058672 108.06348 -200 45 -20.912001 34.167351 -12.760122 -128.24062
13280000000 -15.464684 116.783 -200 45 -20.923424 -32.254635 -10.880662 -142.96741
13290000000 -14.367998 119.88578 -200 45 -20.955387 -98.475365 -10.48324 -159.18448
13300000000 -13.661383 121.97708 -200 45 -20.848469 -164.03386 -12.029889 -173.8851
13310000000 -12.404713 120.95063 -200 45 -20.686441 128.91875 -15.116041 -168.65125
13320000000 -11.564516 115.67308 -200 45 -20.771374 61.141129 -13.868587 -150.64893
13330000000 -11.411962 108.99313 -200 45 -20.85515 -5.2232504 -11.719514 -156.35567
13340000000 -11.478141 101.60391 -200 45 -20.933765 -70.959572 -11.105854 -168.10262
13350000000 -12.466826 96.032104 -200 45 -20.85774 -136.87654 -11.623814 177.45383
13360000000 -13.897871 94.964317 -200 45 -20.736183 157.59583 -14.331639 164.68839
13370000000 -14.723003 101.95792 -200 45 -20.528181 90.006981 -19.674139 -177.41173
13380000000 -15.167992 108.64315 -200 45 -20.557156 22.667555 -16.076986 -139.20317
13390000000 -14.442625 116.06467 -200 45 -20.649929 -44.77528 -12.177563 -147.2202
13400000000 -13.927611 118.84705 -200 45 -20.760656 -110.74231 -10.974179 -162.72224
13410000000 -13.025106 120.10743 -200 45 -20.730108 -176.97224 -11.40206 -176.19846
13420000000 -12.005707 119.53573 -200 45 -20.68454 116.34308 -12.907252 177.52199
13430000000 -11.340724 112.62466 -200 45 -20.744198 49.490406 -14.519255 -176.50554
13440000000 -11.208219 106.56349 -200 45 -20.791718 -17.417006 -13.483307 -164.57161
13450000000 -11.714386 99.876328 -200 45 -20.970621 -83.620552 -11.301798 -169.72552
13460000000 -12.573101 95.2033 -200 45 -20.980322 -149.11566 -10.869657 174.87846
13470000000 -13.989861 97.098015 -200 45 -20.908413 145.22372 -12.271901 161.90544
13480000000 -14.407125 101.44608 -200 45 -20.827768 78.442375 -14.769972 158.32309
13490000000 -14.852289 106.2591 -200 45 -20.827145 11.355025 -18.03463 169.58693
13500000000 -14.706562 111.22421 -200 45 -20.916014 -55.438137 -16.566431 -157.88278
13510000000 -14.201377 116.38823 -200 45 -21.044615 -121.81689 -12.656639 -159.65401
13520000000 -13.551363 118.771 -200 45 -21.132368 172.77046 -11.455182 -174.68103
13530000000 -12.351939 117.77866 -200 45 -21.084974 106.89012 -11.971408 175.35858
13540000000 -11.938801 111.60667 -200 45 -21.081221 40.81966 -12.828617 171.19922
13550000000 -11.934169 107.11263 -200 45 -21.058174 -25.735203 -13.828839 171.97687
13560000000 -12.239011 102.57151 -200 45 -21.119358 -91.862938 -13.712276 -179.9705
13570000000 -12.887565 100.08884 -200 45 -21.146887 -157.97847 -12.230949 178.3726
13580000000 -13.491108 102.2954 -200 45 -21.157238 136.88829 -11.839214 167.86743
13590000000 -13.808051 103.37943 -200 45 -21.040514 71.025726 -12.790437 158.8425
13600000000 -14.128345 105.51579 -200 45 -20.8864 4.6094069 -14.66583 155.03809
13610000000 -14.334722 110.49557 -200 45 -20.808737 -62.878765 -16.967655 164.87144
13620000000 -13.782419 114.63571 -200 45 -20.857407 -129.86247 -16.339596 -174.38063
13630000000 -13.102604 117.57128 -200 45 -21.005501 163.65282 -13.651564 -169.37906
13640000000 -12.17354 115.52843 -200 45 -21.125782 97.785072 -11.775454 -178.95937
13650000000 -11.722653 111.66419 -200 45 -21.132124 33.162785 -11.81025 168.61754
13660000000 -11.775437 108.41737 -200 45 -20.988649 -33.369225 -12.860229 164.36151
13670000000 -11.699965 105.7832 -200 45 -20.893192 -99.646126 -13.111333 165.53961
13680000000 -11.949122 103.05407 -200 45 -20.903315 -166.45128 -13.292894 164.83098
13690000000 -12.201847 101.96818 -200 45 -20.849524 127.31506 -12.99621 166.95425
13700000000 -12.42408 100.6456 -200 45 -20.948429 61.170486 -12.112464 161.89978
13710000000 -13.130315 100.10735 -200 45 -20.849081 -4.3209553 -12.527699 150.02394
13720000000 -13.415003 104.48994 -200 45 -20.703869 -70.80835 -14.832396 145.1851
13730000000 -13.27237 107.98956 -200 45 -20.579208 -138.38057 -16.743158 158.08095
13740000000 -12.792717 110.9357 -200 45 -20.632711 154.72812 -15.998512 174.14037
13750000000 -12.10236 109.92641 -200 45 -20.693609 87.405891 -13.700424 179.93832
13760000000 -11.811667 107.6254 -200 45 -20.859928 21.587034 -11.878224 170.92223
13770000000 -11.522066 106.30943 -200 45 -20.900883 -44.402466 -11.973146 159.92349
13780000000 -11.214967 103.02207 -200 45 -20.828459 -110.52111 -12.703178 156.61778
13790000000 -11.190766 98.493279 -200 45 -20.866846 -176.82336 -12.896391 155.61447
13800000000 -11.390768 95.183342 -200 45 -20.824102 116.44302 -13.146255 154.92393
13810000000 -11.930103 91.11586 -200 45 -20.914728 50.510773 -12.916243 155.34483
13820000000 -12.675272 90.802261 -200 45 -20.911634 -16.195305 -12.50755 150.11411
13830000000 -13.46556 93.457428 -200 45 -20.914215 -81.593765 -13.213829 140.47455
13840000000 -13.363899 98.081848 -200 45 -20.90469 -148.47391 -15.750872 137.45567
13850000000 -13.236967 101.47478 -200 45 -20.830481 145.21452 -17.422014 157.56053
13860000000 -12.581594 102.77506 -200 45 -20.95121 78.019608 -15.27282 169.62814
13870000000 -12.006157 102.5681 -200 45 -20.986338 12.074178 -13.923609 167.1409
13880000000 -11.502535 100.71346 -200 45 -21.191015 -54.469109 -13.136151 164.35805
13890000000 -10.921431 96.978973 -200 45 -21.226015 -120.03267 -12.60427 158.39832
13900000000 -10.867323 90.621284 -200 45 -21.349564 174.50972 -13.056531 152.65234
13910000000 -11.133643 85.884918 -200 45 -21.219572 109.11643 -13.44365 153.84297
13920000000 -11.720449 81.773438 -200 45 -21.202045 42.865349 -12.919003 153.24464
13930000000 -12.721554 80.148186 -200 45 -21.129721 -23.249901 -12.912081 146.72885
13940000000 -13.53566 84.912399 -200 45 -21.158287 -89.825058 -13.563146 142.84724
13950000000 -13.713744 89.610413 -200 45 -21.211962 -155.8687 -14.316635 139.17644
13960000000 -13.404608 94.859818 -200 45 -21.175585 138.07686 -16.291225 139.31389
13970000000 -12.740829 97.719704 -200 45 -21.168892 71.74498 -16.818789 156.20747
13980000000 -11.816767 97.714615 -200 45 -21.173141 5.556098 -15.172095 160.33179
13990000000 -11.137045 95.796165 -200 45 -21.206583 -60.656857 -14.941633 158.77985
14000000000 -10.447373 90.706078 -200 45 -21.254538 -126.86115 -14.19919 162.36337
14010000000 -10.417011 83.988739 -200 45 -21.388865 167.53133 -13.176301 158.48526
14020000000 -10.796561 78.541168 -200 45 -21.308512 102.2123 -12.924115 152.27565
14030000000 -11.473696 74.78907 -200 45 -21.248711 36.396355 -12.953094 148.63501
14040000000 -12.536238 73.24028 -200 45 -21.139139 -29.49082 -12.954288 143.84732
14050000000 -13.334845 78.43335 -200 45 -21.037317 -95.34066 -13.438841 138.07387
14060000000 -13.47067 83.234261 -200 45 -20.965633 -162.45605 -14.509706 135.74208
14070000000 -13.190165 89.359894 -200 45 -20.969494 131.37015 -15.398374 138.74084
14080000000 -12.351987 92.558289 -200 45 -20.91221 64.416557 -15.447151 143.15645
14090000000 -11.388367 91.677979 -200 45 -20.907806 -1.5241593 -15.534128 142.55199
14100000000 -10.577182 88.784042 -200 45 -20.892035 -68.102058 -16.273554 146.68457
14110000000 -10.022671 82.380539 -200 45 -20.89283 -134.2737 -15.641044 155.20938
14120000000 -10.084013 75.62281 -200 45 -20.931379 158.9953 -14.692193 156.45035
14130000000 -10.545924 69.699333 -200 45 -20.934254 93.535812 -13.448933 156.9608
14140000000 -11.197701 66.620552 -200 45 -20.862675 26.966019 -12.088132 148.56828
14150000000 -12.287302 65.247749 -200 45 -20.804214 -38.77647 -12.319399 135.37389
14160000000 -12.93056 68.859413 -200 45 -20.751238 -105.44955 -13.659444 130.31833
14170000000 -13.207717 74.433342 -200 45 -20.703188 -172.36244 -14.500759 129.67708
14180000000 -12.904686 78.150314 -200 45 -20.779032 121.24584 -15.578317 129.70496
14190000000 -12.122318 82.127747 -200 45 -20.726145 55.011757 -16.026089 138.23009
14200000000 -11.157912 80.038864 -200 45 -20.771185 -11.58884 -15.068789 138.00479
14210000000 -10.496035 76.478302 -200 45 -20.744635 -77.870842 -15.842219 131.00195
14220000000 -10.114884 70.340683 -200 45 -20.757832 -144.44089 -17.562305 138.69699
14230000000 -10.275842 64.116539 -200 45 -20.802952 148.85254 -17.031713 152.62836
14240000000 -10.669082 59.464489 -200 45 -20.854355 82.774567 -15.158956 157.99908
14250000000 -11.304299 56.210247 -200 45 -20.942238 16.700663 -13.174008 153.67119
14260000000 -12.11631 54.609295 -200 45 -20.954124 -48.952354 -12.258549 141.09785
14270000000 -12.796614 57.098526 -200 45 -20.90382 -114.76157 -12.777485 128.48373
14280000000 -13.089026 60.437065 -200 45 -20.814209 178.83792 -14.322783 122.01812
14290000000 -13.000789 65.556847 -200 45 -20.834715 112.18017 -15.835075 123.66223
14300000000 -12.346821 67.956291 -200 45 -20.858219 45.704769 -16.33444 130.34554
14310000000 -11.481788 67.102417 -200 45 -20.935724 -20.592777 -16.035118 132.58522
14320000000 -11.024127 63.736969 -200 45 -20.983839 -86.604027 -15.807266 130.96991
14330000000 -10.740167 59.145546 -200 45 -20.993797 -152.44763 -16.258614 125.6534
14340000000 -10.813799 54.578415 -200 45 -20.992346 141.4456 -18.523624 124.26904
14350000000 -11.017917 50.514896 -200 45 -21.026503 75.191139 -19.537966 153.32063
14360000000 -11.411472 47.184559 -200 45 -21.035633 9.1479626 -15.435638 159.18112
14370000000 -12.104307 44.924545 -200 45 -21.108456 -56.460705 -13.774329 147.14838
14380000000 -12.712152 46.086075 -200 45 -21.025728 -122.0828 -13.449881 137.83272
14390000000 -13.2266 48.646179 -200 45 -21.004145 172.1378 -13.249307 127.06151
14400000000 -13.21946 52.694778 -200 45 -20.861311 105.96275 -14.566426 114.27371
14410000000 -12.757812 56.590389 -200 45 -20.816818 39.349026 -17.154886 115.03879
14420000000 -12.090938 56.018158 -200 45 -20.812397 -27.179491 -17.478027 126.06725
14430000000 -11.568591 53.879215 -200 45 -20.801498 -93.428658 -17.265263 127.00734
14440000000 -11.242501 50.746529 -200 45 -20.849236 -159.64267 -16.993624 127.44363
14450000000 -11.027652 46.891998 -200 45 -20.812208 134.51035 -17.205177 119.67781
14460000000 -11.006297 43.428413 -200 45 -20.740526 68.078743 -20.418081 117.42901
14470000000 -11.125583 38.278828 -200 45 -20.70784 1.3264612 -20.843498 153.96021
14480000000 -11.65533 35.05159 -200 45 -20.799429 -64.955132 -16.565056 157.36957
14490000000 -12.40795 33.299217 -200 45 -20.804785 -130.9091 -14.841996 146.4628
14500000000 -12.926089 34.865597 -200 45 -20.78503 163.26079 -14.060733 136.19339
14510000000 -13.394879 38.41917 -200 45 -20.719421 96.847374 -13.736032 122.839
14520000000 -13.014202 42.299751 -200 45 -20.686474 30.830589 -14.92362 106.55632
14530000000 -12.534294 43.180107 -200 45 -20.610519 -35.832848 -18.295034 99.668976
14540000000 -12.001669 42.197971 -200 45 -20.597727 -102.78824 -20.486036 120.61801
14550000000 -11.585677 41.007843 -200 45 -20.69206 -169.03401 -18.385607 128.05309
14560000000 -11.123765 37.071815 -200 45 -20.672705 124.48882 -17.918449 118.29494
14570000000 -10.844337 32.436115 -200 45 -20.787766 58.473667 -19.459526 111.07239
14580000000 -10.981041 26.355337 -200 45 -20.706255 -7.5239863 -22.084826 115.35406
14590000000 -11.461123 20.956572 -200 45 -20.727228 -73.631477 -23.398514 144.6619
14600000000 -12.481961 18.417839 -200 45 -20.667715 -140.02362 -18.976942 161.1102
14610000000 -13.280219 19.167578 -200 45 -20.688919 153.56689 -15.557906 149.40945
14620000000 -14.100785 23.498142 -200 45 -20.653559 86.905426 -14.315688 130.30305
14630000000 -13.978452 29.31119 -200 45 -20.758282 20.731987 -14.609041 111.48446
14640000000 -13.507133 31.946564 -200 45 -20.731964 -45.696121 -16.3493 93.449203
14650000000 -12.940866 33.787384 -200 45 -20.773626 -111.75462 -20.623085 84.112915
14660000000 -12.207082 32.646328 -200 45 -20.774065 -178.17336 -23.749676 117.80141
14670000000 -11.507024 29.249128 -200 45 -20.870077 115.36489 -19.837372 124.79755
14680000000 -11.192563 22.895744 -200 45 -20.945536 49.701538 -19.226549 106.72385
14690000000 -11.247259 16.034201 -200 45 -20.93964 -15.810983 -21.615017 94.153069
14700000000 -11.901375 9.7080431 -200 45 -20.900875 -82.124207 -26.622246 94.097458
14710000000 -12.920052 5.7161126 -200 45 -20.900217 -147.92706 -28.586857 164.07785
14720000000 -14.236985 6.827817 -200 45 -20.849882 145.65964 -19.903547 170.32147
14730000000 -15.070148 12.041162 -200 45 -20.906513 79.218491 -16.193375 148.17018
14740000000 -15.242814 19.361 -200 45 -20.974068 13.830173 -15.008458 122.42161
14750000000 -14.681977 24.348022 -200 45 -20.8948 -52.143559 -15.88644 95.947983
14760000000 -13.984118 26.243872 -200 45 -20.880808 -118.54777 -19.446911 73.747833
14770000000 -13.006297 26.872818 -200 45 -20.906578 175.16873 -25.408752 81.766228
14780000000 -12.063404 21.458082 -200 45 -20.904341 109.05479 -25.356901 114.91501
14790000000 -11.765104 14.865096 -200 45 -20.969282 43.165005 -22.507322 117.66231
14800000000 -11.873901 6.7790618 -200 45 -20.942696 -22.425701 -21.076975 99.276031
14810000000 -12.659954 0.038974304 -200 45 -20.877283 -88.056808 -23.656801 65.613937
14820000000 -13.902598 -3.9937065 -200 45 -20.763338 -154.83636 -39.828594 -15.941936
14830000000 -15.209325 -2.5425007 -200 45 -20.794079 138.66844 -24.92943 -165.97311
14840000000 -16.306135 3.8484197 -200 45 -20.801247 72.409599 -19.809317 165.35196
14850000000 -16.455462 13.056827 -200 45 -20.829367 6.4019027 -17.192627 139.91594
14860000000 -15.677372 19.618223 -200 45 -20.852386 -59.655247 -16.394604 109.37327
14870000000 -14.784722 22.173279 -200 45 -20.840555 -125.21988 -18.07688 77.115524
14880000000 -13.419166 21.120306 -200 45 -20.759651 168.40555 -23.274244 52.371376
14890000000 -12.611705 15.381817 -200 45 -20.748819 102.16234 -30.314173 72.559097
14900000000 -12.163301 6.7082758 -200 45 -20.753881 36.113159 -29.039509 102.74792
14910000000 -12.51263 -0.92373616 -200 45 -20.701056 -29.715801 -26.871431 99.587601
14920000000 -13.256598 -8.5375729 -200 45 -20.648247 -95.870987 -26.342827 74.486572
14930000000 -14.422663 -11.852398 -200 45 -20.586527 -162.32187 -29.803137 19.780577
14940000000 -15.822546 -12.056523 -200 45 -20.574083 131.40094 -29.405014 -96.743309
14950000000 -16.758526 -6.5467529 -200 45 -20.50201 64.540894 -23.273781 -161.6272
14960000000 -17.210548 1.5295353 -200 45 -20.582067 -1.6652179 -20.95138 159.04166
14970000000 -16.667868 7.5986309 -200 45 -20.549042 -68.065643 -20.325024 130.86113
14980000000 -15.690909 11.763528 -200 45 -20.55817 -134.08939 -20.184881 102.89425
14990000000 -14.643572 9.41047 -200 45 -20.575111 159.33543 -21.514233 68.074661
15000000000 -13.746938 3.5412123 -200 45 -20.561665 93.681633 -26.213421 28.629297
15010000000 -13.672687 -4.5032668 -200 45 -20.508183 26.805933 -38.563698 18.154409
15020000000 -13.976434 -11.997821 -200 45 -20.530285 -39.241833 -35.576603 58.954041
15030000000 -14.811007 -16.965839 -200 45 -20.581713 -106.01301 -34.26973 3.6323676
15040000000 -15.732831 -20.804153 -200 45 -20.589928 -171.62741 -33.702431 -56.344437
15050000000 -16.902992 -20.78314 -200 45 -20.589766 122.16213 -30.532249 -83.923073
15060000000 -17.981768 -17.800835 -200 45 -20.508287 56.279877 -25.492903 -111.76845
15070000000 -18.367533 -12.615269 -200 45 -20.46917 -10.239781 -22.361797 -149.28581
15080000000 -18.413233 -4.8636694 -200 45 -20.380463 -76.984024 -21.992598 172.916
15090000000 -17.413952 -1.2967961 -200 45 -20.429728 -144.08994 -23.471045 141.94675
15100000000 -16.3992 -2.8701241 -200 45 -20.531147 149.6559 -25.178415 112.40945
15110000000 -15.920522 -7.9520216 -200 45 -20.567133 83.685608 -27.012321 68.019119
15120000000 -15.76312 -14.645829 -200 45 -20.555155 17.297398 -28.986509 -1.4487476
15130000000 -16.145067 -19.258326 -200 45 -20.541695 -48.777664 -30.451733 -64.27166
15140000000 -16.366833 -23.358473 -200 45 -20.509033 -115.4576 -31.951809 -80.776588
15150000000 -16.742908 -27.294085 -200 45 -20.600763 178.01202 -28.121134 -79.577438
15160000000 -17.550327 -32.85313 -200 45 -20.677277 112.00299 -25.725241 -98.556328
15170000000 -18.593449 -33.167747 -200 45 -20.691626 46.064869 -24.783094 -104.51278
15180000000 -19.702791 -31.160044 -200 45 -20.680983 -20.001022 -21.978962 -112.38384
15190000000 -20.193573 -25.829376 -200 45 -20.646086 -86.123772 -19.871578 -136.74068
15200000000 -19.623264 -18.659193 -200 45 -20.611336 -152.38217 -20.169764 -167.11208
15210000000 -18.96666 -20.761164 -200 45 -20.633295 140.96222 -22.899956 162.79359
15220000000 -18.540604 -22.268629 -200 45 -20.682695 74.543083 -28.672974 129.97542
15230000000 -18.4158 -25.585987 -200 45 -20.724585 8.3966064 -39.205021 18.189426
15240000000 -17.954334 -29.28853 -200 45 -20.743484 -57.525597 -28.856802 -61.351814
15250000000 -17.80574 -34.066891 -200 45 -20.750793 -123.90795 -24.709345 -84.540504
15260000000 -17.594738 -44.131565 -200 45 -20.802589 170.14622 -23.226023 -101.3493
15270000000 -18.635067 -53.785576 -200 45 -20.819284 104.10904 -23.34869 -108.83256
15280000000 -20.223198 -61.224491 -200 45 -20.788889 38.336071 -22.479862 -103.44372
15290000000 -22.233442 -61.214588 -200 45 -20.764687 -28.223661 -19.948246 -107.19801
15300000000 -24.86463 -55.355328 -200 45 -20.732059 -94.135513 -18.336569 -122.25629
15310000000 -24.673325 -38.436943 -200 45 -20.755066 -160.91087 -18.044695 -139.64845
15320000000 -23.768423 -30.826239 -200 45 -20.764864 133.05447 -19.040228 -158.38268
15330000000 -22.792875 -28.576572 -200 45 -20.84617 66.571724 -22.574526 -173.82811
