!Keysight Technologies,P9374A,MY57211810,A.19.30.04
!Date: Friday, May 02, 2025 09:02:18
!Correction: S11(Off) 
!S21(Off) 
!S12(Off) 
!S22(Off) 
!S2P File: Measurements: S11, S21, S12, S22:
# Hz S  dB   R 50
13000000000 -11.505689 110.19125 -200 45 -38.42984 -53.600796 -13.07714 -175.10667
13010000000 -12.833739 103.79383 -200 45 -37.937149 -117.43932 -18.374023 -174.55191
13020000000 -14.438106 103.47175 -200 45 -37.429451 174.13286 -19.645531 -120.57764
13030000000 -15.438109 110.58595 -200 45 -37.496704 104.5684 -13.720291 -113.35479
13040000000 -15.328969 116.86097 -200 45 -37.672165 38.221291 -11.022328 -129.14493
13050000000 -15.107651 118.71188 -200 45 -37.79229 -28.009037 -10.659436 -147.27524
13060000000 -15.105773 122.59053 -200 45 -37.572517 -94.460754 -12.296027 -161.41124
13070000000 -14.437864 128.65114 -200 45 -37.644733 -163.36816 -15.413287 -159.09311
13080000000 -12.964806 128.87978 -200 45 -38.008614 130.37187 -15.53026 -136.95673
13090000000 -11.897403 122.71395 -200 45 -38.26469 65.963066 -12.813136 -132.78358
13100000000 -11.570527 113.98547 -200 45 -37.959312 0.15175836 -11.09045 -143.65578
13110000000 -11.885289 106.62991 -200 45 -37.848183 -66.364433 -11.024859 -160.46085
13120000000 -12.696616 101.29992 -200 45 -37.894852 -133.32584 -13.236105 -176.99994
13130000000 -13.623236 100.45266 -200 45 -37.886005 159.41754 -18.92527 -174.16989
13140000000 -14.175229 101.10596 -200 45 -38.064632 92.374352 -18.333382 -119.18118
13150000000 -14.852458 101.36829 -200 45 -38.17046 26.67185 -12.997237 -118.7926
13160000000 -15.672731 104.54909 -200 45 -38.374454 -38.784084 -10.702461 -134.04305
13170000000 -16.105618 114.25964 -200 45 -38.181736 -103.31971 -10.332294 -151.23628
13180000000 -15.063184 123.25243 -200 45 -38.125233 -169.45509 -11.707184 -165.7406
13190000000 -13.467691 123.96693 -200 45 -37.774323 124.66727 -14.782892 -167.10664
13200000000 -12.3564 119.01592 -200 45 -37.654079 55.726933 -15.526525 -142.78983
13210000000 -11.851675 111.48254 -200 45 -37.824841 -12.243841 -12.32215 -138.6738
13220000000 -12.033623 104.71007 -200 45 -38.289574 -79.195114 -10.759562 -152.73351
13230000000 -12.611233 100.17162 -200 45 -38.147152 -143.79268 -11.130468 -169.49828
13240000000 -13.178081 98.537445 -200 45 -38.491756 151.01587 -13.488114 176.07414
13250000000 -13.828407 96.717293 -200 45 -38.335667 86.736649 -19.024424 179.46498
13260000000 -14.727939 96.887115 -200 45 -37.918812 21.157835 -18.469473 -124.97533
13270000000 -15.897983 100.82861 -200 45 -37.923454 -45.983578 -12.83676 -125.94738
13280000000 -16.566313 113.79056 -200 45 -37.768368 -113.22919 -10.632118 -143.24878
13290000000 -15.011783 126.86434 -200 45 -37.801537 -179.5076 -10.610515 -160.71568
13300000000 -12.851636 125.96376 -200 45 -37.554085 113.98614 -12.257415 -172.10567
13310000000 -11.786108 118.61252 -200 45 -37.677933 46.662273 -14.512374 -168.19905
13320000000 -11.61235 111.36622 -200 45 -37.704445 -19.526009 -14.143823 -153.51265
13330000000 -11.821849 106.55242 -200 45 -37.710201 -86.643372 -11.936012 -153.87048
13340000000 -12.175971 103.35712 -200 45 -37.607811 -151.19391 -10.825912 -167.17831
13350000000 -12.467412 101.1497 -200 45 -37.444302 142.02756 -11.533349 175.70105
13360000000 -12.986745 98.205505 -200 45 -37.259121 74.103378 -14.714946 163.81778
13370000000 -14.074865 95.85424 -200 45 -37.415619 7.1929517 -19.317387 -174.12251
13380000000 -15.852603 102.67572 -200 45 -37.334873 -60.729645 -16.032097 -142.45839
13390000000 -15.578899 119.56909 -200 45 -37.560837 -125.40804 -12.484077 -147.09035
13400000000 -13.594527 125.14543 -200 45 -37.478447 166.09256 -10.94193 -161.22855
13410000000 -12.192513 120.89692 -200 45 -37.523418 100.23795 -11.166518 -176.28758
13420000000 -11.679254 114.95544 -200 45 -37.578705 35.395298 -13.015135 175.87021
13430000000 -11.640775 109.65526 -200 45 -37.33683 -31.583511 -14.640888 -174.59804
13440000000 -11.865815 106.18946 -200 45 -37.194485 -100.37158 -13.200542 -164.89835
13450000000 -11.998245 103.61617 -200 45 -37.504314 -167.66681 -11.497562 -171.1254
13460000000 -12.229623 99.672279 -200 45 -37.741039 125.29752 -11.049237 176.31219
13470000000 -13.020867 95.341072 -200 45 -37.811928 61.938251 -11.953791 163.08746
13480000000 -14.496516 95.172462 -200 45 -37.707733 -3.8639414 -14.641835 154.81746
13490000000 -15.699986 104.67233 -200 45 -37.525829 -70.982018 -18.58293 172.24083
13500000000 -15.171077 116.22306 -200 45 -37.580917 -138.23503 -16.026815 -157.77638
13510000000 -13.790401 120.18621 -200 45 -37.60743 154.71581 -12.794228 -161.95024
13520000000 -12.749731 117.33334 -200 45 -37.74234 88.357025 -11.703327 -173.2823
13530000000 -12.395123 112.97542 -200 45 -37.932018 22.14249 -11.78072 176.78134
13540000000 -12.459129 110.36523 -200 45 -37.895947 -43.775452 -12.733539 169.77161
13550000000 -12.365593 109.01147 -200 45 -38.009804 -110.73276 -14.032351 171.72682
13560000000 -12.173261 106.2804 -200 45 -38.064117 -175.64267 -13.638505 -179.53471
13570000000 -12.342717 101.57763 -200 45 -38.046688 118.9379 -12.207004 178.03773
13580000000 -13.082212 98.474358 -200 45 -37.94173 53.478989 -11.892267 168.19438
13590000000 -14.178201 99.620468 -200 45 -38.025204 -13.657969 -12.737646 159.06999
13600000000 -14.831414 107.11951 -200 45 -37.934143 -78.963837 -14.624867 154.50761
13610000000 -14.255678 115.04105 -200 45 -37.875282 -144.29767 -17.078056 164.58006
13620000000 -13.199927 116.10864 -200 45 -37.540913 149.07921 -16.295784 -173.24808
13630000000 -12.709002 113.71824 -200 45 -37.48859 81.125343 -13.511004 -170.39902
13640000000 -12.563842 113.009 -200 45 -37.431789 13.876939 -12.026247 -179.66063
13650000000 -12.209216 112.79282 -200 45 -37.657928 -52.46648 -11.903576 170.44591
13660000000 -11.747308 111.14761 -200 45 -37.761772 -118.31087 -12.467776 164.29494
13670000000 -11.434886 107.03048 -200 45 -37.662971 174.55028 -13.28467 162.92471
13680000000 -11.563301 101.98235 -200 45 -37.850689 109.17187 -13.51519 166.91872
13690000000 -12.222593 98.651833 -200 45 -37.789467 43.695808 -12.684029 167.61411
13700000000 -12.989552 99.616364 -200 45 -37.573589 -21.702736 -12.098141 160.25842
13710000000 -13.322266 103.93298 -200 45 -37.397003 -89.837463 -12.805117 150.42799
13720000000 -13.044594 106.30949 -200 45 -37.310814 -156.98135 -14.661832 146.80441
13730000000 -12.846445 106.43406 -200 45 -37.355667 134.63834 -16.661041 156.02864
13740000000 -12.865847 107.3065 -200 45 -37.523449 68.167618 -16.147703 175.00621
13750000000 -12.632086 109.67622 -200 45 -37.468086 1.8558871 -13.589674 178.96983
13760000000 -11.979275 110.81346 -200 45 -37.522861 -65.225815 -12.066566 170.97795
13770000000 -11.194305 107.93868 -200 45 -37.71257 -131.96867 -11.855648 161.48483
13780000000 -10.869117 101.90646 -200 45 -37.785347 161.90198 -12.500504 155.19644
13790000000 -11.177197 96.153328 -200 45 -37.62112 96.832619 -13.213426 155.05246
13800000000 -11.797668 93.478188 -200 45 -37.638752 29.56805 -13.103505 156.91397
13810000000 -12.27586 93.610199 -200 45 -37.683414 -37.964466 -12.696313 154.8163
13820000000 -12.505999 93.769493 -200 45 -37.832245 -104.2766 -12.626083 148.58511
13830000000 -12.792486 93.155128 -200 45 -37.851955 -170.48534 -13.440807 141.00388
13840000000 -13.346181 93.944511 -200 45 -38.064663 125.3017 -15.496057 139.59238
13850000000 -13.761706 99.568336 -200 45 -37.712254 57.391819 -17.170012 154.65714
13860000000 -12.983224 106.08282 -200 45 -37.809635 -10.442588 -15.699968 169.6076
13870000000 -11.728056 105.59253 -200 45 -38.243717 -76.3125 -13.85465 169.2952
13880000000 -10.968881 100.04966 -200 45 -38.285385 -141.79588 -12.922456 163.71227
13890000000 -10.843609 93.698212 -200 45 -38.174381 152.89041 -12.753203 157.3445
13900000000 -11.191306 88.819168 -200 45 -38.44487 85.541206 -13.141937 153.53691
13910000000 -11.599007 86.859787 -200 45 -38.371407 21.4744 -13.3406 153.81717
13920000000 -11.798913 85.571121 -200 45 -38.478958 -44.96817 -13.016663 152.68297
13930000000 -12.094497 82.351372 -200 45 -38.246635 -111.14311 -12.874777 147.58531
13940000000 -13.061995 80.447655 -200 45 -38.207378 -176.65289 -13.406237 141.69037
13950000000 -14.186035 86.080452 -200 45 -38.050827 114.6245 -14.642545 138.89595
13960000000 -14.017315 96.477486 -200 45 -38.309193 47.640854 -16.014585 142.81032
13970000000 -12.678937 101.56953 -200 45 -38.305153 -18.006592 -16.569815 152.14143
13980000000 -11.38077 99.325317 -200 45 -38.50531 -85.559319 -15.886737 160.56587
13990000000 -10.688091 93.297165 -200 45 -38.903061 -150.84097 -14.686953 162.51495
14000000000 -10.663183 87.453979 -200 45 -38.949387 145.47867 -13.874813 159.7168
14010000000 -10.879604 83.767517 -200 45 -38.799561 80.658905 -13.519577 156.95491
14020000000 -11.028063 81.03537 -200 45 -38.675091 13.748135 -13.041008 154.55896
14030000000 -11.282719 77.325638 -200 45 -38.844055 -52.663452 -12.648927 148.85588
14040000000 -11.942533 73.957161 -200 45 -38.633236 -116.62605 -12.949103 142.35052
14050000000 -13.076161 73.847191 -200 45 -38.285648 176.54001 -13.67132 138.54283
14060000000 -14.085368 81.059448 -200 45 -38.505009 107.80212 -14.454465 136.98883
14070000000 -13.684794 91.852081 -200 45 -38.528496 42.700981 -15.218359 138.10516
14080000000 -12.169189 96.077255 -200 45 -38.465923 -22.496666 -15.589044 141.70642
14090000000 -10.850889 92.332718 -200 45 -38.378616 -90.516693 -15.676959 144.0656
14100000000 -10.272907 85.705078 -200 45 -38.57695 -156.27344 -15.981158 146.51399
14110000000 -10.318624 79.497879 -200 45 -38.563465 138.11835 -15.917435 153.67293
14120000000 -10.586216 75.781563 -200 45 -38.389957 70.751144 -14.63975 158.75604
14130000000 -10.737761 73.046768 -200 45 -38.738998 4.3511348 -13.19686 155.65599
14140000000 -10.928396 69.109894 -200 45 -38.786091 -60.746159 -12.414505 147.536
14150000000 -11.57968 64.684296 -200 45 -38.691925 -125.86304 -12.404829 138.10516
14160000000 -12.878223 63.801945 -200 45 -38.612854 168.70964 -13.215374 129.44809
14170000000 -13.992144 71.993042 -200 45 -38.547523 102.20345 -14.779002 126.8327
14180000000 -13.344781 83.499382 -200 45 -38.334183 35.357578 -15.786648 132.94273
14190000000 -11.613099 85.127716 -200 45 -38.330547 -32.139748 -15.512373 137.96068
14200000000 -10.582266 78.999313 -200 45 -38.372242 -99.266457 -15.272289 135.81926
14210000000 -10.441916 72.38031 -200 45 -38.911388 -164.40456 -16.096968 132.82745
14220000000 -10.637202 68.57238 -200 45 -38.741478 131.17149 -17.27894 138.7773
14230000000 -10.700992 66.32634 -200 45 -38.372101 65.953583 -17.098686 151.35365
14240000000 -10.564334 62.7887 -200 45 -38.139729 -2.8963885 -15.22368 158.64116
14250000000 -10.791412 57.163368 -200 45 -38.511978 -71.124825 -13.156737 153.54681
14260000000 -11.655764 51.774845 -200 45 -38.628906 -135.15335 -12.261891 141.16972
14270000000 -13.172384 52.766594 -200 45 -38.896107 159.94485 -12.78521 128.65524
14280000000 -13.837101 62.629974 -200 45 -38.517239 94.199356 -14.302467 122.24677
14290000000 -12.847735 69.639862 -200 45 -38.629848 28.050621 -15.765774 123.64217
14300000000 -11.794524 68.364372 -200 45 -38.335617 -37.854607 -16.521212 129.36385
14310000000 -11.332698 64.584579 -200 45 -38.196579 -104.88946 -16.029951 134.66058
14320000000 -11.216133 61.482441 -200 45 -38.350178 -172.68063 -15.437602 130.02814
14330000000 -11.125921 59.407722 -200 45 -38.466385 120.93757 -16.549372 122.77217
14340000000 -10.873672 56.879887 -200 45 -38.546913 55.649086 -18.962582 129.14018
14350000000 -10.745388 51.793022 -200 45 -38.502113 -10.738951 -18.591015 150.97177
14360000000 -11.154978 46.15799 -200 45 -38.588963 -78.028366 -15.940285 156.49092
14370000000 -12.090122 43.096603 -200 45 -38.642105 -142.87825 -14.015268 150.2876
14380000000 -13.028392 44.942287 -200 45 -38.708023 151.7262 -13.061807 138.67633
14390000000 -13.442764 50.239891 -200 45 -38.645409 86.01812 -13.277898 124.7929
14400000000 -13.08275 54.768497 -200 45 -38.592014 19.727701 -14.866668 114.46256
14410000000 -12.470477 55.880154 -200 45 -38.44426 -45.706059 -16.982904 116.0156
14420000000 -12.000633 54.259281 -200 45 -38.33226 -113.36591 -17.489086 125.20724
14430000000 -11.812251 52.810966 -200 45 -38.545715 -179.97324 -17.030615 127.91193
14440000000 -11.438688 51.916908 -200 45 -38.610134 115.8111 -16.975397 125.34694
14450000000 -10.957258 48.532974 -200 45 -38.204967 49.935196 -17.789289 120.50857
14460000000 -10.794353 43.059082 -200 45 -38.338017 -18.570063 -20.029104 122.60818
14470000000 -11.071024 37.733315 -200 45 -38.356945 -83.109398 -20.704887 146.91356
14480000000 -11.681327 33.790455 -200 45 -38.046654 -149.04027 -17.34091 157.95117
14490000000 -12.60395 32.538891 -200 45 -37.994915 142.26573 -14.703909 149.75632
14500000000 -13.256373 36.779613 -200 45 -38.012325 75.6987 -13.562396 135.02745
14510000000 -13.008574 40.79781 -200 45 -38.274708 9.517396 -13.896762 119.94673
14520000000 -12.619579 40.339813 -200 45 -38.20755 -55.794918 -15.400436 108.53447
14530000000 -12.743384 40.068268 -200 45 -38.086319 -122.35358 -17.890068 103.67673
14540000000 -12.497559 43.332047 -200 45 -37.941532 169.86224 -20.259022 115.94311
14550000000 -11.549674 43.322887 -200 45 -38.030174 101.93356 -18.971699 128.07568
14560000000 -10.81947 38.278618 -200 45 -38.331932 34.57378 -17.947933 120.60345
14570000000 -10.594035 31.137133 -200 45 -38.576851 -31.23147 -19.151821 110.50089
14580000000 -10.962881 24.225113 -200 45 -38.926437 -95.946953 -22.110481 113.25223
14590000000 -11.891081 19.565109 -200 45 -38.610104 -158.68726 -23.258312 143.67293
14600000000 -12.869304 20.686876 -200 45 -38.151417 133.64661 -19.090345 160.94374
14610000000 -13.045816 23.592535 -200 45 -38.266026 66.425247 -15.505859 150.76318
14620000000 -13.190388 21.874472 -200 45 -38.280918 0.087369837 -14.109912 130.79115
14630000000 -14.11156 23.10083 -200 45 -38.223835 -66.750092 -14.641286 109.66728
14640000000 -14.410686 32.230015 -200 45 -38.260242 -134.62112 -16.823324 93.00016
14650000000 -13.047728 38.174423 -200 45 -38.435333 159.41071 -20.498865 89.470299
14660000000 -11.766528 34.68539 -200 45 -38.650463 92.791069 -22.834463 109.77641
14670000000 -11.10054 27.741514 -200 45 -38.694122 27.34621 -20.912231 122.62927
14680000000 -11.099433 20.142218 -200 45 -38.855736 -38.98003 -19.286953 113.86329
14690000000 -11.608863 13.888289 -200 45 -38.757065 -103.67234 -20.27775 94.867371
14700000000 -12.426568 10.803648 -200 45 -38.752953 -169.59877 -26.926889 81.011314
14710000000 -13.02527 10.421143 -200 45 -38.587124 123.1096 -27.789894 -179.1559
14720000000 -13.459446 8.2917938 -200 45 -38.968098 54.559696 -19.367537 168.80981
14730000000 -14.593383 7.5439687 -200 45 -39.499348 -8.8319683 -16.374411 145.44838
14740000000 -15.75487 14.547504 -200 45 -39.380138 -70.974228 -15.432323 122.00039
14750000000 -15.423919 26.644756 -200 45 -38.970745 -137.27657 -16.013081 98.339119
14760000000 -13.897579 31.036568 -200 45 -38.689316 156.52415 -18.721943 76.398506
14770000000 -12.440406 27.827978 -200 45 -38.524708 89.971504 -25.163631 71.667229
14780000000 -11.7083 19.563658 -200 45 -38.760059 22.569248 -25.886665 124.84431
14790000000 -11.787609 11.308387 -200 45 -38.531288 -44.309769 -21.441181 118.00855
14800000000 -12.385468 5.2649946 -200 45 -38.650932 -111.55624 -21.407431 93.678246
14810000000 -13.16498 2.293637 -200 45 -39.088226 -176.84872 -24.969641 67.77787
14820000000 -13.736111 0.74876195 -200 45 -38.964886 118.71156 -39.981934 31.620399
14830000000 -14.4588 -1.6956037 -200 45 -38.734463 52.290321 -26.254181 -159.77396
14840000000 -15.828914 -1.69288 -200 45 -38.798019 -12.809648 -19.427858 169.07915
14850000000 -17.237619 7.8692455 -200 45 -38.774456 -78.150795 -16.79365 137.42784
14860000000 -16.616161 23.751139 -200 45 -38.377018 -145.35289 -16.660084 106.52699
14870000000 -14.372535 27.940727 -200 45 -38.27565 146.27017 -18.683002 79.797234
14880000000 -12.74914 21.263453 -200 45 -38.601646 78.86953 -22.698662 60.500786
14890000000 -12.214265 11.349312 -200 45 -38.938457 12.28776 -29.578588 58.394012
14900000000 -12.539204 3.1734889 -200 45 -39.136002 -51.454426 -30.885281 110.21683
14910000000 -13.179422 -1.5558716 -200 45 -38.994045 -113.5751 -26.137838 103.62328
14920000000 -13.651335 -3.4574902 -200 45 -38.736706 -178.45306 -25.68211 70.183098
14930000000 -13.914176 -7.4687972 -200 45 -38.09811 115.21124 -29.76025 12.072848
14940000000 -14.783904 -13.018983 -200 45 -37.605984 47.017391 -29.711611 -104.43826
14950000000 -16.663574 -14.867341 -200 45 -37.689522 -24.32008 -23.86813 -163.78867
14960000000 -18.601898 -1.4420835 -200 45 -38.060257 -92.949043 -21.102762 162.02519
14970000000 -17.220793 15.874347 -200 45 -38.455658 -159.48807 -19.889019 132.10765
14980000000 -14.96463 15.949964 -200 45 -38.875366 138.13898 -20.175882 100.8515
14990000000 -13.780543 7.729569 -200 45 -38.655674 74.033569 -22.155684 67.601563
15000000000 -13.632358 -1.6079327 -200 45 -38.336285 7.5066786 -26.506189 34.568581
15010000000 -14.212355 -7.8264971 -200 45 -38.075096 -58.818081 -34.564404 18.69894
15020000000 -14.782305 -9.8564634 -200 45 -37.989216 -127.17079 -37.870716 45.607574
15030000000 -14.811489 -11.674806 -200 45 -38.059227 165.20999 -36.733772 13.608004
15040000000 -15.020276 -17.845028 -200 45 -38.304546 97.85704 -34.377304 -43.507168
15050000000 -16.099125 -24.898174 -200 45 -38.764133 33.398499 -29.649698 -82.098412
15060000000 -18.333866 -24.987656 -200 45 -38.506981 -30.192001 -25.383562 -114.21573
15070000000 -19.635595 -9.9577551 -200 45 -38.163921 -96.695946 -22.473366 -148.5941
15080000000 -18.227808 1.6139137 -200 45 -38.050411 -162.33276 -21.79999 174.89351
15090000000 -16.649611 0.033594035 -200 45 -37.768543 128.80182 -23.265156 139.62683
15100000000 -15.968272 -6.3832908 -200 45 -37.837784 60.121464 -25.708061 108.36353
15110000000 -16.104706 -12.626428 -200 45 -38.156914 -6.0037689 -27.991201 71.159889
15120000000 -16.530815 -14.434586 -200 45 -38.328308 -71.35704 -29.762226 12.46302
15130000000 -16.323515 -15.24051 -200 45 -38.182171 -138.04984 -29.434027 -50.974926
15140000000 -15.987827 -20.345684 -200 45 -38.286163 155.36127 -29.277779 -88.506081
15150000000 -16.220186 -28.323122 -200 45 -38.333675 90.219147 -29.754673 -94.45285
15160000000 -17.353804 -35.989372 -200 45 -38.018135 24.097467 -26.911383 -87.616402
15170000000 -19.103441 -37.019733 -200 45 -37.973923 -45.131947 -23.354521 -99.669456
15180000000 -20.444689 -28.734911 -200 45 -38.107574 -111.80476 -21.508003 -118.80981
15190000000 -19.922226 -19.035967 -200 45 -38.450287 -178.17455 -20.641207 -139.09702
15200000000 -18.821709 -19.696047 -200 45 -38.341194 115.62639 -20.647346 -163.3259
15210000000 -18.685621 -24.94121 -200 45 -38.444901 49.062378 -22.36488 166.83385
15220000000 -19.139359 -26.078756 -200 45 -38.538654 -17.506004 -27.617649 128.87535
15230000000 -18.969978 -23.287632 -200 45 -38.617882 -82.998772 -37.016834 17.624954
15240000000 -18.080055 -24.407164 -200 45 -38.490772 -150.00111 -28.241808 -63.403561
15250000000 -17.06082 -32.391991 -200 45 -38.534424 142.5789 -24.873476 -87.684227
15260000000 -17.139261 -46.469044 -200 45 -38.904221 75.113937 -23.528198 -100.29567
15270000000 -18.612106 -59.520557 -200 45 -39.243279 10.073812 -23.143192 -106.26756
15280000000 -21.2973 -63.536011 -200 45 -39.337158 -53.977016 -22.343679 -104.62227
15290000000 -23.183897 -54.281246 -200 45 -39.227192 -118.66709 -20.187778 -107.4249
15300000000 -23.162222 -46.719227 -200 45 -39.076923 174.65375 -18.287605 -121.33281
15310000000 -23.653341 -47.19109 -200 45 -38.991432 108.01518 -17.879719 -140.71521
15320000000 -24.786192 -39.305668 -200 45 -38.921001 41.365059 -19.328121 -159.2341
15330000000 -23.964575 -23.415543 -200 45 -38.88913 -25.729687 -22.704206 -168.92953
