!Keysight Technologies,P9374A,MY57211810,A.19.30.04
!Date: Friday, May 02, 2025 09:01:33
!Correction: S11(Off) 
!S21(Off) 
!S12(Off) 
!S22(Off) 
!S2P File: Measurements: S11, S21, S12, S22:
# Hz S  dB   R 50
13000000000 -11.869356 111.90467 -200 45 -28.368645 -7.4719744 -12.880998 -176.28729
13010000000 -12.750583 106.65203 -200 45 -28.069672 -74.430717 -18.782703 -175.74652
13020000000 -14.00488 104.57749 -200 45 -28.007719 -142.96875 -19.239378 -119.14141
13030000000 -15.045625 107.88603 -200 45 -28.280569 149.45125 -13.696075 -114.76949
13040000000 -15.668803 112.98669 -200 45 -28.447315 83.990219 -11.168614 -129.04538
13050000000 -15.72358 120.35942 -200 45 -28.573713 18.060459 -10.669307 -146.51276
13060000000 -15.0534 126.8784 -200 45 -28.438198 -46.539795 -12.148755 -161.24449
13070000000 -13.84307 128.96806 -200 45 -28.09218 -112.7467 -15.415486 -160.62515
13080000000 -12.803146 126.14328 -200 45 -27.953529 177.69298 -15.721177 -135.65858
13090000000 -12.139198 120.86092 -200 45 -28.33865 110.33781 -12.618844 -132.42937
13100000000 -11.905792 114.34676 -200 45 -28.572233 43.827103 -11.078654 -144.80984
13110000000 -12.021749 108.61285 -200 45 -28.738001 -21.016365 -11.204204 -160.54105
13120000000 -12.453792 103.43148 -200 45 -28.689392 -85.143784 -13.237761 -175.19586
13130000000 -13.175253 99.574478 -200 45 -28.355488 -151.45564 -18.398386 -175.23692
13140000000 -14.171218 97.955421 -200 45 -28.277159 140.14618 -18.877626 -119.03574
13150000000 -15.326255 99.883835 -200 45 -28.539173 72.448059 -12.878447 -116.91011
13160000000 -16.070631 107.66906 -200 45 -28.765314 7.2889729 -10.503299 -134.68137
13170000000 -15.738653 117.24005 -200 45 -28.652716 -57.760014 -10.425604 -152.47035
13180000000 -14.585191 121.95461 -200 45 -28.673885 -123.75031 -11.940029 -164.96695
13190000000 -13.443676 121.24944 -200 45 -28.604717 170.16486 -14.520353 -165.33374
13200000000 -12.657635 117.4829 -200 45 -28.537149 103.51949 -15.467943 -145.47266
13210000000 -12.24154 112.47557 -200 45 -28.562984 37.179981 -12.623019 -138.25169
13220000000 -12.09141 107.61681 -200 45 -28.609728 -29.25773 -10.693576 -151.1546
13230000000 -12.16186 101.98355 -200 45 -28.639389 -94.798111 -10.90106 -169.86766
13240000000 -12.745378 96.263268 -200 45 -28.508095 -160.32397 -13.568283 173.92476
13250000000 -13.919093 92.954994 -200 45 -28.376104 133.24709 -19.469637 -177.65926
13260000000 -15.414172 95.616348 -200 45 -28.190334 66.031853 -17.978519 -126.61877
13270000000 -16.335709 106.29823 -200 45 -28.252508 -1.1942043 -13.031866 -127.16083
13280000000 -15.735297 117.31473 -200 45 -28.295824 -67.933907 -10.776041 -142.1554
13290000000 -14.460789 122.32787 -200 45 -28.339762 -133.89703 -10.471606 -159.71693
13300000000 -13.260293 122.48175 -200 45 -28.289356 159.73116 -12.093964 -173.39038
13310000000 -12.304715 119.29084 -200 45 -28.209839 93.003349 -14.896691 -168.78888
13320000000 -11.738539 114.36214 -200 45 -28.235853 26.195126 -14.004806 -151.70979
13330000000 -11.522544 108.62328 -200 45 -28.354181 -40.277905 -11.790528 -155.10284
13340000000 -11.711069 102.84055 -200 45 -28.298079 -106.42093 -10.971034 -168.06178
13350000000 -12.328439 97.602951 -200 45 -28.282379 -172.44402 -11.665627 176.90494
13360000000 -13.502568 95.509239 -200 45 -28.259792 120.90528 -14.417896 165.23048
13370000000 -14.79699 99.302948 -200 45 -28.184793 54.217636 -19.368731 -177.8864
13380000000 -15.289633 108.3235 -200 45 -28.218641 -12.492627 -16.247784 -139.98482
13390000000 -14.798425 116.36765 -200 45 -28.184673 -79.364883 -12.218362 -146.47171
13400000000 -13.840372 120.72156 -200 45 -28.264256 -145.97862 -10.905992 -162.619
13410000000 -12.725236 120.84292 -200 45 -28.190256 147.25328 -11.396389 -176.38985
13420000000 -11.922263 117.46061 -200 45 -28.242682 80.417511 -12.974655 177.60152
13430000000 -11.439783 112.23418 -200 45 -28.387676 13.453768 -14.382293 -176.16931
13440000000 -11.395756 106.21277 -200 45 -28.521862 -52.947266 -13.480766 -165.54121
13450000000 -11.801904 100.52671 -200 45 -28.544596 -118.72456 -11.490511 -169.56783
13460000000 -12.618212 97.314041 -200 45 -28.600042 175.57695 -10.8345 176.19135
13470000000 -13.513749 96.921234 -200 45 -28.501083 109.74948 -12.031517 161.58563
13480000000 -14.405066 99.079399 -200 45 -28.421663 42.840359 -15.000534 156.04985
13490000000 -15.1091 105.07797 -200 45 -28.443363 -24.807419 -17.949841 173.74876
13500000000 -14.992056 112.81798 -200 45 -28.627026 -91.251602 -16.380268 -160.95184
13510000000 -14.179389 118.27766 -200 45 -28.791807 -157.81055 -13.028867 -159.9075
13520000000 -13.132949 118.85412 -200 45 -28.920181 136.63271 -11.408082 -172.29128
13530000000 -12.322952 115.70174 -200 45 -28.874949 72.011391 -11.642195 174.57527
13540000000 -12.077312 110.72938 -200 45 -28.716759 5.851665 -13.130739 169.26859
13550000000 -12.152735 107.15923 -200 45 -28.684925 -61.771652 -13.907355 175.04108
13560000000 -12.377395 104.07349 -200 45 -28.762482 -128.75371 -13.291583 178.40604
13570000000 -12.753186 102.24671 -200 45 -28.989611 164.8967 -12.54361 176.70819
13580000000 -13.113629 101.07665 -200 45 -29.095716 99.847473 -12.01335 170.34586
13590000000 -13.807581 100.98924 -200 45 -29.107126 34.573986 -12.424477 159.56357
13600000000 -14.468588 104.97918 -200 45 -29.07835 -30.553801 -14.58499 152.08946
13610000000 -14.494913 112.08907 -200 45 -28.814045 -96.027977 -17.473408 165.19905
13620000000 -13.686009 116.79815 -200 45 -28.548559 -163.75641 -16.025019 -171.85718
13630000000 -12.721248 116.87723 -200 45 -28.611012 127.92943 -13.383022 -171.89406
13640000000 -12.180152 113.72033 -200 45 -28.847017 60.708595 -12.207233 179.9577
13650000000 -11.974759 111.21774 -200 45 -29.179588 -4.8344965 -11.933712 171.59529
13660000000 -11.873442 109.12826 -200 45 -29.259867 -69.354599 -12.316421 164.60973
13670000000 -11.768407 106.88065 -200 45 -29.11355 -134.25439 -13.296267 161.75813
13680000000 -11.702699 104.11674 -200 45 -28.892244 159.78491 -13.694293 167.07736
13690000000 -11.95047 100.34745 -200 45 -28.776834 92.59584 -12.621944 168.45732
13700000000 -12.620718 98.387917 -200 45 -28.811874 25.762581 -11.965023 159.60815
13710000000 -13.429358 100.97693 -200 45 -28.848331 -41.239845 -12.870609 149.65605
13720000000 -13.471452 106.14699 -200 45 -28.976658 -107.31822 -14.771287 147.5078
13730000000 -13.035784 109.0606 -200 45 -29.013786 -173.15881 -16.476675 156.47902
13740000000 -12.557494 109.29333 -200 45 -28.940283 121.38493 -16.196407 173.93147
13750000000 -12.236539 108.46026 -200 45 -28.839806 54.565407 -13.670726 179.70972
13760000000 -12.004539 108.1503 -200 45 -28.797922 -12.435622 -11.981897 171.24614
13770000000 -11.563259 107.0965 -200 45 -28.820625 -79.222267 -11.86062 160.85823
13780000000 -11.113901 103.59921 -200 45 -28.990963 -145.78474 -12.590541 155.47032
13790000000 -11.038896 98.187645 -200 45 -29.08392 147.69151 -13.117523 155.5071
13800000000 -11.482145 93.553917 -200 45 -29.178425 82.273438 -13.09651 156.07845
13810000000 -12.137359 91.766258 -200 45 -29.226187 17.410192 -12.823565 154.91249
13820000000 -12.685751 92.072868 -200 45 -29.141756 -48.464485 -12.570602 149.72137
13830000000 -13.150768 93.694328 -200 45 -28.96397 -114.36404 -13.2529 140.35263
13840000000 -13.406704 96.763527 -200 45 -28.711842 178.47101 -15.758501 138.00021
13850000000 -13.277958 100.47028 -200 45 -28.845224 110.23493 -17.227022 157.65852
13860000000 -12.783624 103.21023 -200 45 -29.143126 43.257114 -15.306083 168.24928
13870000000 -12.045238 103.96959 -200 45 -29.220964 -21.434423 -14.143292 167.77901
13880000000 -11.239843 101.02762 -200 45 -29.319324 -87.422752 -13.066303 165.45372
13890000000 -10.868778 95.457191 -200 45 -29.335123 -153.50117 -12.471513 158.06377
13900000000 -10.982644 89.871529 -200 45 -29.454603 140.46988 -13.095321 151.40681
13910000000 -11.334458 86.298515 -200 45 -29.404129 75.612068 -13.669649 154.39211
13920000000 -11.786297 83.224625 -200 45 -29.350801 10.169142 -12.840114 154.24266
13930000000 -12.428043 81.827286 -200 45 -29.274714 -56.552391 -12.70052 146.40491
13940000000 -13.232811 82.20842 -200 45 -29.249479 -122.54802 -13.63954 140.89996
13950000000 -14.002771 87.271461 -200 45 -29.177931 170.89116 -14.704679 140.46986
13960000000 -13.828357 96.158455 -200 45 -29.158838 104.17699 -15.788827 142.29477
13970000000 -12.606811 100.38078 -200 45 -29.14427 36.586994 -16.6847 150.91907
13980000000 -11.507177 98.225761 -200 45 -29.452637 -29.912783 -15.956989 161.52753
13990000000 -10.916746 93.717949 -200 45 -29.748718 -95.059982 -14.527594 162.76385
14000000000 -10.707504 88.85231 -200 45 -29.693901 -158.83421 -13.876441 158.86633
14010000000 -10.704895 84.744911 -200 45 -29.517105 136.00737 -13.651937 157.28082
14020000000 -10.817543 80.316185 -200 45 -29.287401 69.161041 -12.990728 155.31007
14030000000 -11.252357 75.948181 -200 45 -29.291258 2.4348383 -12.554104 148.3618
14040000000 -12.125547 73.062477 -200 45 -29.3053 -63.946239 -13.07147 141.64069
14050000000 -13.285048 74.336021 -200 45 -29.32233 -129.83565 -13.72487 139.51498
14060000000 -14.12579 82.899162 -200 45 -29.306494 164.11906 -14.233217 137.01746
14070000000 -13.366057 92.774773 -200 45 -29.193872 97.445099 -15.294455 136.83272
14080000000 -11.946404 93.946571 -200 45 -29.265577 31.019325 -15.729422 142.99417
14090000000 -11.116332 90.500328 -200 45 -29.285519 -34.408379 -15.462798 144.32538
14100000000 -10.593317 86.565147 -200 45 -29.213932 -100.68595 -16.016998 145.62737
14110000000 -10.319663 81.802612 -200 45 -29.172163 -167.16718 -16.051401 154.24199
14120000000 -10.294511 76.685638 -200 45 -29.096123 125.89191 -14.571739 159.08887
14130000000 -10.452436 71.976837 -200 45 -29.256361 59.241047 -13.170127 155.08623
14140000000 -10.924206 66.681358 -200 45 -29.3106 -6.4929819 -12.469609 147.31566
14150000000 -11.951853 63.343483 -200 45 -29.328918 -72.03286 -12.392504 138.57947
14160000000 -13.256636 66.398773 -200 45 -29.237116 -137.34888 -13.125171 129.66896
14170000000 -13.658478 74.992546 -200 45 -29.06286 156.29788 -14.803596 126.11314
14180000000 -12.845214 81.805138 -200 45 -28.94017 89.411911 -15.960396 133.61148
14190000000 -11.750382 81.975342 -200 45 -28.890261 21.363777 -15.375915 138.38792
14200000000 -11.016544 78.885612 -200 45 -29.070782 -45.412575 -15.258127 134.51056
14210000000 -10.578332 74.854507 -200 45 -29.229393 -111.32483 -16.255367 133.14351
14220000000 -10.395741 70.080826 -200 45 -29.245382 -177.5818 -17.15164 140.03168
14230000000 -10.38372 65.841927 -200 45 -29.32074 117.21054 -16.982485 149.95937
14240000000 -10.478441 60.713619 -200 45 -29.231747 51.32288 -15.422231 158.50438
14250000000 -11.037585 55.272381 -200 45 -29.105305 -15.272602 -13.151758 154.76163
14260000000 -12.08128 52.917645 -200 45 -29.041382 -83.049095 -12.089847 141.13695
14270000000 -13.083221 56.014809 -200 45 -29.255695 -150.40866 -12.812582 127.46355
14280000000 -13.335015 62.46941 -200 45 -29.548729 143.87086 -14.525979 122.54346
14290000000 -12.800478 67.095108 -200 45 -29.723686 79.097847 -15.631901 125.06907
14300000000 -12.063892 67.270645 -200 45 -29.603903 14.479622 -16.277416 127.84283
14310000000 -11.560844 65.742546 -200 45 -29.414001 -51.045338 -16.383291 133.57753
14320000000 -11.178728 63.045872 -200 45 -29.17046 -118.16161 -15.519186 132.74608
14330000000 -10.87481 60.183121 -200 45 -29.269131 173.53406 -16.042057 122.97186
14340000000 -10.645346 55.295162 -200 45 -29.491953 106.73592 -19.206657 124.4792
14350000000 -10.904363 49.822739 -200 45 -29.733414 40.604916 -18.932638 155.58891
14360000000 -11.4896 46.474041 -200 45 -29.965393 -24.03886 -15.399689 156.62767
14370000000 -12.13221 45.116653 -200 45 -29.925547 -87.74308 -14.106166 147.22328
14380000000 -12.813502 46.183556 -200 45 -29.664213 -153.06653 -13.43821 139.78783
14390000000 -13.159582 49.219551 -200 45 -29.532898 140.26532 -13.059684 127.05801
14400000000 -13.121763 52.777531 -200 45 -29.44552 73.20192 -14.509857 112.60077
14410000000 -12.783873 55.367821 -200 45 -29.491268 6.3077927 -17.479137 114.51527
14420000000 -12.175916 56.045139 -200 45 -29.682007 -59.818455 -17.452385 128.52179
14430000000 -11.609097 54.636963 -200 45 -29.813807 -124.33578 -16.715843 126.50781
14440000000 -11.097675 51.046646 -200 45 -29.638706 170.42342 -17.255125 123.64704
14450000000 -10.983923 46.138245 -200 45 -29.313824 104.91332 -17.854635 122.73795
14460000000 -11.115877 42.529644 -200 45 -29.075336 36.657425 -19.532385 121.94073
14470000000 -11.233514 39.12323 -200 45 -29.288267 -31.64716 -21.167616 145.93135
14480000000 -11.652136 35.189621 -200 45 -29.582558 -98.31958 -17.197113 160.10226
14490000000 -12.285747 33.853512 -200 45 -29.906912 -162.13484 -14.508138 148.85738
14500000000 -12.887585 34.247093 -200 45 -29.794125 134.20752 -13.760026 134.12517
14510000000 -13.367173 37.471722 -200 45 -29.502735 68.023468 -14.046931 121.22858
14520000000 -13.211497 42.200989 -200 45 -29.264082 1.9435622 -15.138222 109.07468
14530000000 -12.581642 44.376541 -200 45 -29.19968 -64.928947 -17.752674 101.10123
14540000000 -11.862664 43.186974 -200 45 -29.124805 -131.62808 -20.762123 116.43558
14550000000 -11.423894 39.713699 -200 45 -29.014393 160.6779 -18.678976 130.47318
14560000000 -11.20563 36.323944 -200 45 -29.16437 93.336464 -17.635271 118.97262
14570000000 -10.99366 32.444054 -200 45 -29.366402 27.794481 -19.456308 108.2757
14580000000 -11.017895 26.955431 -200 45 -29.447264 -38.433086 -22.520708 117.95911
14590000000 -11.465746 21.864382 -200 45 -29.38953 -103.88329 -22.558676 142.81395
14600000000 -12.318426 18.317495 -200 45 -29.448025 -168.95848 -19.483927 158.36952
14610000000 -13.256442 18.732393 -200 45 -29.270582 125.06813 -15.804395 152.41991
14620000000 -14.052523 22.197496 -200 45 -29.137115 57.605694 -13.902864 132.16788
14630000000 -14.20037 28.739668 -200 45 -29.258043 -8.5925407 -14.318839 108.47599
14640000000 -13.623021 33.819221 -200 45 -29.213024 -75.002708 -17.037931 90.698792
14650000000 -12.729924 34.555058 -200 45 -29.184757 -142.16859 -20.952841 92.787491
14660000000 -12.017156 31.798973 -200 45 -29.347204 151.16026 -22.133709 110.67161
14670000000 -11.591494 27.882875 -200 45 -29.432358 85.597168 -21.119019 119.06768
14680000000 -11.284525 22.801054 -200 45 -29.628748 19.740442 -19.75778 114.91924
14690000000 -11.3578 16.34342 -200 45 -29.437239 -45.243488 -20.144077 97.939064
14700000000 -11.955228 10.51014 -200 45 -29.273945 -110.91113 -25.860416 78.599663
14710000000 -12.789819 7.1127653 -200 45 -29.286543 -178.6644 -28.705576 -174.80995
14720000000 -13.937658 5.2402372 -200 45 -29.430611 114.58375 -19.043959 170.18057
14730000000 -15.192872 9.8395739 -200 45 -29.437214 49.271816 -16.177628 144.50633
14740000000 -15.606831 19.144859 -200 45 -29.428373 -16.11323 -15.49525 121.3259
14750000000 -14.779938 26.889206 -200 45 -29.356606 -82.447754 -16.189066 98.699326
14760000000 -13.601425 27.53536 -200 45 -29.226274 -149.9547 -18.774561 77.773888
14770000000 -12.810413 25.020563 -200 45 -29.403521 143.86549 -24.663179 70.940659
14780000000 -12.14171 20.280119 -200 45 -29.575991 78.178955 -26.687185 123.86198
14790000000 -11.966732 13.830003 -200 45 -29.449301 12.574327 -21.391891 120.60515
14800000000 -12.150291 7.9902501 -200 45 -29.354778 -53.241432 -20.859488 92.742249
14810000000 -12.538291 2.1292305 -200 45 -29.335836 -119.74149 -25.125835 62.633526
14820000000 -13.569742 -3.9299812 -200 45 -29.282055 173.13586 -46.732922 59.881279
14830000000 -15.078995 -4.3873386 -200 45 -29.367159 105.74067 -26.715971 -166.72511
14840000000 -16.506155 1.506238 -200 45 -29.621134 40.174595 -19.910284 170.99762
14850000000 -16.911339 13.263589 -200 45 -29.673773 -24.245207 -16.654556 140.38503
14860000000 -15.772822 22.968512 -200 45 -29.485626 -89.799637 -16.216124 106.33412
14870000000 -14.223827 23.314804 -200 45 -29.279493 -156.41768 -18.64395 74.966423
14880000000 -13.243834 18.390976 -200 45 -29.307417 136.27565 -23.965834 60.287224
14890000000 -12.836241 12.989998 -200 45 -29.480682 69.722946 -28.019392 72.822655
14900000000 -12.584911 7.6038685 -200 45 -29.485218 3.9750032 -30.569101 87.974083
14910000000 -12.569899 0.9368993 -200 45 -29.545202 -61.12822 -28.157803 109.83662
14920000000 -12.998765 -6.4287639 -200 45 -29.429182 -126.67511 -25.253271 83.191765
14930000000 -14.048041 -12.944169 -200 45 -29.266737 166.58627 -27.382 20.511616
14940000000 -15.753699 -14.923864 -200 45 -29.141375 99.957275 -27.215162 -93.397591
14950000000 -17.328192 -8.2493916 -200 45 -29.135254 32.053112 -22.260748 -165.61841
14960000000 -17.568274 4.5190692 -200 45 -29.408453 -34.753742 -21.039223 153.6291
14970000000 -16.346189 11.406135 -200 45 -29.512199 -100.2781 -21.111971 130.4548
14980000000 -15.12622 10.033942 -200 45 -29.506783 -165.89008 -20.481993 107.86001
14990000000 -14.624606 5.5859566 -200 45 -29.581839 128.47298 -21.051685 71.756828
15000000000 -14.316365 2.4449282 -200 45 -29.536327 62.512024 -25.009396 27.7903
15010000000 -13.954765 -1.6561152 -200 45 -29.335499 -3.4799571 -37.069496 -17.620487
15020000000 -13.769094 -8.826108 -200 45 -29.324366 -70.2854 -36.096222 88.668503
15030000000 -14.249545 -17.689301 -200 45 -29.385078 -137.45094 -32.062954 19.960623
15040000000 -15.648762 -24.112593 -200 45 -29.428881 156.10051 -30.967077 -55.878094
15050000000 -17.333632 -23.029158 -200 45 -29.639284 89.635193 -30.13876 -98.133598
15060000000 -18.401377 -15.914935 -200 45 -29.721199 25.040894 -26.76008 -112.89874
15070000000 -18.296755 -8.1095037 -200 45 -29.64822 -40.245377 -22.653095 -143.3644
15080000000 -17.723688 -4.6963611 -200 45 -29.373592 -106.36605 -21.300825 176.85123
15090000000 -17.150051 -5.2608447 -200 45 -29.245863 -173.28745 -22.659952 137.11548
15100000000 -16.978945 -5.9447541 -200 45 -29.343298 119.07525 -26.008781 103.63419
15110000000 -16.4422 -5.9941163 -200 45 -29.447226 52.655098 -29.119223 72.236618
15120000000 -15.681864 -10.230236 -200 45 -29.392458 -12.730891 -30.158545 18.644167
15130000000 -15.473272 -18.567926 -200 45 -29.326843 -80.005539 -28.857649 -46.034988
15140000000 -16.027103 -26.678843 -200 45 -29.450525 -147.51192 -28.574047 -89.395485
15150000000 -17.115957 -31.651455 -200 45 -29.680172 146.43147 -30.266701 -97.477219
15160000000 -18.261246 -31.310349 -200 45 -29.782837 80.811378 -27.058281 -84.53125
15170000000 -18.756529 -28.738445 -200 45 -29.914694 15.407256 -23.147093 -99.164474
15180000000 -19.032719 -28.331642 -200 45 -29.816927 -50.126389 -21.420561 -120.80161
15190000000 -19.398441 -28.197456 -200 45 -29.708546 -116.16271 -20.91507 -139.76874
15200000000 -19.991138 -26.192888 -200 45 -29.718674 177.04279 -20.74581 -161.19547
15210000000 -20.028339 -19.715109 -200 45 -29.744394 110.45784 -22.017872 169.13817
15220000000 -18.708368 -16.627398 -200 45 -29.876783 43.832134 -26.854124 125.78045
15230000000 -17.713488 -22.467449 -200 45 -29.967745 -21.490088 -34.259289 12.262238
15240000000 -17.307068 -31.008844 -200 45 -29.994036 -87.464363 -27.345663 -68.572884
15250000000 -17.677258 -40.099873 -200 45 -29.942211 -153.91652 -25.472578 -92.271622
15260000000 -18.492777 -46.520515 -200 45 -30.086714 139.8752 -24.166473 -96.328377
15270000000 -19.339865 -50.593285 -200 45 -30.109333 75.014977 -22.4601 -104.12892
15280000000 -20.097719 -54.729034 -200 45 -30.073824 9.4107504 -22.161484 -109.33439
15290000000 -21.266905 -59.113834 -200 45 -29.847559 -57.413574 -20.697691 -107.2283
15300000000 -23.405849 -62.423038 -200 45 -30.046951 -124.44083 -18.239111 -118.4344
15310000000 -26.193987 -48.264572 -200 45 -30.140083 170.09653 -17.539871 -140.29074
15320000000 -25.20554 -23.434952 -200 45 -29.950813 105.63898 -19.261822 -161.26732
15330000000 -22.171167 -19.062601 -200 45 -29.868395 39.163036 -23.193897 -170.91353
