!Keysight Technologies,P9374A,MY57211810,A.19.30.04
!Date: Friday, May 02, 2025 09:03:06
!Correction: S11(Off) 
!S21(Off) 
!S12(Off) 
!S22(Off) 
!S2P File: Measurements: S11, S21, S12, S22:
# Hz S  dB   R 50
13000000000 -12.086359 108.66933 -200 45 -47.659916 159.10332 -13.012419 -175.40231
13010000000 -13.266905 107.00182 -200 45 -47.508694 92.85302 -18.465572 -175.55833
13020000000 -14.182658 107.80417 -200 45 -47.575214 26.981712 -19.507969 -119.10589
13030000000 -14.624216 109.36793 -200 45 -47.441727 -44.725639 -13.578894 -113.79457
13040000000 -15.356338 112.16924 -200 45 -47.624893 -112.09715 -11.084199 -129.71994
13050000000 -15.685771 117.31823 -200 45 -47.9104 176.49654 -10.776155 -147.15567
13060000000 -15.41819 125.97244 -200 45 -49.331322 110.7141 -12.251075 -160.67105
13070000000 -14.085734 130.62695 -200 45 -49.57954 46.986305 -15.230041 -159.98625
13080000000 -12.717026 127.84521 -200 45 -49.587906 -10.11249 -15.728913 -136.90121
13090000000 -11.859755 121.49486 -200 45 -49.586388 -79.915031 -12.739968 -131.95821
13100000000 -11.663334 112.85131 -200 45 -48.921387 -144.08302 -11.006464 -144.0489
13110000000 -12.097388 106.52853 -200 45 -49.067425 147.0425 -11.071906 -160.96994
13120000000 -12.863854 102.78327 -200 45 -49.402885 81.443153 -13.326369 -176.67703
13130000000 -13.362138 102.02654 -200 45 -49.860889 16.084455 -18.813391 -173.3537
13140000000 -13.95279 99.969734 -200 45 -49.513294 -47.900677 -18.445251 -120.08495
13150000000 -14.831535 99.485107 -200 45 -49.282879 -112.62965 -13.037968 -118.35085
13160000000 -16.035183 103.70442 -200 45 -49.008717 179.86757 -10.644412 -133.95482
13170000000 -16.261889 116.33968 -200 45 -48.635109 113.74992 -10.291468 -151.63255
13180000000 -14.807965 124.68987 -200 45 -48.296886 43.287525 -11.792647 -166.06961
13190000000 -13.190078 122.99783 -200 45 -48.135754 -27.019638 -14.852695 -165.72995
13200000000 -12.379875 116.8226 -200 45 -49.25631 -98.94841 -15.365555 -143.50653
13210000000 -12.160837 110.9753 -200 45 -50.157959 -167.26817 -12.489137 -139.24692
13220000000 -12.238912 106.35656 -200 45 -51.344475 130.61353 -10.805603 -151.91228
13230000000 -12.40138 102.56407 -200 45 -52.37859 78.104134 -10.996522 -169.37706
13240000000 -12.767619 97.475761 -200 45 -50.207848 16.527752 -13.445037 174.79892
13250000000 -13.773778 93.98941 -200 45 -49.453491 -49.865665 -19.304878 179.84554
13260000000 -15.275434 94.87394 -200 45 -48.984856 -121.87242 -18.189762 -124.61195
13270000000 -16.276024 105.16502 -200 45 -49.193195 167.31573 -12.81444 -126.61608
13280000000 -15.978252 117.04245 -200 45 -49.44878 98.8302 -10.723834 -143.32384
13290000000 -14.41779 122.89474 -200 45 -50.842861 33.666676 -10.62933 -160.13705
13300000000 -13.237284 122.65656 -200 45 -50.314472 -24.93001 -12.15925 -172.14969
13310000000 -12.277989 119.41362 -200 45 -50.162533 -90.281204 -14.630865 -169.026
13320000000 -11.693373 114.35789 -200 45 -49.566963 -160.15634 -14.18243 -152.48624
13330000000 -11.470258 108.48096 -200 45 -49.401752 134.50385 -11.830193 -154.27307
13340000000 -11.709082 102.06658 -200 45 -49.966381 62.838924 -10.860946 -167.88641
13350000000 -12.444005 97.806824 -200 45 -49.533325 5.8136287 -11.617162 176.00526
13360000000 -13.522485 95.862213 -200 45 -49.596325 -67.075943 -14.629707 164.95691
13370000000 -14.675944 99.680084 -200 45 -49.629963 -137.90642 -19.272688 -175.70961
13380000000 -15.352027 107.82568 -200 45 -50.657951 158.86285 -16.180887 -141.16026
13390000000 -14.735971 116.5923 -200 45 -51.059643 98.863892 -12.353908 -146.64565
13400000000 -13.859474 120.65749 -200 45 -50.023357 38.40905 -10.902955 -162.03246
13410000000 -12.687166 120.37772 -200 45 -49.069389 -29.647352 -11.282945 -176.53168
13420000000 -12.006617 117.19008 -200 45 -48.496487 -103.91772 -13.059925 176.66478
13430000000 -11.507402 112.79566 -200 45 -49.219727 -172.85025 -14.526663 -174.76515
13440000000 -11.330136 106.82623 -200 45 -49.417709 121.59301 -13.250372 -165.44547
13450000000 -11.700287 100.68876 -200 45 -49.421474 49.870274 -11.516663 -170.87524
13460000000 -12.459992 96.0504 -200 45 -49.981041 -9.0131931 -10.993767 176.54565
13470000000 -13.723766 95.586777 -200 45 -50.070953 -71.754768 -11.951287 162.76064
13480000000 -14.730208 100.03587 -200 45 -48.973038 -142.88129 -14.801928 154.77025
13490000000 -14.909145 107.99339 -200 45 -48.909157 148.37743 -18.44828 173.19913
13500000000 -14.621831 112.2226 -200 45 -49.408596 73.479324 -16.09201 -159.17746
13510000000 -14.057432 115.73655 -200 45 -50.598736 7.9001007 -12.921518 -161.40079
13520000000 -13.482299 117.38195 -200 45 -51.598846 -53.015118 -11.576365 -172.71635
13530000000 -12.680389 117.11074 -200 45 -51.32198 -115.86942 -11.687828 175.58684
13540000000 -11.994265 113.55608 -200 45 -51.69347 -173.24919 -12.915913 169.47804
13550000000 -11.770844 107.85564 -200 45 -50.432983 117.95525 -13.992164 173.68672
13560000000 -12.031473 101.84415 -200 45 -51.002598 53.459476 -13.45683 179.65742
13570000000 -12.944242 99.093132 -200 45 -49.618652 -10.957542 -12.374162 177.349
13580000000 -13.697327 100.77128 -200 45 -49.645367 -80.9739 -11.944766 168.91257
13590000000 -14.05794 105.08765 -200 45 -49.742302 -153.88312 -12.611179 159.11917
13600000000 -13.954391 107.60904 -200 45 -50.161205 144.4285 -14.610065 153.7683
13610000000 -13.935703 109.90379 -200 45 -50.422253 81.803947 -17.155766 164.9836
13620000000 -13.825238 112.71689 -200 45 -49.739735 16.294134 -16.193903 -173.20029
13630000000 -13.310894 116.2359 -200 45 -49.106884 -53.781086 -13.534815 -170.75005
13640000000 -12.440167 117.09962 -200 45 -49.460999 -124.97203 -12.033278 -179.29318
13650000000 -11.621917 113.66585 -200 45 -49.71978 168.37135 -11.816755 170.61349
13660000000 -11.410311 108.34219 -200 45 -50.679218 102.34953 -12.518386 163.65404
13670000000 -11.668254 103.64128 -200 45 -50.148209 41.006126 -13.419695 163.3597
13680000000 -12.122423 102.13072 -200 45 -49.863846 -24.426533 -13.419283 167.37939
13690000000 -12.445228 102.11092 -200 45 -49.846123 -93.653496 -12.622981 166.77768
13700000000 -12.535503 102.41681 -200 45 -49.915371 -155.70229 -12.199102 159.83029
13710000000 -12.7498 101.94286 -200 45 -49.542377 131.69119 -12.809898 151.12863
13720000000 -13.124634 102.0141 -200 45 -49.533115 64.003899 -14.526657 146.49307
13730000000 -13.499 105.64601 -200 45 -50.46537 -2.9914231 -16.703773 155.44293
13740000000 -13.175904 111.13858 -200 45 -50.849785 -68.883354 -16.165995 175.54765
13750000000 -12.200089 112.39785 -200 45 -50.774258 -131.05383 -13.564352 179.36382
13760000000 -11.492967 109.47237 -200 45 -50.798023 166.6207 -12.039826 170.79967
13770000000 -11.193502 104.48897 -200 45 -50.014874 98.657532 -11.888495 161.07086
13780000000 -11.317191 100.52017 -200 45 -49.715122 34.031635 -12.520729 155.51488
13790000000 -11.54698 98.25708 -200 45 -49.873154 -37.868237 -13.172176 154.97905
13800000000 -11.643914 96.588898 -200 45 -49.380302 -101.54116 -13.173841 156.74797
13810000000 -11.792929 93.921753 -200 45 -49.550171 -173.60243 -12.638408 155.19449
13820000000 -12.20308 90.754662 -200 45 -50.35078 119.38198 -12.550965 148.1788
13830000000 -13.196048 89.828239 -200 45 -50.855602 58.46553 -13.553432 140.8699
13840000000 -13.997147 96.24926 -200 45 -50.419155 -7.7342911 -15.543375 140.46695
13850000000 -13.508524 103.77865 -200 45 -49.660717 -74.705391 -17.032597 154.09381
13860000000 -12.440914 105.5251 -200 45 -50.063271 -141.47815 -15.826953 168.96786
13870000000 -11.632233 102.7677 -200 45 -50.77792 147.47957 -13.880979 169.97375
13880000000 -11.262976 98.412422 -200 45 -51.029896 85.581985 -12.826962 163.63576
13890000000 -11.189856 94.570305 -200 45 -50.68573 21.739342 -12.766592 156.7782
13900000000 -11.221912 91.308403 -200 45 -50.99604 -50.142185 -13.192891 153.88081
13910000000 -11.246626 88.037697 -200 45 -51.180607 -109.70394 -13.291764 153.93889
13920000000 -11.494001 83.753418 -200 45 -51.331619 179.8882 -13.017759 152.35995
13930000000 -12.232216 79.814362 -200 45 -51.165859 117.15329 -12.907447 147.74797
13940000000 -13.519175 80.609123 -200 45 -52.00246 53.548584 -13.382484 141.82118
13950000000 -14.252153 89.066589 -200 45 -51.69664 -8.4812078 -14.634649 138.52577
13960000000 -13.663999 97.567696 -200 45 -50.918571 -78.268417 -16.044077 142.59882
13970000000 -12.387077 100.10425 -200 45 -50.816494 -142.8447 -16.560053 152.54456
13980000000 -11.497019 97.022095 -200 45 -50.509197 150.45374 -15.780207 160.53137
13990000000 -11.030995 93.190552 -200 45 -50.189651 83.447563 -14.718024 162.00974
14000000000 -10.825346 89.392677 -200 45 -50.262386 12.550854 -13.980772 160.11557
14010000000 -10.668824 85.350212 -200 45 -50.268627 -54.426781 -13.455922 157.41212
14020000000 -10.714738 80.612846 -200 45 -50.871857 -125.74888 -12.981083 153.94835
14030000000 -11.171912 75.161537 -200 45 -51.905468 166.41434 -12.732677 148.46468
14040000000 -12.232144 72.055214 -200 45 -52.59901 103.26296 -12.98821 142.77193
14050000000 -13.519615 75.326332 -200 45 -53.333611 46.870102 -13.58211 138.68703
14060000000 -13.964104 84.470337 -200 45 -52.705502 -10.750311 -14.41327 136.58319
14070000000 -13.14269 91.961464 -200 45 -51.585705 -78.410637 -15.280688 138.36702
14080000000 -12.032475 92.743797 -200 45 -51.513378 -144.46884 -15.565734 142.16783
14090000000 -11.210953 90.570335 -200 45 -51.662998 148.47845 -15.662428 143.70993
14100000000 -10.655519 86.954407 -200 45 -51.606403 82.931061 -16.044666 146.58182
14110000000 -10.317134 82.370438 -200 45 -51.036076 17.667265 -15.883493 153.84782
14120000000 -10.177012 77.123764 -200 45 -50.519554 -46.660797 -14.675768 158.40483
14130000000 -10.356153 70.914955 -200 45 -50.252926 -115.95609 -13.247369 155.92816
14140000000 -11.056511 65.815468 -200 45 -49.960403 176.75188 -12.331308 147.71831
14150000000 -12.189093 64.05439 -200 45 -50.233871 107.87133 -12.344316 137.37387
14160000000 -13.189079 67.951584 -200 45 -50.256535 41.576263 -13.334794 129.46193
14170000000 -13.383356 75.25428 -200 45 -50.597866 -24.169344 -14.787748 127.97128
14180000000 -12.756935 80.053986 -200 45 -50.127098 -92.143021 -15.69666 132.69362
14190000000 -11.90747 81.280533 -200 45 -49.929291 -157.38095 -15.595302 136.89735
14200000000 -11.148476 79.160797 -200 45 -50.356144 133.06277 -15.379867 136.06927
14210000000 -10.627109 75.653755 -200 45 -50.466038 62.975132 -15.938502 133.54248
14220000000 -10.295427 70.886269 -200 45 -51.041649 -1.8329875 -17.247393 137.3959
14230000000 -10.213859 65.303749 -200 45 -51.06068 -66.185326 -17.271889 152.11835
14240000000 -10.517325 59.386745 -200 45 -51.070957 -132.07788 -15.039131 158.92255
14250000000 -11.221387 55.200085 -200 45 -52.308342 162.9678 -13.157096 152.69542
14260000000 -12.182987 54.117405 -200 45 -51.671005 103.17174 -12.390085 141.43973
14270000000 -12.933447 56.955399 -200 45 -51.540634 39.523586 -12.741228 129.47275
14280000000 -13.152679 61.954357 -200 45 -50.972004 -24.95957 -14.170378 121.27345
14290000000 -12.809898 65.689575 -200 45 -50.566795 -90.392403 -15.96958 122.97864
14300000000 -12.2151 66.856339 -200 45 -49.550213 -158.8616 -16.471552 131.34891
14310000000 -11.695699 66.231911 -200 45 -49.45459 128.821 -15.805247 133.79158
14320000000 -11.148316 64.113899 -200 45 -50.472008 60.661705 -15.611743 128.72055
14330000000 -10.71956 60.199142 -200 45 -50.666382 -5.4986582 -16.716871 124.10431
14340000000 -10.657013 54.666939 -200 45 -51.156502 -65.308006 -18.666311 130.0004
14350000000 -10.916314 49.840401 -200 45 -50.431099 -130.41698 -18.714962 148.94966
14360000000 -11.50702 46.173115 -200 45 -49.804092 158.76529 -16.112295 157.50027
14370000000 -12.240682 45.101467 -200 45 -50.899628 90.984535 -13.878421 150.66086
14380000000 -12.811139 47.198692 -200 45 -50.307384 26.428034 -12.987578 137.75969
14390000000 -13.027284 49.179344 -200 45 -50.385696 -43.382843 -13.389024 124.721
14400000000 -13.043303 52.038269 -200 45 -51.453449 -107.50439 -14.862426 115.64084
14410000000 -12.894046 54.606312 -200 45 -51.481915 -167.66626 -16.854448 115.62392
14420000000 -12.285545 56.552456 -200 45 -50.902039 128.79169 -17.704985 124.78471
14430000000 -11.583678 55.303402 -200 45 -50.364624 64.679459 -17.056246 128.92657
14440000000 -11.06235 51.161758 -200 45 -50.540813 -4.5624547 -16.791365 124.56618
14450000000 -10.909627 46.507408 -200 45 -50.241043 -69.1968 -17.858213 119.05047
14460000000 -11.020808 41.699734 -200 45 -49.904648 -136.85066 -20.137266 123.89443
14470000000 -11.378268 38.264107 -200 45 -49.869545 157.49004 -20.419609 147.39685
14480000000 -11.774132 36.226372 -200 45 -49.597145 88.200905 -17.33906 157.29753
14490000000 -12.213869 34.240913 -200 45 -49.736561 26.669252 -14.79478 149.88229
14500000000 -12.827668 34.345844 -200 45 -49.582134 -43.619873 -13.623842 135.77518
14510000000 -13.291695 36.939064 -200 45 -49.143539 -107.19061 -13.802642 119.99825
14520000000 -13.288015 41.715645 -200 45 -48.747425 -178.19896 -15.380287 106.90257
14530000000 -12.659162 44.525814 -200 45 -49.485119 112.65404 -18.110302 103.78522
14540000000 -11.869939 43.484383 -200 45 -49.562275 50.105995 -19.926296 117.15784
14550000000 -11.4013 40.134747 -200 45 -49.477016 -21.468605 -18.873158 126.48758
14560000000 -11.102586 36.185257 -200 45 -49.963081 -89.448074 -18.074917 120.8654
14570000000 -11.009524 31.790089 -200 45 -50.649677 -148.94371 -19.11237 111.96576
14580000000 -11.103982 27.158047 -200 45 -50.659931 146.29369 -22.052929 112.72262
14590000000 -11.437738 22.19438 -200 45 -50.93103 86.142738 -23.72238 145.17087
14600000000 -12.252769 18.248623 -200 45 -49.331238 24.302633 -18.951847 161.61792
14610000000 -13.279255 18.19253 -200 45 -49.160107 -46.407066 -15.54073 149.20058
14620000000 -14.147259 22.336084 -200 45 -48.555546 -115.07298 -14.255503 130.25305
14630000000 -14.171561 29.643703 -200 45 -48.89257 175.58316 -14.616923 110.73642
14640000000 -13.504403 33.402538 -200 45 -48.974922 110.05428 -16.594439 93.75412
14650000000 -12.748212 33.783497 -200 45 -49.011005 45.280632 -20.466045 87.181725
14660000000 -12.126826 31.922012 -200 45 -48.82679 -18.565681 -23.371365 112.48817
14670000000 -11.572928 28.158943 -200 45 -47.752899 -83.211189 -20.482269 124.48356
14680000000 -11.332668 22.96933 -200 45 -47.157986 -155.23375 -19.218962 110.80236
14690000000 -11.304151 16.974104 -200 45 -47.097401 130.73503 -20.854067 93.060478
14700000000 -11.809884 10.284299 -200 45 -48.174015 57.751286 -27.02574 86.866776
14710000000 -12.778596 5.6159115 -200 45 -49.227848 -6.0117679 -28.045296 171.5784
14720000000 -14.221207 5.0352688 -200 45 -49.668308 -69.341187 -19.699354 169.13725
14730000000 -15.297926 11.75697 -200 45 -50.115479 -130.98639 -16.267992 147.1525
14740000000 -15.323494 20.175121 -200 45 -50.053474 168.86522 -15.193283 122.13435
14750000000 -14.610893 25.076496 -200 45 -49.429543 103.72775 -16.069468 97.002625
14760000000 -13.777217 26.702196 -200 45 -48.470795 37.700417 -19.140551 76.156563
14770000000 -12.922217 25.08419 -200 45 -48.605629 -30.856695 -25.033278 75.272827
14780000000 -12.300961 21.127142 -200 45 -48.142448 -95.911461 -25.975779 119.25143
14790000000 -11.868586 15.486252 -200 45 -48.15527 -164.80365 -21.87883 118.04433
14800000000 -11.862328 7.7060928 -200 45 -48.288456 129.07028 -21.17894 95.768867
14810000000 -12.473222 0.25892612 -200 45 -48.121723 66.242287 -24.335392 67.63205
14820000000 -13.781093 -4.9260168 -200 45 -47.552494 -0.54189003 -39.776081 17.169294
14830000000 -15.35518 -4.1083889 -200 45 -47.169697 -72.609482 -25.528431 -159.9908
14840000000 -16.620617 4.7615356 -200 45 -47.623837 -140.72198 -19.3179 167.51489
14850000000 -16.342024 14.030176 -200 45 -47.754044 152.70355 -17.006721 137.19466
14860000000 -15.558023 20.116003 -200 45 -47.687584 85.849709 -16.789047 107.76036
14870000000 -14.540962 20.830393 -200 45 -47.883408 19.518167 -18.469624 79.937096
14880000000 -13.655787 19.783316 -200 45 -47.752987 -48.472427 -22.467739 57.230785
14890000000 -12.785839 15.677496 -200 45 -48.233612 -115.05607 -30.233969 59.058372
14900000000 -12.258801 8.45578 -200 45 -48.509068 178.45717 -29.687275 113.31828
14910000000 -12.310196 -0.37895578 -200 45 -48.343788 116.53204 -25.818981 100.26955
14920000000 -13.025491 -8.849247 -200 45 -48.401985 50.118626 -26.296204 67.59803
14930000000 -14.393284 -14.180928 -200 45 -48.261379 -14.337643 -31.165482 12.941632
14940000000 -16.196547 -12.806369 -200 45 -47.915775 -79.458054 -30.678516 -101.96447
14950000000 -16.997612 -4.387394 -200 45 -47.750626 -146.54846 -24.01885 -159.27141
14960000000 -16.982677 3.746104 -200 45 -47.637035 148.09442 -20.850834 163.31798
14970000000 -16.249798 7.0628853 -200 45 -47.141743 83.552628 -19.724781 130.29993
14980000000 -15.728961 8.6453905 -200 45 -46.512344 15.452415 -20.254009 98.515694
14990000000 -14.976341 8.3710852 -200 45 -46.042545 -54.148605 -22.489944 67.839294
15000000000 -14.091885 5.3270521 -200 45 -45.948933 -127.0117 -26.657837 39.998413
15010000000 -13.525031 -2.0026336 -200 45 -46.26807 162.04562 -33.42622 20.163738
15020000000 -13.604091 -10.937589 -200 45 -47.060303 93.512787 -39.992508 33.291447
15030000000 -14.448107 -19.573982 -200 45 -47.673351 28.676424 -38.069477 19.033344
15040000000 -16.011929 -23.847055 -200 45 -47.882832 -36.357258 -33.753963 -34.720284
15050000000 -17.495892 -20.697447 -200 45 -47.830517 -98.630074 -28.793005 -80.391678
15060000000 -18.10273 -13.824684 -200 45 -47.802605 -165.73621 -25.086536 -117.51711
15070000000 -17.849731 -9.4823866 -200 45 -47.541584 127.96941 -22.924829 -151.5256
15080000000 -17.758232 -7.9324913 -200 45 -47.727802 61.694401 -22.302811 176.27538
15090000000 -17.638292 -5.9475155 -200 45 -47.238522 -6.6131797 -22.977203 143.82706
15100000000 -17.170719 -2.9334643 -200 45 -47.338352 -74.180862 -24.873152 108.58846
15110000000 -16.128418 -4.4330158 -200 45 -48.349174 -142.32298 -27.893856 64.871613
15120000000 -15.440351 -10.936426 -200 45 -48.136372 156.85023 -30.38196 4.9707346
15130000000 -15.391717 -20.082424 -200 45 -47.625614 93.483826 -30.199259 -52.685387
15140000000 -16.176004 -27.955389 -200 45 -46.992821 22.981668 -29.950098 -82.880997
15150000000 -17.401516 -31.166052 -200 45 -46.949966 -46.173374 -29.057905 -89.108459
15160000000 -18.380527 -29.221243 -200 45 -47.448105 -115.96239 -26.654778 -92.481674
15170000000 -18.476395 -27.396162 -200 45 -47.81522 -178.79381 -24.0149 -100.51448
15180000000 -18.633844 -29.487381 -200 45 -47.472382 114.20445 -21.607382 -116.24017
15190000000 -19.515141 -32.040119 -200 45 -47.529064 47.824947 -20.254148 -138.91589
15200000000 -20.585268 -24.922592 -200 45 -47.039391 -16.538343 -20.514795 -165.30202
15210000000 -19.942152 -16.654823 -200 45 -46.736828 -86.861893 -22.791594 166.34804
15220000000 -18.433966 -15.85707 -200 45 -46.580357 -158.98557 -27.990295 132.51862
15230000000 -17.420639 -23.807959 -200 45 -47.007809 130.61064 -37.290482 32.777889
15240000000 -17.410408 -33.335297 -200 45 -47.785511 62.146252 -28.068842 -57.335873
15250000000 -18.043945 -40.188629 -200 45 -48.68251 -5.9862871 -24.282486 -88.332695
15260000000 -18.616493 -44.486984 -200 45 -49.198227 -68.088654 -23.718941 -104.4634
15270000000 -19.117167 -48.328823 -200 45 -49.488529 -130.32921 -23.648903 -104.71558
15280000000 -19.666004 -55.38073 -200 45 -49.451149 168.93925 -22.014256 -102.94159
15290000000 -21.299374 -63.23428 -200 45 -48.990883 98.21331 -19.958731 -109.04287
15300000000 -24.289808 -63.284981 -200 45 -48.850685 33.40131 -18.420347 -121.816
15310000000 -26.24543 -41.682285 -200 45 -49.685947 -35.247494 -17.993292 -139.63438
15320000000 -24.321587 -23.300148 -200 45 -49.603092 -100.58955 -19.262339 -158.5457
15330000000 -21.986013 -23.588329 -200 45 -50.200153 -162.19493 -22.614023 -170.70543
