!Keysight Technologies,P9374A,MY57211810,A.19.30.04
!Date: Friday, May 02, 2025 08:59:54
!Correction: S11(Off) 
!S21(Off) 
!S12(Off) 
!S22(Off) 
!S2P File: Measurements: S11, S21, S12, S22:
# Hz S  dB   R 50
13000000000 -11.448669 111.472 -200 45 -45.643909 -159.60612 -13.044605 -175.09718
13010000000 -12.64688 104.93418 -200 45 -46.251972 135.35156 -18.518658 -175.9856
13020000000 -14.045615 102.56473 -200 45 -45.034084 78.909523 -19.481153 -117.92349
13030000000 -15.526067 106.90629 -200 45 -44.304626 4.8876696 -13.443175 -114.0625
13040000000 -15.949097 116.62439 -200 45 -45.098732 -66.733582 -11.073165 -130.27194
13050000000 -15.2637 123.05276 -200 45 -45.442165 -135.02342 -10.807319 -147.00281
13060000000 -14.422828 124.68692 -200 45 -45.768089 163.35789 -12.222932 -160.95428
13070000000 -14.060794 124.40196 -200 45 -45.644569 98.845062 -15.434805 -160.08463
13080000000 -13.433629 126.09351 -200 45 -45.19944 31.158951 -15.61742 -135.64488
13090000000 -12.326475 124.71719 -200 45 -44.603691 -34.164375 -12.649992 -132.36797
13100000000 -11.453775 116.21867 -200 45 -44.622108 -110.09182 -11.021344 -144.7117
13110000000 -11.703699 107.49603 -200 45 -45.894878 -178.29166 -11.17404 -160.9431
13120000000 -12.301766 100.73389 -200 45 -46.311363 118.99757 -13.256645 -176.32118
13130000000 -13.591511 97.433807 -200 45 -46.750225 53.275108 -19.0474 -174.463
13140000000 -14.705176 99.843826 -200 45 -47.053333 -4.7728844 -18.14006 -118.38282
13150000000 -15.092409 104.46642 -200 45 -45.671925 -68.318329 -12.964257 -119.15092
13160000000 -15.463117 107.21504 -200 45 -45.298386 -139.73189 -10.656299 -134.11987
13170000000 -15.566521 112.90474 -200 45 -46.086796 147.21971 -10.314603 -151.79845
13180000000 -15.131961 120.56407 -200 45 -46.535492 84.647659 -11.770455 -166.20758
13190000000 -13.759151 122.71875 -200 45 -46.543556 21.0382 -15.007552 -166.24789
13200000000 -12.637578 120.68266 -200 45 -46.296501 -40.800194 -15.245478 -141.8616
13210000000 -11.796076 113.72945 -200 45 -45.295856 -109.9253 -12.351221 -140.2912
13220000000 -11.636463 105.41506 -200 45 -45.051563 176.45494 -10.927865 -152.25856
13230000000 -12.408333 97.942551 -200 45 -46.727509 105.68377 -10.996916 -168.63647
13240000000 -13.384382 96.28521 -200 45 -47.934677 50.390587 -13.332206 173.7809
13250000000 -14.174339 97.570091 -200 45 -46.124664 -6.2401452 -19.9547 179.92398
13260000000 -14.802073 98.249634 -200 45 -45.372917 -78.140747 -17.614464 -124.23233
13270000000 -15.695796 103.49221 -200 45 -45.127716 -150.18703 -12.901643 -128.42538
13280000000 -16.168911 113.04307 -200 45 -45.462017 138.11429 -10.817501 -142.30327
13290000000 -14.867361 123.07452 -200 45 -46.23761 73.193367 -10.40122 -160.16446
13300000000 -13.449919 124.99982 -200 45 -47.159061 10.28423 -12.305576 -174.12598
13310000000 -12.024574 121.53027 -200 45 -46.30389 -46.358852 -14.821096 -166.18648
13320000000 -11.273039 113.86387 -200 45 -44.934494 -117.5564 -13.864484 -153.62114
13330000000 -11.482834 105.62192 -200 45 -44.969543 169.66919 -12.057963 -154.74002
13340000000 -12.048717 101.61687 -200 45 -45.551773 96.262054 -10.790646 -166.84691
13350000000 -12.75423 99.241669 -200 45 -47.559261 32.783279 -11.46697 175.03052
13360000000 -13.320788 98.781342 -200 45 -46.876305 -20.322643 -14.937855 163.99551
13370000000 -14.192975 99.210648 -200 45 -45.462189 -84.967148 -19.144747 -172.36348
13380000000 -15.220268 104.06358 -200 45 -44.669262 -160.22678 -16.044857 -143.26619
13390000000 -15.34169 115.79904 -200 45 -45.264229 127.60919 -12.530702 -146.04788
13400000000 -13.974759 123.82334 -200 45 -46.139275 60.810028 -10.7108 -161.33047
13410000000 -12.431723 121.72034 -200 45 -46.803299 0.19530496 -11.243546 -178.13814
13420000000 -11.741581 116.91006 -200 45 -45.573425 -63.232307 -13.374906 177.1525
13430000000 -11.367132 110.77998 -200 45 -45.496574 -133.61035 -14.193251 -173.6664
13440000000 -11.548315 105.43835 -200 45 -45.131817 156.5569 -13.371034 -167.45493
13450000000 -11.996656 100.63042 -200 45 -46.16423 85.973083 -11.650123 -169.37917
13460000000 -12.718339 99.290977 -200 45 -46.982811 23.370474 -10.700589 176.54314
13470000000 -13.135554 97.889046 -200 45 -46.540359 -38.651855 -12.056812 160.44379
13480000000 -14.158875 96.696487 -200 45 -46.167774 -103.85312 -15.19292 156.95888
13490000000 -15.421184 102.69373 -200 45 -45.799015 -171.25687 -17.857086 173.47897
13500000000 -15.426335 114.96759 -200 45 -46.212772 115.75899 -16.473499 -159.78056
13510000000 -13.86937 120.69384 -200 45 -46.848309 52.987335 -12.778409 -159.72447
13520000000 -12.844274 117.61249 -200 45 -46.679783 -7.8910499 -11.414104 -174.22226
13530000000 -12.394597 114.02924 -200 45 -46.22718 -76.509872 -11.977241 175.02162
13540000000 -12.270826 110.64658 -200 45 -46.102486 -145.71391 -12.801596 171.20563
13550000000 -12.228745 107.98611 -200 45 -46.464165 148.29227 -13.857121 172.06467
13560000000 -12.344134 105.11592 -200 45 -46.161461 82.617821 -13.700809 179.81938
13570000000 -12.557536 102.29832 -200 45 -46.430943 13.564392 -12.23734 178.67255
13580000000 -13.009233 100.16436 -200 45 -46.982365 -50.449345 -11.774461 167.70522
13590000000 -13.955354 99.441437 -200 45 -47.297825 -113.17814 -12.890541 158.37456
13600000000 -14.721642 105.52686 -200 45 -46.14082 179.45383 -14.601335 155.67958
13610000000 -14.578728 114.33877 -200 45 -46.694427 109.73061 -17.097975 163.40767
13620000000 -13.280005 117.80087 -200 45 -46.385162 48.613266 -16.321056 -171.40848
13630000000 -12.531103 114.6924 -200 45 -46.45245 -22.624372 -13.289359 -171.24326
13640000000 -12.395551 112.01746 -200 45 -46.486946 -88.921341 -12.175571 179.72548
13650000000 -12.291619 111.76762 -200 45 -46.469437 -153.69429 -11.868245 171.60649
13660000000 -11.920261 111.40223 -200 45 -46.265545 137.68451 -12.343596 163.42938
13670000000 -11.424525 107.90793 -200 45 -46.345604 68.623466 -13.510388 162.5291
13680000000 -11.492764 102.34306 -200 45 -47.12273 2.4501503 -13.501025 168.38087
13690000000 -12.132956 98.873894 -200 45 -47.040314 -59.701672 -12.501355 166.88658
13700000000 -12.841373 98.787659 -200 45 -47.55164 -125.74552 -12.234779 159.06725
13710000000 -13.525861 102.59321 -200 45 -46.579166 169.61685 -12.902739 151.55965
13720000000 -13.255881 107.5842 -200 45 -46.548172 100.06002 -14.456826 146.77208
13730000000 -12.755654 108.22446 -200 45 -46.892342 34.166916 -16.825102 155.05023
13740000000 -12.542961 107.23606 -200 45 -47.058826 -30.601597 -16.182144 177.14577
13750000000 -12.571376 107.71146 -200 45 -46.75135 -97.101753 -13.342534 178.67368
13760000000 -12.225072 110.06907 -200 45 -46.163425 -165.65561 -12.207465 169.74117
13770000000 -11.360413 108.69394 -200 45 -46.683464 125.6104 -11.950676 162.68425
13780000000 -10.874868 103.4906 -200 45 -47.304287 56.473618 -12.307906 154.79283
13790000000 -10.906407 96.798561 -200 45 -47.79287 -7.2881713 -13.36553 154.24696
13800000000 -11.577018 92.54184 -200 45 -47.669067 -69.39193 -13.132123 158.12529
13810000000 -12.355 91.544106 -200 45 -47.425488 -131.41902 -12.52122 154.2666
13820000000 -12.822285 93.344032 -200 45 -46.661316 160.28041 -12.732726 148.22974
13830000000 -13.076305 95.394218 -200 45 -46.701462 87.95459 -13.467171 141.68347
13840000000 -13.018553 96.509872 -200 45 -48.026081 20.308825 -15.572482 139.3019
13850000000 -13.262443 97.981644 -200 45 -48.279072 -40.746338 -17.181137 155.69984
13860000000 -13.111188 102.28352 -200 45 -47.729019 -107.06765 -15.658751 169.45665
13870000000 -12.185901 105.6161 -200 45 -48.075413 -169.80791 -13.791443 169.01982
13880000000 -11.146969 102.47883 -200 45 -47.32399 123.73277 -12.9739 163.50661
13890000000 -10.624191 95.784683 -200 45 -46.830521 52.449131 -12.710672 157.55704
13900000000 -10.778536 88.446159 -200 45 -47.52536 -23.282568 -13.123246 153.13995
13910000000 -11.518593 84.102943 -200 45 -50.356323 -83.661247 -13.439144 154.25117
13920000000 -12.102611 84.122009 -200 45 -49.316593 -135.13689 -12.862045 153.06439
13930000000 -12.47962 83.083534 -200 45 -48.273533 158.97714 -12.924276 146.42511
13940000000 -13.120915 84.146637 -200 45 -47.650028 91.111641 -13.614408 142.75508
13950000000 -13.560591 86.862381 -200 45 -46.904598 18.873915 -14.368168 139.02298
13960000000 -13.82731 93.205223 -200 45 -47.39217 -56.920422 -16.294346 140.35188
13970000000 -12.998605 99.830124 -200 45 -50.440891 -122.58313 -16.644829 155.93823
13980000000 -11.7101 99.91391 -200 45 -49.407143 -166.45537 -15.362651 158.86682
13990000000 -10.813078 95.654404 -200 45 -46.983799 125.98298 -15.06761 161.34093
14000000000 -10.363082 89.265594 -200 45 -46.612293 46.394787 -13.814068 162.11292
14010000000 -10.504535 82.426697 -200 45 -47.319424 -26.143061 -13.290738 155.91818
14020000000 -11.084764 78.205452 -200 45 -48.934109 -90.298027 -13.246679 153.96318
14030000000 -11.669766 76.910736 -200 45 -49.077236 -151.08473 -12.644035 149.98999
14040000000 -12.179745 75.841034 -200 45 -49.448273 151.22688 -12.81536 141.55577
14050000000 -12.921801 76.513489 -200 45 -47.559895 88.085968 -13.889288 138.11145
14060000000 -13.640088 80.427055 -200 45 -46.82449 13.090969 -14.293213 138.18954
14070000000 -13.696492 89.822456 -200 45 -47.83036 -58.894379 -15.271577 136.60481
14080000000 -12.379001 95.063622 -200 45 -49.278858 -120.48641 -15.731894 143.91058
14090000000 -11.077024 93.08625 -200 45 -48.382557 178.14029 -15.32463 143.30219
14100000000 -10.323888 87.186386 -200 45 -47.908268 111.01958 -16.365604 145.69049
14110000000 -10.095488 80.947006 -200 45 -48.047421 44.179855 -15.668079 156.15726
14120000000 -10.293906 74.918198 -200 45 -47.696236 -25.083946 -14.587803 156.68465
14130000000 -10.746227 70.866081 -200 45 -48.62664 -96.476181 -13.408545 156.27348
14140000000 -11.233586 68.572952 -200 45 -49.674641 -150.87498 -12.226925 148.24219
14150000000 -11.802148 66.186028 -200 45 -47.940247 147.62372 -12.330436 136.69366
14160000000 -12.719538 65.772926 -200 45 -47.149387 75.452766 -13.424245 129.6794
14170000000 -13.651006 71.99408 -200 45 -47.017563 4.9951072 -14.684817 127.81617
14180000000 -13.19934 81.190681 -200 45 -47.665417 -66.857986 -15.824896 132.34282
14190000000 -11.86702 83.777657 -200 45 -48.550808 -131.60379 -15.570503 138.09132
14200000000 -10.871037 79.924042 -200 45 -49.533592 166.88 -15.265954 135.69193
14210000000 -10.407274 74.208855 -200 45 -48.362087 110.23939 -16.030504 133.12494
14220000000 -10.411803 69.296295 -200 45 -46.967182 40.356407 -17.266064 138.52264
14230000000 -10.453608 65.228714 -200 45 -47.49802 -36.439835 -17.141495 151.87016
14240000000 -10.637125 60.581997 -200 45 -48.174438 -102.22943 -15.111967 158.82953
14250000000 -11.167332 56.940022 -200 45 -48.607765 -166.93759 -13.113073 153.17126
14260000000 -11.783337 54.255596 -200 45 -48.953014 130.84616 -12.296806 140.7675
14270000000 -12.869048 54.151409 -200 45 -48.406555 65.306862 -12.859775 128.94087
14280000000 -13.546367 60.770817 -200 45 -47.984837 -1.0079509 -14.157868 122.52267
14290000000 -13.091271 67.629135 -200 45 -48.080032 -69.996025 -15.84597 121.59446
14300000000 -12.027189 69.549553 -200 45 -48.35368 -133.8177 -16.693628 131.77533
14310000000 -11.23732 65.756538 -200 45 -47.866577 158.40369 -15.668097 134.14891
14320000000 -11.107855 61.481308 -200 45 -48.445877 87.120338 -15.67214 128.68912
14330000000 -11.068222 59.004982 -200 45 -49.329075 26.837257 -16.634773 124.29954
14340000000 -10.956147 56.276184 -200 45 -48.492596 -34.056072 -18.840818 129.33005
14350000000 -10.802092 52.197739 -200 45 -47.86396 -100.75259 -18.546886 150.25479
14360000000 -11.123044 46.526764 -200 45 -47.024021 -175.1926 -16.126165 156.40399
14370000000 -12.0165 42.785957 -200 45 -48.903088 111.94551 -13.914153 151.53802
14380000000 -13.124115 44.970814 -200 45 -50.1367 56.617195 -12.822047 137.20363
14390000000 -13.440386 50.249294 -200 45 -49.481785 0.95165974 -13.551344 123.54369
14400000000 -13.040768 55.305454 -200 45 -47.605297 -66.350212 -14.944206 117.25085
14410000000 -12.43966 55.433601 -200 45 -47.100178 -143.40147 -16.53937 115.08373
14420000000 -12.047219 54.264542 -200 45 -48.031799 145.26476 -18.032551 123.18114
14430000000 -11.815142 52.891979 -200 45 -49.349712 80.435425 -17.103849 131.53586
14440000000 -11.447024 51.727386 -200 45 -49.797955 20.975237 -16.490677 123.60953
14450000000 -11.026911 48.692944 -200 45 -48.943443 -35.234043 -18.193636 117.81378
14460000000 -10.748256 43.793888 -200 45 -47.54377 -106.98897 -20.038811 126.92356
14470000000 -10.913459 37.300552 -200 45 -47.505905 179.17885 -20.240713 144.69658
14480000000 -11.802856 32.773808 -200 45 -48.510273 108.96568 -17.55192 158.69632
14490000000 -12.732781 33.161465 -200 45 -49.606804 50.013027 -14.509427 150.49988
14500000000 -13.187017 37.606617 -200 45 -48.430187 -11.599591 -13.604266 133.76338
14510000000 -12.887017 40.243969 -200 45 -48.10498 -81.3983 -14.060372 120.68211
14520000000 -12.749851 40.101967 -200 45 -48.450027 -148.42279 -15.182913 107.58353
14530000000 -12.719061 40.742905 -200 45 -48.446991 143.90736 -18.298346 101.84355
14540000000 -12.415369 42.94672 -200 45 -48.737793 77.431625 -19.906919 119.72646
14550000000 -11.60023 42.920528 -200 45 -48.607368 15.21253 -18.729584 124.25513
14560000000 -10.879306 38.484684 -200 45 -48.24733 -53.635101 -18.489271 121.37515
14570000000 -10.586428 31.35219 -200 45 -48.262241 -118.72928 -18.772598 114.20621
14580000000 -11.004042 24.620661 -200 45 -48.482944 174.01556 -21.949951 107.71989
14590000000 -11.735718 20.261484 -200 45 -48.261795 108.86716 -24.096148 152.21121
14600000000 -12.694724 19.561823 -200 45 -48.496574 39.774376 -18.379549 160.32527
14610000000 -13.240223 21.397755 -200 45 -48.785084 -24.281252 -15.702379 147.70171
14620000000 -13.639239 23.456743 -200 45 -48.668911 -88.006607 -14.357188 131.10828
14630000000 -13.877506 26.627193 -200 45 -48.680706 -157.06477 -14.452488 110.65038
14640000000 -13.852773 30.678396 -200 45 -49.024166 136.41986 -16.637943 91.735367
14650000000 -13.223437 34.923687 -200 45 -48.91621 76.729103 -20.961458 89.031906
14660000000 -12.118817 35.026176 -200 45 -48.168808 8.9916716 -22.744864 112.74944
14670000000 -11.174324 29.412428 -200 45 -48.138695 -61.337673 -20.667826 122.59179
14680000000 -11.009421 21.170439 -200 45 -49.093353 -130.29028 -19.476969 112.39535
14690000000 -11.379576 14.439567 -200 45 -49.187187 172.85985 -20.617905 94.651825
14700000000 -12.244594 9.346385 -200 45 -48.474216 102.65602 -26.885145 81.897362
14710000000 -13.132935 8.3136721 -200 45 -48.702579 34.608902 -27.80949 178.63216
14720000000 -13.908212 8.4383259 -200 45 -48.244427 -31.384094 -19.30341 167.99226
14730000000 -14.622925 10.523895 -200 45 -49.214493 -105.48454 -16.277422 145.45551
14740000000 -15.405889 15.540214 -200 45 -50.580105 -163.27373 -15.325701 122.14071
14750000000 -15.176864 24.737022 -200 45 -49.737545 141.45372 -15.938404 97.614769
14760000000 -14.059741 29.551029 -200 45 -48.368839 72.251091 -19.136127 74.185646
14770000000 -12.677171 27.979906 -200 45 -48.070198 2.2628584 -25.635935 78.459534
14780000000 -11.788852 20.44775 -200 45 -48.293419 -64.871887 -25.533667 117.55556
14790000000 -11.79884 12.365957 -200 45 -48.684811 -132.92366 -22.151983 118.25343
14800000000 -12.204506 5.9794488 -200 45 -48.967033 162.85098 -21.102728 96.716347
14810000000 -12.924881 1.4746273 -200 45 -48.958973 100.46377 -24.225113 65.738274
14820000000 -13.82365 -1.3837348 -200 45 -48.097702 37.005516 -41.519608 7.5443702
14830000000 -14.750872 -1.9760884 -200 45 -47.771202 -38.319073 -25.378006 -161.89738
14840000000 -16.101349 -0.19926623 -200 45 -48.688602 -104.83846 -19.291607 167.21387
14850000000 -16.977913 11.075037 -200 45 -49.383755 -164.16113 -16.916264 136.89833
14860000000 -16.135712 22.215475 -200 45 -48.265774 132.59032 -16.784376 106.80549
14870000000 -14.447655 25.241919 -200 45 -47.838291 61.139736 -18.576738 80.594238
14880000000 -13.07056 20.366152 -200 45 -48.289368 -5.8344731 -22.286104 56.042286
14890000000 -12.514381 13.146082 -200 45 -48.825581 -71.262466 -31.194368 56.522655
14900000000 -12.424201 5.4861679 -200 45 -48.740158 -131.64616 -28.830454 114.5963
14910000000 -12.823558 -0.70327985 -200 45 -47.336258 163.25905 -25.757565 95.648529
14920000000 -13.34029 -5.7970271 -200 45 -46.987141 90.044662 -27.00555 68.055183
14930000000 -14.115926 -10.141456 -200 45 -47.629158 19.557526 -31.531042 20.863773
14940000000 -15.342266 -13.814301 -200 45 -48.074142 -46.72398 -30.836792 -94.461304
14950000000 -16.978201 -10.115327 -200 45 -48.689312 -115.07381 -23.303127 -157.63782
14960000000 -17.817886 0.87652546 -200 45 -49.261974 -165.21101 -20.483742 159.71974
14970000000 -16.856123 12.67594 -200 45 -47.225555 127.59668 -20.108965 128.48015
14980000000 -15.142972 12.86991 -200 45 -46.38488 54.273914 -20.393845 100.68683
14990000000 -14.276325 7.3178368 -200 45 -47.06179 -20.762211 -22.074425 67.645538
15000000000 -13.891685 0.56965065 -200 45 -48.254555 -84.68502 -26.803989 35.462212
15010000000 -14.087692 -5.0073452 -200 45 -47.758545 -148.50156 -33.887924 25.53359
15020000000 -14.320356 -9.6446037 -200 45 -47.987984 143.57362 -38.929367 26.167269
15030000000 -14.580805 -13.982072 -200 45 -48.321114 80.182518 -39.529404 20.906734
15040000000 -15.190854 -20.435383 -200 45 -47.946156 19.509945 -33.839962 -30.73093
15050000000 -16.570194 -25.055515 -200 45 -47.202084 -47.139065 -28.425512 -80.267052
15060000000 -18.557306 -22.212927 -200 45 -46.844433 -116.98834 -24.92351 -119.49949
15070000000 -19.277134 -7.4820728 -200 45 -47.070709 170.29953 -23.061176 -152.31795
15080000000 -17.853083 0.29549316 -200 45 -47.711102 104.86154 -22.368832 176.39696
15090000000 -16.604757 -2.1584661 -200 45 -47.50666 38.679478 -22.838791 143.1972
15100000000 -16.264877 -8.3996954 -200 45 -47.865074 -27.207182 -24.858019 106.51254
15110000000 -16.562134 -11.038376 -200 45 -47.856529 -93.424881 -28.109804 62.426933
15120000000 -16.453354 -11.13775 -200 45 -47.73407 -158.85063 -31.117556 3.6685808
15130000000 -15.858433 -14.482291 -200 45 -47.852158 135.71126 -30.551327 -45.509426
15140000000 -15.716516 -22.480495 -200 45 -47.192364 67.675781 -28.449415 -81.579979
15150000000 -16.314245 -31.099651 -200 45 -47.798641 -1.3860955 -29.549465 -98.704712
15160000000 -17.767427 -37.946747 -200 45 -47.799103 -68.838631 -27.185259 -86.235771
15170000000 -19.811298 -32.911808 -200 45 -48.331882 -135.90181 -23.324553 -99.815918
15180000000 -19.738274 -23.6684 -200 45 -48.818779 159.59227 -21.554358 -120.07912
15190000000 -19.239681 -22.118395 -200 45 -48.722034 99.55645 -20.74929 -138.50172
15200000000 -18.927856 -24.398533 -200 45 -48.496407 32.762272 -20.32811 -162.94429
15210000000 -19.339266 -25.93618 -200 45 -47.971306 -30.338184 -22.388937 162.87183
15220000000 -19.606379 -23.304848 -200 45 -47.873066 -102.5583 -29.095535 127.40893
15230000000 -18.701166 -19.200294 -200 45 -48.096531 -168.37514 -39.69664 26.002514
15240000000 -17.371357 -25.00588 -200 45 -48.102039 124.8962 -28.279358 -57.497078
15250000000 -16.948044 -35.862598 -200 45 -48.344311 55.396416 -24.318211 -87.160172
15260000000 -17.404882 -49.049328 -200 45 -48.695202 -7.5309725 -23.542126 -102.61448
15270000000 -19.265203 -59.331989 -200 45 -48.930737 -74.300568 -23.408718 -107.49071
15280000000 -21.446999 -59.1553 -200 45 -48.992218 -140.14885 -22.387733 -103.19686
15290000000 -22.675371 -51.471584 -200 45 -49.275349 157.67479 -19.852869 -107.21651
15300000000 -22.648294 -48.806595 -200 45 -48.761395 91.874443 -18.207476 -122.92265
15310000000 -23.557775 -51.929573 -200 45 -48.275097 25.289158 -18.165501 -140.76749
15320000000 -25.451605 -41.177402 -200 45 -48.510483 -46.475517 -19.318535 -157.30083
15330000000 -24.432775 -19.09375 -200 45 -49.059467 -109.87264 -22.356472 -171.5119
