!Keysight Technologies,P9374A,MY57211810,A.19.30.04
!Date: Friday, May 02, 2025 08:59:42
!Correction: S11(Off) 
!S21(Off) 
!S12(Off) 
!S22(Off) 
!S2P File: Measurements: S11, S21, S12, S22:
# Hz S  dB   R 50
13000000000 -12.394958 113.19078 -200 45 -41.533867 -117.88367 -13.006365 -175.17758
13010000000 -12.728762 110.51221 -200 45 -41.826324 177.56435 -18.535408 -176.17126
13020000000 -13.344575 106.5525 -200 45 -41.864361 111.3102 -19.48875 -117.91516
13030000000 -14.503676 102.63754 -200 45 -41.395359 45.949009 -13.441078 -114.01293
13040000000 -16.279642 109.23846 -200 45 -41.66008 -25.1833 -11.058467 -130.3877
13050000000 -16.56982 123.33347 -200 45 -41.750393 -91.756317 -10.830134 -147.06075
13060000000 -14.646852 131.85823 -200 45 -42.274559 -155.54103 -12.222325 -160.77321
13070000000 -13.210138 128.53296 -200 45 -41.719425 140.51981 -15.399879 -160.21021
13080000000 -12.561456 122.20882 -200 45 -41.652519 70.085938 -15.640396 -135.75089
13090000000 -12.549335 118.29269 -200 45 -41.764099 1.972268 -12.660175 -132.2486
13100000000 -12.353765 115.24764 -200 45 -41.828545 -67.687737 -10.996663 -144.66592
13110000000 -12.166761 112.05453 -200 45 -42.788189 -132.65378 -11.167799 -161.13322
13120000000 -12.013999 105.83756 -200 45 -42.668407 166.79323 -13.284545 -176.30035
13130000000 -12.592167 97.678474 -200 45 -42.254269 100.78545 -18.994873 -174.26427
13140000000 -14.225966 93.092842 -200 45 -42.266613 32.23069 -18.148218 -118.62292
13150000000 -16.161884 98.503983 -200 45 -42.245358 -34.612431 -12.990089 -119.11316
13160000000 -16.39645 113.23691 -200 45 -42.26479 -101.28986 -10.653324 -133.98247
13170000000 -15.049883 119.92901 -200 45 -42.793598 -169.31943 -10.28545 -151.90945
13180000000 -14.049923 119.10015 -200 45 -42.767216 128.1796 -11.811359 -166.33812
13190000000 -13.592094 117.31432 -200 45 -42.654598 62.774952 -14.989268 -165.89552
13200000000 -13.237106 117.00911 -200 45 -42.33707 -2.3215168 -15.220533 -142.39275
13210000000 -12.56284 115.79844 -200 45 -42.061829 -70.655777 -12.402015 -140.07826
13220000000 -11.72645 110.47404 -200 45 -42.292332 -140.62106 -10.884255 -152.08554
13230000000 -11.692149 101.2881 -200 45 -42.547188 154.24081 -10.980852 -169.03392
13240000000 -12.504609 92.68438 -200 45 -42.906101 89.04586 -13.42893 173.83751
13250000000 -14.407461 90.144661 -200 45 -42.903652 27.512642 -19.738413 -179.1904
13260000000 -16.214523 97.712593 -200 45 -42.027401 -37.841312 -17.795074 -124.80097
13270000000 -15.972077 112.57051 -200 45 -41.682835 -108.85465 -12.889858 -127.70773
13280000000 -14.988385 116.49622 -200 45 -41.878574 -179.14856 -10.741759 -142.60725
13290000000 -14.248734 117.38231 -200 45 -42.518143 114.70654 -10.461843 -160.47311
13300000000 -13.818132 120.04855 -200 45 -43.081791 51.498539 -12.333025 -173.543
13310000000 -12.83895 121.1806 -200 45 -41.690285 -9.4415951 -14.69821 -166.62749
13320000000 -11.623796 118.50974 -200 45 -41.880711 -81.982109 -13.984439 -153.76448
13330000000 -11.016958 110.05402 -200 45 -41.545109 -150.1678 -11.996456 -154.25996
13340000000 -11.21123 100.58374 -200 45 -42.574699 141.4082 -10.755898 -167.355
13350000000 -12.478457 93.589539 -200 45 -42.648834 76.530067 -11.564419 175.02534
13360000000 -14.21881 94.056252 -200 45 -42.287964 17.169722 -14.841311 164.804
13370000000 -15.18348 104.67504 -200 45 -41.612656 -54.375343 -19.174948 -173.87289
13380000000 -14.671553 111.3028 -200 45 -41.567413 -121.38163 -16.096966 -142.15125
13390000000 -14.097926 114.33591 -200 45 -42.110996 168.06618 -12.428702 -146.32022
13400000000 -13.906675 116.08226 -200 45 -42.190392 102.89272 -10.758876 -161.74013
13410000000 -13.331583 119.56153 -200 45 -42.705055 38.47892 -11.311561 -177.7408
13420000000 -12.292506 120.77077 -200 45 -41.966778 -26.146469 -13.240816 177.39366
13430000000 -11.143944 115.12071 -200 45 -41.910908 -95.376831 -14.282617 -174.60548
13440000000 -10.866085 106.23604 -200 45 -41.890453 -166.85327 -13.39222 -166.46271
13450000000 -11.525716 97.28756 -200 45 -42.706043 129.07283 -11.54822 -169.87091
13460000000 -12.877865 93.854752 -200 45 -42.957684 64.180588 -10.789756 176.33821
13470000000 -14.266751 97.652016 -200 45 -42.653149 2.539834 -12.056084 161.02551
13480000000 -14.489751 104.22021 -200 45 -42.502666 -66.365097 -15.070068 156.45958
13490000000 -14.395236 107.26966 -200 45 -41.796806 -133.0255 -18.053789 173.55951
13500000000 -14.480268 108.15696 -200 45 -42.42802 156.07158 -16.324507 -159.52121
13510000000 -14.591367 114.3548 -200 45 -42.572994 89.519043 -12.812204 -160.33902
13520000000 -13.848404 119.82677 -200 45 -42.922436 26.146727 -11.473969 -173.85661
13530000000 -12.384208 119.74268 -200 45 -42.824886 -39.970284 -11.887693 175.22037
13540000000 -11.655627 113.05179 -200 45 -42.868221 -104.83297 -12.833845 170.68074
13550000000 -11.584971 105.56086 -200 45 -42.591457 -173.55522 -13.897866 172.40385
13560000000 -12.382158 100.36218 -200 45 -42.598286 120.86948 -13.638931 179.96924
13570000000 -13.274129 99.873001 -200 45 -43.067261 53.402138 -12.246897 178.24876
13580000000 -13.640077 104.28383 -200 45 -42.839954 -9.5289841 -11.826779 167.91954
13590000000 -13.605058 105.30173 -200 45 -42.917259 -76.967529 -12.817126 158.62791
13600000000 -13.675565 105.04705 -200 45 -42.637878 -143.42229 -14.62363 155.145
13610000000 -14.34609 107.14016 -200 45 -42.747421 148.33325 -17.139694 163.82051
13620000000 -14.293427 114.22118 -200 45 -42.776356 83.922813 -16.238194 -171.54747
13630000000 -13.166951 120.1338 -200 45 -42.577343 15.829056 -13.345415 -171.53983
13640000000 -11.997064 117.18788 -200 45 -42.991917 -52.974762 -12.182376 -179.92973
13650000000 -11.384818 111.74361 -200 45 -43.221432 -116.1076 -11.805372 171.5251
13660000000 -11.628585 105.78754 -200 45 -43.111618 177.45961 -12.395364 163.00162
13670000000 -12.064578 103.62933 -200 45 -42.982605 111.67796 -13.519245 163.19923
13680000000 -12.306415 105.12932 -200 45 -43.114658 46.321865 -13.432124 167.93175
13690000000 -12.046341 104.10885 -200 45 -42.974979 -21.800779 -12.577918 166.78656
13700000000 -12.072274 101.68501 -200 45 -42.880569 -85.781586 -12.214746 159.48883
13710000000 -12.770863 98.004303 -200 45 -42.853554 -155.21404 -12.845195 151.28624
13720000000 -13.689744 101.37685 -200 45 -42.904316 137.58893 -14.519474 146.63062
13730000000 -13.836328 109.24478 -200 45 -43.168457 71.359772 -16.799467 155.3824
13740000000 -12.744153 113.39051 -200 45 -42.823368 5.8876562 -16.149042 176.9157
13750000000 -11.76302 111.34731 -200 45 -43.428463 -61.757767 -13.369617 178.54539
13760000000 -11.422367 105.71687 -200 45 -43.375664 -127.32734 -12.214718 170.00861
13770000000 -11.599807 103.4767 -200 45 -43.129467 168.05731 -11.916624 162.49059
13780000000 -11.722343 102.80708 -200 45 -43.281487 99.429092 -12.335851 154.71577
13790000000 -11.314331 101.3931 -200 45 -43.66811 33.108425 -13.353945 154.38147
13800000000 -11.187674 97.060097 -200 45 -43.69474 -31.576313 -13.114505 157.98398
13810000000 -11.483073 90.751198 -200 45 -43.183453 -96.1978 -12.55792 154.33781
13820000000 -12.608078 87.791122 -200 45 -43.251907 -164.51004 -12.682534 148.28308
13830000000 -13.785279 90.922607 -200 45 -43.136433 125.51662 -13.492251 141.42436
13840000000 -13.806116 100.6993 -200 45 -43.930485 60.420483 -15.561537 139.62378
13850000000 -12.954412 104.11929 -200 45 -43.877785 -3.6918292 -17.168663 155.40642
13860000000 -12.133006 102.23805 -200 45 -43.742935 -70.856369 -15.644284 169.38345
13870000000 -11.967658 100.24467 -200 45 -44.240112 -136.09763 -13.830219 169.06609
13880000000 -11.744191 99.054016 -200 45 -43.93705 159.91568 -12.924438 163.70717
13890000000 -11.282316 98.065666 -200 45 -43.769009 92.716988 -12.708493 157.15346
13900000000 -10.856427 93.006966 -200 45 -43.636158 23.518284 -13.18262 153.43623
13910000000 -10.76707 86.667458 -200 45 -44.147404 -43.350281 -13.348729 154.29317
13920000000 -11.488957 80.026512 -200 45 -44.936302 -108.75205 -12.911538 152.68886
13930000000 -12.759452 77.750404 -200 45 -44.444031 -167.01683 -12.934976 146.8454
13940000000 -14.074189 84.401634 -200 45 -43.680725 126.26737 -13.541429 142.55658
13950000000 -13.853265 93.068306 -200 45 -43.245293 53.984138 -14.435061 138.80307
13960000000 -12.940673 96.475159 -200 45 -44.208508 -17.732147 -16.268673 140.91281
13970000000 -12.412555 95.78997 -200 45 -45.122181 -78.956703 -16.571136 155.23738
13980000000 -12.001493 95.485649 -200 45 -44.300201 -139.70462 -15.483383 159.13979
13990000000 -11.463304 95.612366 -200 45 -44.103699 153.38043 -14.95619 161.59709
14000000000 -10.704732 92.220802 -200 45 -44.02668 83.844398 -13.836864 161.54031
14010000000 -10.224601 86.402054 -200 45 -44.114376 18.411686 -13.345934 156.23926
14020000000 -10.389136 78.112457 -200 45 -44.493607 -50.230255 -13.184916 154.19995
14030000000 -11.352346 72.102356 -200 45 -45.121117 -112.63976 -12.627185 149.50995
14040000000 -12.878915 72.227478 -200 45 -44.536095 -174.69672 -12.908801 141.67432
14050000000 -13.650788 79.191132 -200 45 -43.682465 118.48948 -13.770818 138.60933
14060000000 -13.441791 87.028114 -200 45 -43.700649 48.040508 -14.33536 137.23291
14070000000 -12.705911 89.06852 -200 45 -44.310898 -23.430605 -15.328899 137.50754
14080000000 -12.223963 90.002251 -200 45 -44.994835 -83.211311 -15.606339 143.34854
14090000000 -11.695313 90.628723 -200 45 -44.429852 -147.62245 -15.438461 143.09145
14100000000 -10.747794 89.521858 -200 45 -44.066628 145.80244 -16.299446 146.47102
14110000000 -10.080918 84.384415 -200 45 -43.778343 77.21347 -15.661455 155.30556
14120000000 -9.7883892 76.220169 -200 45 -44.082115 8.7099714 -14.644627 157.12843
14130000000 -10.312353 68.536201 -200 45 -44.657646 -56.384903 -13.35116 156.27504
14140000000 -11.394053 64.247787 -200 45 -44.417793 -118.0267 -12.242575 148.02116
14150000000 -12.526212 66.016182 -200 45 -44.004307 173.82666 -12.351569 136.85365
14160000000 -13.031436 71.343468 -200 45 -43.974823 107.36259 -13.384958 129.74287
14170000000 -12.762417 74.991776 -200 45 -43.943138 38.997616 -14.705115 127.6814
14180000000 -12.711349 76.933685 -200 45 -43.961411 -27.800583 -15.80618 132.47411
14190000000 -12.314663 79.537491 -200 45 -44.413132 -93.467583 -15.575187 137.85378
14200000000 -11.520501 81.048508 -200 45 -44.384583 -159.90236 -15.273446 135.82637
14210000000 -10.547374 78.11319 -200 45 -44.346283 135.81303 -16.02696 133.18074
14220000000 -9.861701 71.543884 -200 45 -44.378502 67.449379 -17.224102 138.11382
14230000000 -9.9546146 63.201641 -200 45 -44.019711 2.0901425 -17.226612 152.12701
14240000000 -10.64518 56.911678 -200 45 -44.535744 -65.919037 -15.022472 159.0538
14250000000 -11.738002 55.228741 -200 45 -44.365326 -132.20862 -13.130807 152.52101
14260000000 -12.411483 57.23875 -200 45 -44.696308 163.41756 -12.374233 141.24091
14270000000 -12.481936 59.473503 -200 45 -44.670532 96.442993 -12.753227 129.1507
14280000000 -12.709137 59.890888 -200 45 -44.758995 31.921204 -14.191082 121.75837
14290000000 -12.904204 61.983967 -200 45 -44.695351 -32.884033 -15.893514 122.31307
14300000000 -12.785862 67.157204 -200 45 -43.83091 -101.32204 -16.597376 131.5816
14310000000 -11.80572 68.975067 -200 45 -44.543697 -172.60092 -15.719001 133.87912
14320000000 -10.813637 66.015511 -200 45 -45.311432 121.80029 -15.674459 129.01169
14330000000 -10.444778 59.123962 -200 45 -45.447887 62.838596 -16.612787 124.12476
14340000000 -10.551639 52.369152 -200 45 -44.963932 -3.0781806 -18.834028 129.42369
14350000000 -11.305621 48.370178 -200 45 -44.258598 -68.790962 -18.574654 150.06894
14360000000 -11.816026 47.863712 -200 45 -44.183037 -140.58528 -16.116224 156.75775
14370000000 -12.120428 48.473881 -200 45 -44.732315 148.94618 -13.89065 151.27858
14380000000 -12.300428 46.568378 -200 45 -46.00071 89.479851 -12.864535 137.19785
14390000000 -12.916218 46.381481 -200 45 -45.309902 27.683327 -13.536966 123.81286
14400000000 -13.523149 50.116081 -200 45 -44.39365 -37.086697 -14.896681 117.07118
14410000000 -13.231786 57.044315 -200 45 -43.916321 -111.27912 -16.598871 114.77232
14420000000 -12.093946 59.401699 -200 45 -45.019417 179.47533 -18.012531 124.00572
14430000000 -11.15462 55.060886 -200 45 -45.82185 116.75997 -17.029158 130.80688
14440000000 -10.899771 48.977718 -200 45 -45.115505 58.30484 -16.60887 123.544
14450000000 -11.176383 44.16011 -200 45 -44.554482 -8.6181145 -18.145609 118.49924
14460000000 -11.447236 42.43885 -200 45 -43.624744 -78.432793 -19.951748 126.26501
14470000000 -11.451177 41.390865 -200 45 -44.38372 -153.67929 -20.404341 144.71161
14480000000 -11.351349 37.710754 -200 45 -45.509838 143.0127 -17.464134 159.13071
14490000000 -11.814696 32.88282 -200 45 -46.01556 86.525131 -14.498369 150.06296
14500000000 -12.91422 30.802746 -200 45 -44.414139 21.803726 -13.655244 133.87419
14510000000 -13.869179 36.680767 -200 45 -43.865978 -48.667263 -14.033147 120.76975
14520000000 -13.500137 45.04031 -200 45 -44.2906 -122.98334 -15.200639 107.58015
14530000000 -12.235361 46.36573 -200 45 -45.263275 170.7159 -18.246641 101.95403
14540000000 -11.499675 42.346363 -200 45 -45.802799 110.20565 -19.97628 119.40433
14550000000 -11.322083 37.581974 -200 45 -44.946175 49.029579 -18.712337 124.83478
14560000000 -11.478024 34.946079 -200 45 -44.564907 -19.325199 -18.42382 121.05497
14570000000 -11.344151 33.417446 -200 45 -44.391449 -86.639725 -18.827852 113.92799
14580000000 -11.008966 29.594461 -200 45 -44.785866 -155.89508 -21.985628 108.62846
14590000000 -11.07662 22.578959 -200 45 -44.986931 136.96744 -24.016521 150.91588
14600000000 -11.925464 16.196463 -200 45 -45.02367 71.63488 -18.454353 160.6385
14610000000 -13.463091 15.051656 -200 45 -44.959755 6.8456688 -15.672372 147.97174
14620000000 -14.719872 23.393845 -200 45 -44.872021 -60.099613 -14.326687 130.85776
14630000000 -14.131845 33.232555 -200 45 -45.260937 -126.57495 -14.497311 110.57398
14640000000 -13.126925 34.327015 -200 45 -45.234177 168.92464 -16.641415 92.075264
14650000000 -12.435017 31.370886 -200 45 -45.010838 101.42422 -20.866409 88.825966
14660000000 -12.332553 29.45083 -200 45 -45.043274 33.536678 -22.830379 112.89992
14670000000 -11.977796 28.107908 -200 45 -45.567619 -31.666021 -20.659317 122.70032
14680000000 -11.421648 25.666571 -200 45 -45.511177 -95.265648 -19.416273 112.51894
14690000000 -11.108574 18.460974 -200 45 -45.526073 -158.29079 -20.61269 94.210915
14700000000 -11.416477 9.9842873 -200 45 -44.584045 132.21909 -27.046238 82.289703
14710000000 -12.769173 2.5320404 -200 45 -44.824482 62.115673 -27.649324 177.17378
14720000000 -14.604201 3.1730492 -200 45 -45.518978 -6.2166748 -19.436666 167.88426
14730000000 -15.716006 14.536251 -200 45 -45.970119 -67.218094 -16.252661 146.16382
14740000000 -15.008621 23.030617 -200 45 -45.994354 -132.4473 -15.246786 121.83793
14750000000 -14.16958 24.593885 -200 45 -45.498901 166.34892 -16.011463 97.319687
14760000000 -13.714598 23.635563 -200 45 -44.98822 97.251312 -19.163479 74.917702
14770000000 -13.345582 23.817778 -200 45 -44.764233 27.749479 -25.456984 77.648697
14780000000 -12.598855 22.868427 -200 45 -45.564426 -40.234276 -25.666914 118.28076
14790000000 -11.786444 17.700319 -200 45 -45.716393 -105.13169 -22.044006 118.26495
14800000000 -11.518943 8.359086 -200 45 -46.089512 -168.82187 -21.148594 96.283936
14810000000 -12.290644 -1.3231869 -200 45 -45.550781 127.68941 -24.304594 66.417206
14820000000 -13.860914 -7.1024337 -200 45 -45.213127 62.442486 -40.617989 12.734484
14830000000 -15.914547 -3.6902118 -200 45 -44.965866 -10.133908 -25.291462 -160.59943
14840000000 -16.620304 8.1120996 -200 45 -45.535419 -76.577522 -19.225254 166.6893
14850000000 -15.899437 15.348906 -200 45 -46.116779 -141.99527 -16.987776 136.78404
14860000000 -15.309696 17.358923 -200 45 -45.635483 156.39954 -16.78227 107.39566
14870000000 -14.808447 19.322767 -200 45 -45.794121 89.740135 -18.480047 80.236832
14880000000 -13.962772 20.576984 -200 45 -45.153454 25.967943 -22.416147 55.551041
14890000000 -12.77677 18.146812 -200 45 -45.149986 -45.466526 -31.120642 59.952675
14900000000 -11.967218 9.3580179 -200 45 -45.656845 -113.15739 -28.934757 111.84239
14910000000 -12.017427 -1.393941 -200 45 -45.882851 -172.59842 -26.057396 97.437279
14920000000 -13.051068 -11.132081 -200 45 -44.937927 118.08553 -26.63203 69.64167
14930000000 -14.840173 -14.987143 -200 45 -45.467918 49.706509 -31.058352 17.801325
14940000000 -16.398523 -9.5930433 -200 45 -45.515537 -16.258017 -30.502819 -97.280823
14950000000 -16.599976 -2.1569905 -200 45 -45.663982 -82.102211 -23.38505 -159.30441
14960000000 -16.386778 1.4955491 -200 45 -45.586823 -144.42474 -20.684816 159.91573
14970000000 -16.459198 3.3158698 -200 45 -44.907623 150.13907 -20.041748 129.80638
14980000000 -16.279705 8.5470715 -200 45 -44.656956 77.761604 -20.247135 99.928749
14990000000 -15.090728 12.357947 -200 45 -45.421303 8.1237488 -22.200123 67.109543
15000000000 -13.714584 7.0915751 -200 45 -46.025059 -53.886864 -26.82646 36.13493
15010000000 -13.113842 -3.2221308 -200 45 -45.666691 -117.60694 -34.045891 25.953516
15020000000 -13.54004 -14.639435 -200 45 -45.688705 176.02274 -38.134045 26.353348
15030000000 -14.925382 -21.967751 -200 45 -45.308605 111.51824 -40.516193 17.179333
15040000000 -16.574966 -21.150337 -200 45 -45.091633 42.261028 -34.043171 -27.68734
15050000000 -17.238762 -15.382338 -200 45 -44.873055 -25.292255 -28.344372 -80.153122
15060000000 -17.208572 -13.305703 -200 45 -45.266769 -92.67321 -24.913311 -119.49834
15070000000 -17.578026 -15.710834 -200 45 -45.55484 -159.42369 -23.033335 -152.49945
15080000000 -18.582315 -12.04781 -200 45 -45.778202 136.82211 -22.391804 176.27898
15090000000 -18.535767 -1.6942288 -200 45 -45.496983 71.199242 -22.852409 143.55714
15100000000 -16.748585 2.2153924 -200 45 -45.126625 4.7781892 -24.811386 106.72952
15110000000 -15.363832 -4.0796013 -200 45 -45.378948 -64.398727 -28.082848 62.483849
15120000000 -15.002773 -15.365424 -200 45 -45.636658 -129.85805 -31.03863 4.1369476
15130000000 -15.839055 -24.862526 -200 45 -45.391777 161.84378 -30.43935 -46.904697
15140000000 -17.139841 -28.014572 -200 45 -45.793751 95.148598 -28.817533 -82.200737
15150000000 -17.80295 -24.478882 -200 45 -46.793499 32.536671 -29.350544 -95.882431
15160000000 -17.424603 -24.957516 -200 45 -45.817646 -30.619551 -27.143801 -88.724083
15170000000 -17.506433 -31.074547 -200 45 -45.414795 -99.052002 -23.524008 -99.631866
15180000000 -18.785761 -37.792645 -200 45 -45.650455 -169.89909 -21.536366 -119.14015
15190000000 -20.906549 -33.969975 -200 45 -45.71003 123.05399 -20.582418 -138.89969
15200000000 -21.323355 -16.801899 -200 45 -46.905354 54.810863 -20.427757 -163.99345
15210000000 -18.964848 -10.089452 -200 45 -46.926273 -1.9346541 -22.578955 163.98447
15220000000 -17.46965 -19.07719 -200 45 -46.185123 -68.252426 -28.676741 129.3849
15230000000 -17.391956 -29.982899 -200 45 -45.893959 -136.16429 -38.54277 26.668303
15240000000 -18.232048 -37.031601 -200 45 -45.928574 153.62193 -28.174408 -58.399258
15250000000 -18.980087 -37.091846 -200 45 -46.627907 86.931862 -24.411541 -87.10244
15260000000 -18.673719 -37.091167 -200 45 -46.841225 23.733952 -23.501591 -102.72539
15270000000 -18.118227 -44.56422 -200 45 -46.945492 -43.445171 -23.435423 -107.62466
15280000000 -18.689135 -58.297073 -200 45 -46.83065 -105.85954 -22.407434 -102.77455
15290000000 -21.016453 -71.564659 -200 45 -46.933414 -170.76756 -19.783548 -107.64966
15300000000 -26.366745 -71.9935 -200 45 -46.447239 122.81814 -18.317469 -123.08512
15310000000 -27.35215 -24.550632 -200 45 -46.283604 55.634644 -18.117235 -140.08766
15320000000 -22.6299 -15.772878 -200 45 -46.368557 -15.042348 -19.25423 -157.9026
15330000000 -20.532501 -28.504644 -200 45 -46.986492 -82.245262 -22.507248 -171.61264
