!Keysight Technologies,P9374A,MY57211810,A.19.30.04
!Date: Friday, May 02, 2025 09:00:26
!Correction: S11(Off) 
!S21(Off) 
!S12(Off) 
!S22(Off) 
!S2P File: Measurements: S11, S21, S12, S22:
# Hz S  dB   R 50
13000000000 -12.104631 114.51102 -200 45 -50.424 129.52885 -12.985953 -175.69572
13010000000 -12.493282 108.96014 -200 45 -52.620049 60.559544 -18.80859 -176.20251
13020000000 -13.512615 103.82067 -200 45 -52.750706 13.314029 -19.125616 -117.65302
13030000000 -15.097397 104.37231 -200 45 -50.349823 -55.361275 -13.553959 -115.07497
13040000000 -16.1276 112.38 -200 45 -49.064316 -127.62362 -11.149731 -129.58478
13050000000 -15.911835 123.19104 -200 45 -49.52364 153.9144 -10.707444 -146.81274
13060000000 -14.709944 128.28151 -200 45 -51.502041 79.193031 -12.214596 -161.7366
13070000000 -13.672845 127.89088 -200 45 -53.099739 29.412216 -15.557271 -159.73311
13080000000 -12.800157 124.9542 -200 45 -50.818321 -31.632498 -15.528526 -135.41086
13090000000 -12.230163 120.2792 -200 45 -50.285339 -105.80404 -12.62194 -132.68929
13100000000 -12.067416 114.26826 -200 45 -51.360355 -176.95401 -11.073999 -144.82826
13110000000 -12.150538 109.8026 -200 45 -51.677502 120.03208 -11.171227 -160.63666
13120000000 -12.267529 104.8409 -200 45 -51.814697 61.538467 -13.225003 -176.40672
13130000000 -12.939262 98.908218 -200 45 -50.009441 -5.2056303 -19.015778 -174.73842
13140000000 -14.192275 95.865295 -200 45 -49.669895 -88.453583 -18.208916 -117.75977
13150000000 -15.568154 99.65741 -200 45 -52.407085 -162.43921 -12.875425 -119.16386
13160000000 -16.29921 109.40958 -200 45 -54.513901 147.77556 -10.681709 -134.57391
13170000000 -15.431834 118.89587 -200 45 -51.883636 87.999405 -10.350597 -151.52829
13180000000 -14.345047 119.93785 -200 45 -51.364464 23.488724 -11.70471 -166.06262
13190000000 -13.67165 120.00275 -200 45 -51.277699 -51.899719 -15.064362 -166.78027
13200000000 -12.87987 118.35247 -200 45 -52.319363 -125.6487 -15.258183 -141.3674
13210000000 -12.13521 113.78025 -200 45 -52.670979 -179.5972 -12.267173 -140.5166
13220000000 -11.943716 107.3478 -200 45 -51.868 115.4259 -10.980367 -152.5361
13230000000 -12.168964 101.61896 -200 45 -51.583508 44.724846 -11.035432 -168.23953
13240000000 -12.671444 96.067032 -200 45 -51.752899 -23.573853 -13.204529 174.06689
13250000000 -14.032333 91.238831 -200 45 -52.895409 -89.900932 -20.132128 178.41325
13260000000 -15.782724 97.588715 -200 45 -52.294918 -143.41003 -17.478968 -123.25064
13270000000 -15.969927 108.84114 -200 45 -50.806446 148.34662 -12.848243 -128.95074
13280000000 -15.44164 114.40596 -200 45 -50.013092 71.736877 -10.858101 -142.53664
13290000000 -14.737927 121.24404 -200 45 -51.478016 -9.0063276 -10.452761 -159.9146
13300000000 -13.423232 123.18618 -200 45 -55.308384 -69.435333 -12.187857 -173.73959
13310000000 -12.278907 120.08474 -200 45 -53.850899 -107.87284 -14.929284 -167.52838
13320000000 -11.676639 115.13796 -200 45 -50.999237 -177.71323 -13.826415 -152.2563
13330000000 -11.372057 108.27734 -200 45 -50.705101 111.71652 -11.991295 -155.77374
13340000000 -11.714297 102.07224 -200 45 -50.140491 36.517639 -10.903842 -166.54649
13350000000 -12.386357 97.284637 -200 45 -51.056087 -36.214134 -11.350399 175.43796
13360000000 -13.550193 95.174591 -200 45 -51.299957 -105.30975 -14.966931 162.54488
13370000000 -14.999492 99.97525 -200 45 -54.138309 -166.97371 -19.179152 -170.41649
13380000000 -15.100965 109.92883 -200 45 -51.875538 148.38966 -15.871449 -144.31552
13390000000 -14.57706 115.23572 -200 45 -50.395565 67.541115 -12.676156 -146.20866
13400000000 -13.916669 119.36273 -200 45 -51.479446 -2.5179455 -10.692335 -160.62305
13410000000 -12.942932 120.80993 -200 45 -51.380245 -67.388199 -11.125745 -178.39296
13420000000 -11.961996 118.75748 -200 45 -52.179913 -134.47725 -13.488841 176.30832
13430000000 -11.281632 112.83588 -200 45 -51.244389 160.17152 -14.190914 -172.40634
13440000000 -11.334523 105.46452 -200 45 -51.429333 96.800201 -13.253147 -168.51953
13450000000 -11.814018 100.32516 -200 45 -51.364178 29.080811 -11.770039 -169.03387
13460000000 -12.643077 97.21933 -200 45 -50.302353 -37.605804 -10.613889 176.74266
13470000000 -13.578746 96.321968 -200 45 -50.139011 -112.5386 -12.083759 159.67683
13480000000 -14.500173 99.889 -200 45 -52.050785 168.56401 -15.280535 157.88251
13490000000 -15.007178 106.33572 -200 45 -54.65453 122.54266 -17.668762 172.59218
13500000000 -14.761762 112.391 -200 45 -52.257599 67.908447 -16.647299 -159.65839
13510000000 -14.15377 116.60313 -200 45 -51.005421 6.9177041 -12.70247 -159.03381
13520000000 -13.433331 117.91065 -200 45 -49.763912 -74.583534 -11.36036 -174.91017
13530000000 -12.494086 117.44834 -200 45 -49.730606 -146.43124 -12.077943 174.89929
13540000000 -11.897195 112.32438 -200 45 -51.000916 134.21629 -12.762609 171.74875
13550000000 -11.951566 106.33696 -200 45 -53.459694 88.529999 -13.85493 171.65379
13560000000 -12.334685 103.81635 -200 45 -51.897228 24.125402 -13.691648 179.87431
13570000000 -12.749476 100.36246 -200 45 -51.162067 -38.123775 -12.291492 178.39326
13580000000 -13.407652 100.8459 -200 45 -50.173916 -105.60048 -11.753185 168.20836
13590000000 -14.01064 103.61749 -200 45 -48.896431 177.78484 -12.819737 157.91284
13600000000 -14.075019 106.13871 -200 45 -51.147694 93.968155 -14.722892 155.51959
13610000000 -14.254199 110.42972 -200 45 -53.885574 49.980297 -17.001835 164.23233
13620000000 -13.822775 114.72146 -200 45 -51.24667 -2.6690192 -16.348841 -172.37065
13630000000 -13.02273 116.90433 -200 45 -49.428864 -75.686157 -13.34389 -170.50935
13640000000 -12.327209 115.71118 -200 45 -48.348801 -153.51555 -12.054371 179.32477
13650000000 -11.687861 112.51021 -200 45 -49.976959 125.80257 -12.023307 171.27945
13660000000 -11.68521 108.1383 -200 45 -52.472847 68.884064 -12.25261 164.52158
13670000000 -11.718843 105.54635 -200 45 -51.525951 20.391636 -13.459966 160.98351
13680000000 -11.90505 102.73154 -200 45 -49.745579 -56.592476 -13.673762 169.28079
13690000000 -12.327895 101.13566 -200 45 -50.449665 -120.44186 -12.340811 167.1058
13700000000 -12.566744 101.86305 -200 45 -49.419048 170.32074 -12.275188 158.13519
13710000000 -12.890146 100.95731 -200 45 -48.824852 97.02478 -12.992513 152.22737
13720000000 -13.323062 103.43465 -200 45 -50.433743 27.02562 -14.319631 146.72095
13730000000 -13.373443 107.43652 -200 45 -50.259724 -36.285034 -16.994743 155.00578
13740000000 -12.843396 110.08282 -200 45 -50.527916 -103.86807 -16.027203 176.89389
13750000000 -12.290715 110.77592 -200 45 -51.6273 -166.55441 -13.450796 178.47113
13760000000 -11.717771 109.2916 -200 45 -50.60696 136.89006 -12.145257 170.31628
13770000000 -11.259316 105.60349 -200 45 -49.586018 63.002983 -11.924967 162.12511
13780000000 -11.252893 101.65379 -200 45 -48.89497 -1.4365838 -12.378731 154.79544
13790000000 -11.371696 98.287872 -200 45 -48.476585 -81.833702 -13.328523 154.43488
13800000000 -11.49451 95.553154 -200 45 -51.349831 -160.64868 -13.118316 158.0415
13810000000 -11.95794 92.664696 -200 45 -53.191807 163.7529 -12.502369 154.09073
13820000000 -12.434125 90.982811 -200 45 -50.443298 95.097145 -12.819491 148.21706
13830000000 -13.294753 92.007072 -200 45 -49.647793 26.045786 -13.382034 142.03194
13840000000 -13.619458 96.949394 -200 45 -49.69117 -44.782158 -15.610301 138.56578
13850000000 -13.336381 101.89871 -200 45 -50.241276 -116.83992 -17.180498 156.43182
13860000000 -12.682449 104.17182 -200 45 -50.517162 179.77876 -15.665638 168.95305
13870000000 -11.801927 103.48856 -200 45 -50.309113 118.30158 -13.758416 169.41443
13880000000 -11.258459 99.685776 -200 45 -49.295326 49.000431 -12.977938 162.97731
13890000000 -11.065257 94.906143 -200 45 -50.086266 -26.482733 -12.730838 157.9521
13900000000 -11.089634 91.322899 -200 45 -51.132877 -90.735252 -13.081044 152.96507
13910000000 -11.168133 86.724106 -200 45 -51.221451 -151.53731 -13.497769 154.34126
13920000000 -11.706584 82.696144 -200 45 -51.471928 141.85538 -12.801759 153.12779
13930000000 -12.491298 80.798668 -200 45 -51.35239 86.830162 -12.963478 145.97969
13940000000 -13.383015 83.015793 -200 45 -49.470726 15.037563 -13.640593 143.23029
13950000000 -13.925756 88.273705 -200 45 -49.400448 -59.612019 -14.260933 138.97227
13960000000 -13.649783 95.532005 -200 45 -50.272789 -129.15816 -16.399551 139.58702
13970000000 -12.690019 99.721573 -200 45 -50.450314 162.82835 -16.672115 156.9575
13980000000 -11.59105 98.28698 -200 45 -52.168388 98.351479 -15.192904 158.31514
13990000000 -10.948836 94.29464 -200 45 -51.913536 43.698612 -15.226991 161.07339
14000000000 -10.621 89.364555 -200 45 -49.999607 -25.047501 -13.753939 162.82185
14010000000 -10.609692 84.331161 -200 45 -50.449207 -97.835732 -13.270156 155.55359
14020000000 -10.823107 79.647072 -200 45 -51.056599 -163.37898 -13.235532 153.87335
14030000000 -11.389519 75.502281 -200 45 -51.281689 127.52563 -12.71864 149.88283
14040000000 -12.291611 73.702042 -200 45 -51.502239 66.56572 -12.745966 142.31606
14050000000 -13.19311 76.469856 -200 45 -51.771832 -0.11263049 -13.866038 136.65474
14060000000 -13.790155 82.072517 -200 45 -51.27623 -64.258469 -14.415994 139.44987
14070000000 -13.44359 91.148804 -200 45 -51.088394 -126.1266 -15.072339 136.12679
14080000000 -12.139381 93.924019 -200 45 -49.883633 161.30266 -15.908009 143.60062
14090000000 -11.136106 91.273705 -200 45 -50.521103 86.612122 -15.277095 144.20955
14100000000 -10.630442 87.152184 -200 45 -52.13018 24.243376 -16.242453 144.5842
14110000000 -10.139401 82.298286 -200 45 -52.127552 -32.938164 -15.833398 156.96616
14120000000 -10.187795 75.890869 -200 45 -50.814518 -99.656494 -14.481299 156.70088
14130000000 -10.537069 70.301933 -200 45 -50.051537 -170.10292 -13.405268 155.82538
14140000000 -11.224708 67.190285 -200 45 -50.950573 114.74285 -12.272776 148.32132
14150000000 -12.014802 65.478416 -200 45 -52.510395 55.951542 -12.301586 136.92273
14160000000 -12.940436 67.14048 -200 45 -52.030392 -5.2916059 -13.421913 129.43639
14170000000 -13.467781 73.458199 -200 45 -51.530975 -61.97942 -14.665886 127.78722
14180000000 -12.990794 80.562729 -200 45 -49.789318 -132.51961 -15.885319 132.17963
14190000000 -11.902674 82.355209 -200 45 -48.998058 145.54581 -15.526557 138.46527
14200000000 -11.066241 79.388702 -200 45 -50.338848 71.992813 -15.212758 135.73283
14210000000 -10.602443 75.688805 -200 45 -53.485741 3.8181863 -16.039391 132.20117
14220000000 -10.195107 70.745277 -200 45 -53.546215 -32.299835 -17.459652 140.11394
14230000000 -10.227148 64.235138 -200 45 -51.382183 -96.742508 -16.774536 151.45233
14240000000 -10.703744 59.407837 -200 45 -48.979954 -169.2395 -15.383106 157.51192
14250000000 -11.310745 56.557301 -200 45 -49.065277 112.51913 -13.132894 155.11533
14260000000 -11.957585 54.969582 -200 45 -49.965347 32.300217 -12.023141 140.17909
14270000000 -12.795555 55.634762 -200 45 -53.73851 -25.550348 -13.053604 127.4614
14280000000 -13.322487 60.653679 -200 45 -52.740551 -81.861862 -14.283709 124.41914
14290000000 -12.947405 66.848358 -200 45 -52.201946 -136.11108 -15.475051 121.24554
14300000000 -12.129029 67.468956 -200 45 -50.150295 150.68164 -16.988548 130.17455
14310000000 -11.610168 65.963257 -200 45 -50.299683 79.583252 -15.641324 136.21815
14320000000 -11.197693 64.123039 -200 45 -50.248375 7.7587733 -15.503618 127.58885
14330000000 -10.642115 60.234791 -200 45 -51.438629 -59.56699 -16.807022 124.26655
14340000000 -10.676752 53.865398 -200 45 -52.417427 -126.6804 -18.793509 129.7579
14350000000 -11.041447 49.829422 -200 45 -52.219505 -177.58292 -18.498222 150.38634
14360000000 -11.533212 47.300579 -200 45 -51.060955 118.0925 -16.130144 155.90662
14370000000 -12.070504 45.347328 -200 45 -50.016117 49.750603 -13.975312 151.78773
14380000000 -12.703545 46.200851 -200 45 -49.144051 -23.697359 -12.749096 137.53474
14390000000 -13.251742 48.17675 -200 45 -49.650974 -104.22485 -13.548311 122.87399
14400000000 -13.157945 53.669533 -200 45 -52.946728 -168.32738 -15.027539 117.59194
14410000000 -12.67836 55.245583 -200 45 -52.758724 148.64682 -16.504143 115.5019
14420000000 -12.226336 55.253815 -200 45 -49.448685 80.227348 -17.950583 122.63323
14430000000 -11.764709 55.075317 -200 45 -49.757145 4.6880155 -17.24147 131.3674
14440000000 -11.035959 52.172119 -200 45 -50.496136 -65.280212 -16.50189 124.38326
14450000000 -10.831509 46.112213 -200 45 -51.155518 -129.97188 -17.990932 117.89748
14460000000 -11.058418 41.632076 -200 45 -50.531746 171.57256 -20.247686 124.9865
14470000000 -11.362011 38.323578 -200 45 -48.982052 102.27123 -20.288513 147.70316
14480000000 -11.776025 35.872089 -200 45 -49.569958 25.570456 -17.252579 157.18532
14490000000 -12.230248 34.535255 -200 45 -50.859646 -44.149643 -14.74836 149.3811
14500000000 -12.846098 34.103786 -200 45 -51.833282 -99.565804 -13.672604 135.43817
14510000000 -13.344234 37.851559 -200 45 -51.183304 -160.87534 -13.807136 120.8382
14520000000 -13.032975 41.920544 -200 45 -49.48959 136.44658 -15.192307 105.46769
14530000000 -12.677041 42.178165 -200 45 -49.053474 62.902725 -18.743313 103.24551
14540000000 -12.249014 43.956985 -200 45 -48.373245 -9.8915415 -19.329693 120.69148
14550000000 -11.348248 42.475719 -200 45 -49.413296 -86.470444 -18.902857 121.23882
14560000000 -10.797601 36.375839 -200 45 -51.27298 -149.7388 -18.723988 123.51163
14570000000 -10.86412 30.007511 -200 45 -51.56321 159.62703 -18.466112 114.59596
14580000000 -11.346873 25.542906 -200 45 -49.01918 94.003098 -21.968204 105.57847
14590000000 -11.722791 23.310425 -200 45 -49.853901 16.960133 -24.220343 154.30858
14600000000 -12.194903 20.468224 -200 45 -50.030479 -46.147602 -18.220415 159.99858
14610000000 -12.926436 17.787729 -200 45 -48.839523 -112.76241 -15.723267 147.32269
14620000000 -14.170795 21.504957 -200 45 -49.963017 171.2975 -14.386332 131.00557
14630000000 -14.199776 28.657923 -200 45 -50.671658 106.7207 -14.4863 110.92645
14640000000 -13.622974 33.072216 -200 45 -51.278873 47.939083 -16.562885 92.05703
14650000000 -12.968622 34.403519 -200 45 -50.605381 -14.873912 -20.979601 87.756805
14660000000 -12.080332 33.786896 -200 45 -49.092743 -83.407631 -22.81905 113.73013
14670000000 -11.264902 28.821493 -200 45 -49.571209 -159.28505 -20.449741 122.93879
14680000000 -11.088871 20.706572 -200 45 -50.003128 134.00697 -19.55847 110.83958
14690000000 -11.587166 14.938995 -200 45 -51.10405 67.400948 -20.901272 95.770256
14700000000 -12.203497 11.008866 -200 45 -51.592999 6.9901943 -26.261627 84.714622
14710000000 -12.870937 8.8901186 -200 45 -50.535824 -49.406158 -28.709034 179.81042
14720000000 -13.673999 6.8174496 -200 45 -49.582138 -118.8014 -19.100361 169.64238
14730000000 -14.897922 8.1087322 -200 45 -49.315586 167.77461 -16.116587 144.3822
14740000000 -15.777883 17.460083 -200 45 -49.608521 92.788391 -15.463223 121.3732
14750000000 -14.994834 26.976986 -200 45 -51.269497 28.297697 -16.053459 98.500397
14760000000 -13.706236 28.674028 -200 45 -51.935921 -35.120968 -18.899559 75.230942
14770000000 -12.753186 25.941719 -200 45 -51.221191 -91.582199 -25.738146 74.944084
14780000000 -11.989111 20.754818 -200 45 -50.512146 -159.35138 -25.488123 119.98975
14790000000 -11.812466 13.386257 -200 45 -50.401947 131.34044 -22.00355 117.65162
14800000000 -12.046898 6.3002443 -200 45 -50.911831 65.228264 -21.141262 96.498795
14810000000 -12.910841 0.31227791 -200 45 -50.080849 1.9923056 -24.20719 65.465591
14820000000 -13.970695 -1.0594722 -200 45 -49.937023 -70.444824 -43.186878 1.5374763
14830000000 -14.666516 -1.0628531 -200 45 -50.646027 -141.11816 -25.563129 -163.59596
14840000000 -16.012506 -1.0162964 -200 45 -52.140434 159.75056 -19.331873 168.1319
14850000000 -17.025913 10.577371 -200 45 -50.740276 99.775787 -16.80154 136.58279
14860000000 -16.203711 22.547121 -200 45 -49.863453 31.570227 -16.805809 106.01144
14870000000 -14.425562 25.429562 -200 45 -49.351852 -41.504818 -18.743856 81.629066
14880000000 -13.067987 20.31543 -200 45 -50.769321 -117.10513 -21.871553 56.517986
14890000000 -12.560104 13.189947 -200 45 -51.259701 -168.95959 -31.706676 50.70116
14900000000 -12.334457 5.9730368 -200 45 -50.736298 120.41337 -28.384089 118.96676
14910000000 -12.734099 -1.2669855 -200 45 -50.885883 57.087112 -25.331024 93.199219
14920000000 -13.360354 -6.8729391 -200 45 -50.849724 -8.6927519 -27.430737 65.296753
14930000000 -14.345864 -10.512523 -200 45 -50.337849 -72.509262 -32.329594 21.492661
14940000000 -15.51974 -11.857556 -200 45 -49.676876 -138.51276 -31.774811 -96.181396
14950000000 -16.628271 -8.008069 -200 45 -48.744087 144.92993 -23.670931 -155.16544
14960000000 -17.365234 -1.457011 -200 45 -50.546158 66.927826 -20.171301 161.74069
14970000000 -17.25835 9.2200537 -200 45 -53.393669 17.648857 -19.806484 126.4268
14980000000 -15.585091 15.010871 -200 45 -50.75531 -39.012741 -20.744146 99.160995
14990000000 -14.13953 9.6608686 -200 45 -49.440582 -109.35635 -22.252459 69.588432
15000000000 -13.591936 1.2090622 -200 45 -49.690193 173.85104 -26.547466 37.390564
15010000000 -13.884311 -6.405189 -200 45 -49.941532 107.50788 -33.092106 21.885998
15020000000 -14.391366 -11.079717 -200 45 -50.604355 42.290054 -41.285419 19.09762
15030000000 -14.767631 -14.836864 -200 45 -51.020077 -22.989637 -38.501179 37.771778
15040000000 -15.451084 -19.803747 -200 45 -51.252769 -89.32621 -32.55294 -31.973379
15050000000 -16.682577 -22.59465 -200 45 -50.688637 -149.6989 -28.490223 -83.684029
15060000000 -18.187054 -19.739944 -200 45 -49.983093 143.01218 -25.038393 -119.63377
15070000000 -18.590448 -10.563328 -200 45 -50.309208 73.339264 -23.137297 -152.25278
15080000000 -18.265591 -4.457654 -200 45 -49.940063 5.5982723 -22.357943 177.05692
15090000000 -17.343603 -1.4287999 -200 45 -50.698845 -62.361008 -22.660465 143.24318
15100000000 -16.462202 -3.5284665 -200 45 -50.713005 -126.23037 -24.824169 104.87562
15110000000 -16.002209 -7.9834447 -200 45 -50.229717 170.19949 -28.324738 61.441574
15120000000 -15.676611 -13.480586 -200 45 -50.804718 103.19902 -31.591877 2.4377682
15130000000 -15.954371 -20.633768 -200 45 -49.845917 37.786602 -31.353659 -40.825657
15140000000 -16.608786 -24.237461 -200 45 -49.563744 -34.396572 -27.638454 -76.64785
15150000000 -16.952539 -26.360853 -200 45 -50.499397 -104.64275 -28.908369 -108.52597
15160000000 -17.35289 -30.672577 -200 45 -51.968155 -166.06505 -28.175291 -80.616348
15170000000 -18.285982 -35.138901 -200 45 -51.101955 138.692 -22.803036 -97.474472
15180000000 -20.141275 -33.088333 -200 45 -49.373398 69.65374 -21.188374 -122.5162
15190000000 -20.131336 -22.326071 -200 45 -48.93911 -1.1035726 -21.266396 -140.94527
15200000000 -19.439131 -19.918356 -200 45 -49.00774 -79.012825 -20.587835 -159.18318
15210000000 -18.893209 -21.906063 -200 45 -50.702126 -143.89708 -21.694588 164.93355
15220000000 -18.924566 -23.379763 -200 45 -50.8932 153.28036 -28.385248 117.97961
15230000000 -18.519211 -22.385433 -200 45 -50.889248 86.954262 -38.748661 -0.071945794
15240000000 -17.538815 -27.592579 -200 45 -51.446434 29.255259 -28.651814 -61.969967
15250000000 -17.377708 -37.291756 -200 45 -50.038429 -35.115223 -24.740192 -86.465652
15260000000 -18.035576 -47.767872 -200 45 -49.192112 -104.31638 -23.449389 -100.2139
15270000000 -19.318956 -52.120029 -200 45 -48.905643 178.58331 -23.125431 -109.04801
15280000000 -20.239918 -56.009438 -200 45 -50.422073 109.46491 -22.68314 -103.87876
15290000000 -21.459127 -59.303856 -200 45 -51.18462 48.435474 -19.823849 -106.07291
15300000000 -23.694948 -62.276417 -200 45 -50.574108 -10.533652 -18.080624 -123.15388
15310000000 -26.344599 -42.880165 -200 45 -49.79784 -79.040802 -18.231495 -141.5141
15320000000 -24.231688 -23.781002 -200 45 -49.323727 -151.54642 -19.359423 -156.63127
15330000000 -22.074896 -24.861822 -200 45 -50.258724 140.36967 -22.271492 -171.53209
