!Keysight Technologies,P9374A,MY57211810,A.19.30.04
!Date: Friday, May 02, 2025 09:01:02
!Correction: S11(Off) 
!S21(Off) 
!S12(Off) 
!S22(Off) 
!S2P File: Measurements: S11, S21, S12, S22:
# Hz S  dB   R 50
13000000000 -12.077882 110.04161 -200 45 -20.507936 25.640852 -13.138854 -177.81136
13010000000 -13.042769 107.69627 -200 45 -20.307335 -41.343765 -19.079027 -172.12781
13020000000 -13.940383 106.37412 -200 45 -20.31299 -108.79102 -18.795454 -122.03239
13030000000 -14.846545 108.14684 -200 45 -20.367424 -176.24815 -13.945868 -115.37206
13040000000 -15.407125 112.04615 -200 45 -20.50771 117.27048 -11.160504 -128.12015
13050000000 -16.035198 117.75861 -200 45 -20.608667 51.158337 -10.589362 -146.70313
13060000000 -15.207177 129.10553 -200 45 -20.522297 -14.078539 -12.213413 -161.59564
13070000000 -13.687889 129.42336 -200 45 -20.416828 -81.186562 -15.370471 -159.87427
13080000000 -12.771485 125.79771 -200 45 -20.429018 -148.91197 -15.701025 -136.8773
13090000000 -12.047087 120.73712 -200 45 -20.668478 144.30894 -12.767035 -131.70821
13100000000 -11.927644 113.383 -200 45 -20.812002 78.149033 -10.930117 -144.10927
13110000000 -12.142576 108.72238 -200 45 -20.929823 12.90655 -11.077307 -161.51015
13120000000 -12.449656 104.0867 -200 45 -20.856346 -52.267216 -13.428981 -176.63507
13130000000 -13.139264 99.391182 -200 45 -20.713903 -118.27445 -18.799616 -171.90271
13140000000 -14.117062 98.289734 -200 45 -20.664246 174.29109 -18.252354 -121.28785
13150000000 -15.316389 99.160095 -200 45 -20.723667 107.53589 -13.156502 -119.06429
13160000000 -16.111076 107.50124 -200 45 -20.881147 41.053028 -10.771819 -133.1264
13170000000 -15.759116 117.58086 -200 45 -20.978758 -24.077883 -10.162459 -150.51137
13180000000 -14.549571 121.63022 -200 45 -20.880356 -89.167625 -11.561296 -167.26659
13190000000 -13.489981 120.92835 -200 45 -20.652813 -155.9379 -15.282491 -167.40865
13200000000 -12.696474 118.23301 -200 45 -20.720621 136.75006 -15.169408 -140.26193
13210000000 -12.093694 112.36099 -200 45 -20.830242 70.449272 -12.244818 -140.85588
13220000000 -12.129234 107.12893 -200 45 -20.887697 4.9193764 -11.038805 -152.74211
13230000000 -12.188436 102.09122 -200 45 -20.849407 -60.402485 -11.095551 -167.86707
13240000000 -12.666544 95.915146 -200 45 -20.692499 -125.73428 -13.184624 174.93993
13250000000 -14.130289 92.497849 -200 45 -20.457867 167.58661 -19.645405 177.7742
13260000000 -15.408852 97.318413 -200 45 -20.371727 99.976662 -17.890383 -123.98531
13270000000 -16.163963 106.23418 -200 45 -20.417828 33.101089 -12.901115 -128.05931
13280000000 -15.629783 116.87527 -200 45 -20.445955 -33.330029 -10.880911 -142.17432
13290000000 -14.482648 120.92464 -200 45 -20.459467 -99.275597 -10.380986 -159.10072
13300000000 -13.507989 122.34795 -200 45 -20.313292 -165.55879 -12.016071 -174.47269
13310000000 -12.3246 120.86395 -200 45 -20.277666 127.45349 -15.217934 -168.51302
13320000000 -11.615545 114.62208 -200 45 -20.310999 60.196911 -13.806004 -150.22005
13330000000 -11.415862 108.8894 -200 45 -20.398378 -5.6770511 -11.68609 -156.68805
13340000000 -11.536158 101.82593 -200 45 -20.366394 -72.094917 -11.185205 -168.45358
13350000000 -12.474502 95.875626 -200 45 -20.334024 -137.81291 -11.669992 178.3432
13360000000 -13.863597 96.549995 -200 45 -20.250023 155.84375 -14.15664 165.1505
13370000000 -14.601155 101.18648 -200 45 -20.073088 88.896217 -19.744011 -179.7319
13380000000 -15.162741 107.92103 -200 45 -20.106684 21.583406 -16.141317 -138.29559
13390000000 -14.676507 116.32326 -200 45 -20.129055 -45.523819 -12.112352 -147.06645
13400000000 -13.792564 118.97716 -200 45 -20.237122 -111.94743 -10.963272 -163.17427
13410000000 -13.040443 120.64433 -200 45 -20.224117 -178.18071 -11.476425 -175.7937
13420000000 -11.943632 118.96906 -200 45 -20.181757 115.21305 -12.810314 177.82977
13430000000 -11.340925 112.82742 -200 45 -20.214918 47.765957 -14.486897 -177.31105
13440000000 -11.269217 106.24839 -200 45 -20.356785 -18.787041 -13.596069 -164.0125
13450000000 -11.633306 99.891022 -200 45 -20.509941 -84.529243 -11.243135 -169.53079
13460000000 -12.701042 95.288467 -200 45 -20.456585 -150.03833 -10.849713 174.50858
13470000000 -13.887253 97.025589 -200 45 -20.371992 144.05908 -12.381867 161.95651
13480000000 -14.494427 101.88662 -200 45 -20.286858 76.963409 -14.688998 159.14484
13490000000 -14.704585 105.98431 -200 45 -20.296171 9.9879494 -17.793936 168.35342
13500000000 -14.705385 110.79427 -200 45 -20.398073 -57.353973 -16.853985 -157.67938
13510000000 -14.400905 115.99567 -200 45 -20.595617 -123.28337 -12.619009 -158.85684
13520000000 -13.455966 119.35281 -200 45 -20.71907 171.32722 -11.354727 -174.55281
13530000000 -12.404773 117.67102 -200 45 -20.591404 106.24236 -11.992113 174.47501
13540000000 -11.865246 111.9851 -200 45 -20.567526 39.561554 -12.956007 171.56935
13550000000 -11.912027 106.85218 -200 45 -20.532099 -26.773325 -13.711653 172.97835
13560000000 -12.228986 102.28981 -200 45 -20.570818 -93.14772 -13.592218 178.58199
13570000000 -12.924463 99.889496 -200 45 -20.618427 -159.39897 -12.449594 178.05449
13580000000 -13.681483 102.31153 -200 45 -20.623238 135.32375 -11.855637 169.47705
13590000000 -13.658912 104.26221 -200 45 -20.535086 69.176796 -12.546108 158.55966
13600000000 -14.099236 105.54201 -200 45 -20.412771 3.0107059 -14.787771 153.5723
13610000000 -14.170483 110.07497 -200 45 -20.367079 -63.857071 -17.076723 166.16135
13620000000 -13.909547 113.79625 -200 45 -20.30653 -130.82213 -16.167036 -174.70023
13630000000 -13.255516 117.6524 -200 45 -20.460058 162.21272 -13.710773 -170.03903
13640000000 -12.123973 116.91595 -200 45 -20.60298 96.291084 -11.867645 -178.5976
13650000000 -11.626014 111.52521 -200 45 -20.620857 31.581894 -11.746911 169.00758
13660000000 -11.728668 108.12195 -200 45 -20.468708 -34.733429 -12.825421 163.94637
13670000000 -11.668543 105.37486 -200 45 -20.410849 -101.10584 -13.168789 165.65784
13680000000 -12.039037 102.22392 -200 45 -20.386189 -167.26167 -13.22596 164.67674
13690000000 -12.349317 102.43556 -200 45 -20.248167 125.9846 -13.092033 166.82739
13700000000 -12.423168 101.56133 -200 45 -20.379997 59.368225 -12.067175 162.58183
13710000000 -12.861674 100.58218 -200 45 -20.362854 -6.1522245 -12.441163 149.60927
13720000000 -13.389524 103.12814 -200 45 -20.214861 -72.385071 -14.945438 144.70267
13730000000 -13.378222 107.19045 -200 45 -20.09201 -139.42807 -16.662094 158.95216
13740000000 -12.952152 111.01243 -200 45 -20.078718 153.33607 -15.983792 173.47787
13750000000 -12.116657 110.96465 -200 45 -20.16511 86.053284 -13.758049 179.82782
13760000000 -11.700389 108.49848 -200 45 -20.327026 20.081442 -11.891868 171.24792
13770000000 -11.362741 105.62996 -200 45 -20.3622 -46.124912 -11.945312 159.95782
13780000000 -11.233005 101.6859 -200 45 -20.334335 -111.90466 -12.696356 156.4894
13790000000 -11.382747 98.412575 -200 45 -20.314062 -178.6263 -12.905232 155.60852
13800000000 -11.524313 95.902176 -200 45 -20.360584 115.0161 -13.127377 154.81422
13810000000 -11.799546 92.497261 -200 45 -20.391956 49.145 -12.948582 155.4626
13820000000 -12.591304 90.175964 -200 45 -20.314575 -17.225792 -12.499333 150.34583
13830000000 -13.229196 92.943024 -200 45 -20.367167 -83.713593 -13.151657 140.46288
13840000000 -13.604795 96.416786 -200 45 -20.357746 -149.91592 -15.790729 136.6812
13850000000 -13.439152 102.18783 -200 45 -20.324297 143.07004 -17.504698 158.84399
13860000000 -12.512401 104.45081 -200 45 -20.487377 76.410614 -15.06914 169.04651
13870000000 -11.861418 102.43127 -200 45 -20.582106 10.760318 -14.10445 166.15298
13880000000 -11.387239 100.14875 -200 45 -20.613445 -55.530354 -13.22974 165.89497
13890000000 -10.969946 95.791809 -200 45 -20.725016 -121.52148 -12.381534 158.42787
13900000000 -11.018028 90.36467 -200 45 -20.730047 172.67747 -13.128481 150.9207
13910000000 -11.26398 86.877365 -200 45 -20.729286 106.56074 -13.656674 155.28275
13920000000 -11.64374 82.786659 -200 45 -20.777306 40.93874 -12.67927 153.63692
13930000000 -12.49111 80.41906 -200 45 -20.718412 -24.54248 -12.916929 145.19595
13940000000 -13.484447 82.983711 -200 45 -20.600746 -91.027275 -13.801285 143.63928
13950000000 -13.894068 88.898468 -200 45 -20.624025 -157.37791 -14.134338 140.10707
13960000000 -13.589445 95.791466 -200 45 -20.552301 136.16025 -16.187874 137.80399
13970000000 -12.590097 98.942307 -200 45 -20.638763 69.410782 -17.099043 156.6508
13980000000 -11.724151 97.645218 -200 45 -20.686092 3.5139203 -15.063522 161.14705
13990000000 -11.060166 95.06916 -200 45 -20.760237 -62.675072 -14.879628 158.03247
14000000000 -10.523603 90.067848 -200 45 -20.810234 -128.30229 -14.339231 162.22398
14010000000 -10.527527 83.741394 -200 45 -20.840029 166.13425 -13.124397 158.99149
14020000000 -10.873715 79.418571 -200 45 -20.778107 100.51157 -12.897485 152.12682
14030000000 -11.331483 75.411308 -200 45 -20.721075 34.761749 -12.976006 148.51134
14040000000 -12.384697 73.036064 -200 45 -20.592871 -30.987408 -12.993093 143.83046
14050000000 -13.351051 77.195396 -200 45 -20.493847 -97.474205 -13.452646 138.68352
14060000000 -13.603629 83.36908 -200 45 -20.471594 -163.92918 -14.39829 135.54587
14070000000 -13.276285 89.809883 -200 45 -20.356913 129.67174 -15.504607 138.1808
14080000000 -12.290137 93.132545 -200 45 -20.385096 62.755867 -15.470985 143.77689
14090000000 -11.270639 91.676094 -200 45 -20.401945 -3.1794724 -15.446045 142.34047
14100000000 -10.545862 87.977539 -200 45 -20.323265 -69.500786 -16.36009 146.52141
14110000000 -10.115171 82.076187 -200 45 -20.347658 -136.35002 -15.646687 155.6469
14120000000 -10.159367 75.734276 -200 45 -20.334143 157.66681 -14.616676 156.37949
14130000000 -10.498791 70.398689 -200 45 -20.366722 91.03598 -13.522453 156.70978
14140000000 -11.185271 66.333832 -200 45 -20.417206 25.252953 -12.1244 148.97752
14150000000 -12.209109 65.125206 -200 45 -20.331863 -40.207031 -12.229115 135.61324
14160000000 -12.985198 68.930237 -200 45 -20.198433 -106.9002 -13.711632 129.40877
14170000000 -13.163137 73.811783 -200 45 -20.171043 -173.46645 -14.576421 130.51799
14180000000 -12.98455 78.86525 -200 45 -20.138052 119.75255 -15.418709 130.03987
14190000000 -12.049258 82.086784 -200 45 -20.16091 52.943134 -16.089828 137.0278
14200000000 -11.14909 79.773575 -200 45 -20.22147 -13.474522 -15.215054 138.59372
14210000000 -10.562986 76.191109 -200 45 -20.220728 -79.417397 -15.73054 131.99634
14220000000 -10.145655 70.660347 -200 45 -20.250498 -146.23924 -17.500834 137.29974
14230000000 -10.211239 64.305855 -200 45 -20.292822 147.5977 -17.153072 152.5869
14240000000 -10.62946 59.0905 -200 45 -20.313808 81.342041 -15.14316 158.82213
14250000000 -11.323363 55.714962 -200 45 -20.363409 15.412326 -13.127663 153.54242
14260000000 -12.168328 54.955246 -200 45 -20.34844 -50.39473 -12.245469 140.84128
14270000000 -12.760369 57.255497 -200 45 -20.247242 -116.42803 -12.859137 128.44537
14280000000 -13.104724 60.852123 -200 45 -20.231573 176.79376 -14.334755 122.54805
14290000000 -12.895632 65.185883 -200 45 -20.234341 109.95045 -15.737415 123.86943
14300000000 -12.360816 67.296791 -200 45 -20.357668 43.409313 -16.317963 129.29839
14310000000 -11.675721 67.097343 -200 45 -20.41251 -22.191605 -16.196396 132.76372
14320000000 -11.026103 64.434784 -200 45 -20.449484 -88.242943 -15.789 132.20667
14330000000 -10.664179 59.610229 -200 45 -20.450218 -154.17296 -16.024796 125.40523
14340000000 -10.685944 54.104053 -200 45 -20.457952 140.03287 -18.663084 122.17796
14350000000 -11.028409 49.970501 -200 45 -20.415569 73.716331 -19.704071 155.89095
14360000000 -11.477802 46.590149 -200 45 -20.426512 7.5824022 -15.15605 159.30214
14370000000 -12.246193 45.237598 -200 45 -20.407181 -58.418697 -13.806766 145.23149
14380000000 -12.771299 47.353634 -200 45 -20.410858 -124.90801 -13.728041 138.67999
14390000000 -12.920139 48.990269 -200 45 -20.527977 169.411 -13.10434 128.58652
14400000000 -13.194157 51.179047 -200 45 -20.433338 103.98117 -14.349156 112.92448
14410000000 -12.939597 55.841793 -200 45 -20.298819 38.037865 -17.522211 114.48862
14420000000 -12.193405 56.449471 -200 45 -20.228624 -28.475573 -17.330637 127.50533
14430000000 -11.58986 54.939636 -200 45 -20.123713 -95.104424 -17.148531 125.80212
14440000000 -11.089061 51.200783 -200 45 -20.203747 -162.20154 -17.241686 127.50231
14450000000 -10.909078 46.561317 -200 45 -20.294886 131.80138 -17.044127 120.84952
14460000000 -10.97945 41.954754 -200 45 -20.271271 66.125931 -20.314606 115.16202
14470000000 -11.371694 37.859371 -200 45 -20.226753 -0.042278796 -21.102715 156.54756
14480000000 -11.836524 36.111893 -200 45 -20.188053 -66.110367 -16.266369 157.21149
14490000000 -12.249088 34.846264 -200 45 -20.14418 -132.36172 -14.957473 144.69279
14500000000 -12.724612 34.276196 -200 45 -20.077839 160.93053 -14.282069 137.19049
14510000000 -13.352526 37.008404 -200 45 -20.170559 94.210236 -13.596266 124.02054
14520000000 -13.174943 41.705746 -200 45 -20.174236 28.652102 -14.738721 105.69997
14530000000 -12.688921 43.610733 -200 45 -20.090511 -37.712765 -18.447477 98.034256
14540000000 -12.038751 43.947586 -200 45 -20.067101 -104.27299 -20.631176 122.86289
14550000000 -11.306461 41.375004 -200 45 -20.142807 -170.85353 -18.135147 128.17117
14560000000 -10.981451 35.800171 -200 45 -20.135897 123.4522 -17.897717 116.45473
14570000000 -11.012622 31.311476 -200 45 -20.068378 56.983437 -19.817207 111.29662
14580000000 -11.109799 26.797699 -200 45 -20.0849 -9.7004213 -21.950487 118.21972
14590000000 -11.579848 21.857403 -200 45 -20.101103 -75.697334 -23.016235 141.15572
14600000000 -12.320172 19.337742 -200 45 -20.088949 -142.25261 -19.410755 160.94258
14610000000 -13.180374 18.893206 -200 45 -20.153509 151.06032 -15.560463 151.04227
14620000000 -13.908626 22.070948 -200 45 -20.236782 85.278091 -14.118728 130.31741
14630000000 -14.23603 27.880421 -200 45 -20.173529 19.310703 -14.638185 110.50034
14640000000 -13.739503 33.629822 -200 45 -20.173573 -47.163521 -16.481573 93.791534
14650000000 -12.748824 34.81918 -200 45 -20.179064 -113.44048 -20.511057 84.876511
14660000000 -12.057239 32.214012 -200 45 -20.204693 -179.93362 -23.774902 116.6476
14670000000 -11.507773 28.332966 -200 45 -20.296936 113.66437 -19.854542 124.51814
14680000000 -11.20746 22.374477 -200 45 -20.344355 47.898308 -19.31797 106.69267
14690000000 -11.38869 15.89585 -200 45 -20.364008 -17.876177 -21.670822 94.931015
14700000000 -11.977196 10.291905 -200 45 -20.304333 -83.7556 -26.328571 95.261528
14710000000 -12.917523 6.9188547 -200 45 -20.312761 -150.05383 -29.116953 162.82353
14720000000 -13.958481 6.2105002 -200 45 -20.321875 143.71513 -19.940268 171.42838
14730000000 -15.151259 10.278377 -200 45 -20.363222 77.685867 -16.155479 148.21912
14740000000 -15.442193 19.651621 -200 45 -20.339285 11.967015 -15.024371 122.2517
14750000000 -14.625866 24.622648 -200 45 -20.282124 -54.273811 -15.904096 95.96225
14760000000 -13.996126 27.046808 -200 45 -20.294643 -120.70234 -19.443098 73.881149
14770000000 -12.892259 26.77445 -200 45 -20.341124 173.24722 -25.425943 81.748169
14780000000 -12.037783 21.168549 -200 45 -20.341227 107.19854 -25.214809 114.52898
14790000000 -11.811581 14.22022 -200 45 -20.36463 41.40213 -22.606798 116.89677
14800000000 -11.942672 6.8396373 -200 45 -20.314547 -24.47238 -21.230589 99.898201
14810000000 -12.716071 0.19471376 -200 45 -20.222155 -90.613411 -23.576864 67.088951
14820000000 -13.800651 -3.3862772 -200 45 -20.226469 -157.22595 -38.704975 -9.3251152
14830000000 -15.239953 -3.2421737 -200 45 -20.25017 136.36185 -24.941071 -164.55809
14840000000 -16.367062 3.8917799 -200 45 -20.303976 70.442513 -19.748686 165.39305
14850000000 -16.339466 12.822888 -200 45 -20.302572 4.5341291 -17.226839 139.91696
14860000000 -15.826723 18.872736 -200 45 -20.267015 -61.240509 -16.371302 109.56285
14870000000 -14.794662 22.971222 -200 45 -20.2286 -127.16087 -18.080669 76.650238
14880000000 -13.42227 21.411114 -200 45 -20.130785 166.63718 -23.516512 52.793686
14890000000 -12.566085 15.087391 -200 45 -20.116619 99.966209 -29.780182 76.12825
14900000000 -12.205418 7.1119537 -200 45 -20.111902 33.776855 -29.084761 96.195259
14910000000 -12.456998 -1.2859741 -200 45 -20.089661 -32.511082 -27.819515 102.38832
14920000000 -13.220305 -8.4959393 -200 45 -20.132219 -98.494179 -25.942816 80.694695
14930000000 -14.510444 -12.854137 -200 45 -20.060507 -164.46851 -28.213499 20.771519
14940000000 -15.999147 -10.72352 -200 45 -19.985027 129.31454 -27.829876 -95.909561
14950000000 -16.576553 -5.4779058 -200 45 -19.940554 62.770435 -22.680885 -165.40562
14960000000 -17.09214 -0.074410282 -200 45 -19.886757 -3.7841396 -21.299856 155.38091
14970000000 -16.802296 7.9747419 -200 45 -19.914368 -70.603355 -20.891806 132.62286
14980000000 -15.648513 10.995642 -200 45 -19.98188 -136.95787 -20.041233 106.44125
14990000000 -14.824346 9.3428993 -200 45 -20.020393 157.1048 -21.022987 68.041351
15000000000 -13.779116 5.3012714 -200 45 -20.002733 90.909233 -25.821127 24.534027
15010000000 -13.378218 -4.1243353 -200 45 -19.995663 24.710022 -41.380779 2.8554044
15020000000 -13.924245 -13.339015 -200 45 -20.008171 -41.350712 -34.374699 70.060211
15030000000 -14.898361 -17.95595 -200 45 -19.984333 -107.47568 -32.434761 5.5167551
15040000000 -15.904253 -20.703735 -200 45 -19.945341 -173.66179 -32.243778 -63.237835
15050000000 -16.996473 -20.016403 -200 45 -19.896027 119.8046 -31.146961 -91.847427
15060000000 -17.85264 -16.308592 -200 45 -19.909065 53.381554 -26.195189 -109.10656
15070000000 -18.127317 -11.999446 -200 45 -19.908602 -12.854688 -22.172798 -145.79349
15080000000 -18.196245 -7.5872288 -200 45 -19.89764 -79.085823 -21.578054 172.39804
15090000000 -17.842997 -2.5930684 -200 45 -19.864548 -145.52351 -23.628712 138.71521
15100000000 -16.651104 -0.90669811 -200 45 -19.807329 147.90231 -25.76022 115.24039
15110000000 -15.706703 -6.8634896 -200 45 -19.866375 80.874565 -26.549591 72.630836
15120000000 -15.617305 -14.245338 -200 45 -19.962761 14.555793 -28.042608 -0.20282364
15130000000 -15.902255 -20.256359 -200 45 -20.051756 -51.359306 -29.299427 -69.945961
15140000000 -16.442007 -25.196865 -200 45 -20.027895 -117.22903 -33.685905 -89.670799
15150000000 -17.094152 -28.02145 -200 45 -20.023535 176.72627 -28.161125 -70.748413
15160000000 -17.751833 -30.495224 -200 45 -20.000834 110.5371 -24.730482 -98.052994
15170000000 -18.500643 -31.220741 -200 45 -19.938139 44.037113 -25.066959 -110.77409
15180000000 -19.152687 -31.114548 -200 45 -19.98918 -22.848686 -22.451775 -109.96047
15190000000 -20.057117 -28.99305 -200 45 -20.093807 -89.03643 -19.678551 -134.57593
15200000000 -20.24435 -20.813227 -200 45 -20.126888 -154.63309 -19.835381 -167.45126
15210000000 -19.213472 -17.848516 -200 45 -20.082365 139.02393 -22.871946 160.70241
15220000000 -18.436804 -20.462317 -200 45 -20.152241 72.856552 -29.247995 128.90234
15230000000 -18.002104 -25.219152 -200 45 -20.111429 6.8419237 -40.331322 12.355276
15240000000 -17.878489 -30.349461 -200 45 -20.136612 -59.657795 -29.099108 -62.011936
15250000000 -17.72793 -36.519451 -200 45 -20.182083 -125.74986 -24.983133 -84.5495
15260000000 -18.085638 -45.240135 -200 45 -20.194576 168.30023 -23.270897 -99.645103
15270000000 -19.039988 -51.800468 -200 45 -20.215879 102.30853 -23.022297 -108.24721
15280000000 -19.97385 -56.38055 -200 45 -20.167187 36.424732 -22.485729 -105.29005
15290000000 -21.603825 -63.76453 -200 45 -20.127945 -30.079119 -20.145823 -106.92153
15300000000 -24.606964 -57.470695 -200 45 -20.132862 -96.395264 -18.3305 -121.08919
15310000000 -25.219749 -41.546337 -200 45 -20.146027 -162.99159 -17.899815 -139.32729
15320000000 -24.474092 -28.044138 -200 45 -20.181458 130.68449 -19.00205 -159.35974
15330000000 -22.434172 -23.686432 -200 45 -20.26689 64.478638 -22.769066 -174.85953
