!Keysight Technologies,P9374A,MY57211810,A.19.30.04
!Date: Friday, May 02, 2025 09:03:46
!Correction: S11(Off) 
!S21(Off) 
!S12(Off) 
!S22(Off) 
!S2P File: Measurements: S11, S21, S12, S22:
# Hz S  dB   R 50
13000000000 -12.064795 111.7742 -200 45 -53.262081 58.337399 -13.435883 -174.49953
13010000000 -12.955386 107.57826 -200 45 -51.068508 -16.528791 -18.240587 -170.52267
13020000000 -13.771641 106.12218 -200 45 -50.622566 -92.511612 -19.119425 -124.72081
13030000000 -14.902259 107.49731 -200 45 -52.571953 -167.08304 -14.071416 -114.92601
13040000000 -15.559705 111.12275 -200 45 -53.05558 130.41246 -11.2619 -127.61629
13050000000 -16.021843 119.71056 -200 45 -51.832153 69.282661 -10.547102 -145.35088
13060000000 -15.137821 127.7453 -200 45 -52.374237 -11.552575 -11.888556 -161.7594
13070000000 -13.782661 129.90265 -200 45 -53.208233 -66.378403 -15.472308 -163.64174
13080000000 -12.627099 126.1179 -200 45 -53.586605 -138.28542 -16.176287 -133.76387
13090000000 -12.033117 119.57906 -200 45 -54.175327 158.25412 -12.421837 -130.01994
13100000000 -12.051656 113.46043 -200 45 -54.26783 101.03222 -10.702108 -145.35143
13110000000 -12.220707 109.03555 -200 45 -53.735897 39.30405 -11.14516 -163.39986
13120000000 -12.439536 104.68801 -200 45 -52.52499 -23.938269 -13.818962 -176.98537
13130000000 -13.004788 100.18004 -200 45 -52.040165 -90.24099 -18.822197 -167.29234
13140000000 -13.961946 96.435417 -200 45 -50.386856 -160.29234 -17.867308 -123.83829
13150000000 -15.541355 98.810349 -200 45 -50.036808 127.01007 -13.343349 -120.39661
13160000000 -16.14765 108.20084 -200 45 -49.83593 55.604374 -10.936051 -132.92912
13170000000 -15.753025 118.22417 -200 45 -50.191143 -19.23201 -10.275717 -149.64157
13180000000 -14.520352 122.14284 -200 45 -50.457634 -85.0271 -11.42452 -165.44678
13190000000 -13.283937 120.52243 -200 45 -50.141876 -154.88515 -14.668708 -169.60281
13200000000 -12.794498 116.95396 -200 45 -51.127338 130.48734 -16.035824 -142.72404
13210000000 -12.279803 112.39377 -200 45 -51.770851 54.519936 -12.352245 -136.27354
13220000000 -12.126532 108.04388 -200 45 -56.603924 -2.9695446 -10.434347 -151.78838
13230000000 -12.214446 102.62708 -200 45 -57.054546 -54.692162 -10.843216 -171.82359
13240000000 -12.548547 96.753746 -200 45 -54.197952 -94.602303 -13.901722 172.29678
13250000000 -13.92269 91.455429 -200 45 -53.11145 -163.4621 -19.898643 -173.627
13260000000 -15.533589 95.208946 -200 45 -51.140453 126.89068 -17.315887 -127.07545
13270000000 -16.416311 107.77734 -200 45 -50.887314 56.619377 -13.001719 -129.80721
13280000000 -15.696508 117.61612 -200 45 -49.726654 -14.647924 -11.087353 -143.09848
13290000000 -14.257525 122.57989 -200 45 -50.572586 -81.63427 -10.721839 -157.89897
13300000000 -13.209791 121.16754 -200 45 -49.295189 -144.61122 -11.810448 -170.69781
13310000000 -12.450215 118.63244 -200 45 -48.265427 143.70363 -14.317229 -172.02701
13320000000 -11.847993 115.04764 -200 45 -47.262844 67.863365 -14.749024 -153.63306
13330000000 -11.515916 110.00023 -200 45 -47.828609 -10.141939 -11.957947 -151.40829
13340000000 -11.506288 103.55222 -200 45 -48.777424 -81.595085 -10.526132 -166.64211
13350000000 -12.120706 96.470879 -200 45 -49.686222 -149.62215 -11.298334 174.22789
13360000000 -13.610938 93.468124 -200 45 -50.010891 140.25543 -14.888651 161.20741
13370000000 -15.058461 99.650299 -200 45 -51.544613 70.435783 -20.010738 -169.95132
13380000000 -15.457585 110.0255 -200 45 -53.117077 4.7703304 -15.436646 -140.48578
13390000000 -14.412777 117.95868 -200 45 -54.207584 -44.371304 -12.211257 -149.73912
13400000000 -13.588749 119.61702 -200 45 -53.438221 -95.504433 -11.259019 -163.37103
13410000000 -12.671148 118.73391 -200 45 -51.955105 -160.21793 -11.590692 -174.62546
13420000000 -12.259959 116.41372 -200 45 -50.408649 140.02237 -12.781308 179.39192
13430000000 -11.626872 113.6148 -200 45 -48.788822 68.153557 -14.065381 -177.47435
13440000000 -11.316104 108.03381 -200 45 -48.023369 -4.3076253 -13.692338 -167.65321
13450000000 -11.47657 101.01372 -200 45 -47.849434 -76.403038 -11.786631 -168.68802
13460000000 -12.309059 95.054825 -200 45 -47.051502 -144.59755 -10.75775 178.53542
13470000000 -13.774709 94.17659 -200 45 -46.815044 137.39485 -11.551947 161.85963
13480000000 -14.947832 99.248322 -200 45 -47.10854 67.995728 -14.860884 150.87981
13490000000 -15.140219 109.32793 -200 45 -46.928574 -3.3248634 -19.350491 176.20601
13500000000 -14.435048 113.0937 -200 45 -47.048935 -82.023941 -15.514 -156.26694
13510000000 -13.888377 115.9094 -200 45 -48.531708 -153.31648 -12.603651 -163.74622
13520000000 -13.412783 116.07256 -200 45 -50.632927 135.83954 -11.809555 -175.23305
13530000000 -12.816115 115.97224 -200 45 -52.584702 80.14772 -12.136864 176.68668
13540000000 -12.206021 114.13423 -200 45 -52.053154 23.658049 -12.744449 172.76912
13550000000 -11.74962 108.53979 -200 45 -52.291656 -44.586613 -13.446448 172.30063
13560000000 -11.970328 103.19523 -200 45 -52.552204 -104.70023 -13.694661 176.43434
13570000000 -12.649203 98.802261 -200 45 -52.719315 -153.21742 -12.774128 178.77943
13580000000 -13.679396 99.122093 -200 45 -49.70961 138.40245 -11.806625 171.55228
13590000000 -14.315889 104.09108 -200 45 -49.35458 65.1492 -12.202961 158.92517
13600000000 -14.221889 108.71136 -200 45 -49.043602 -1.3020443 -14.596855 150.325
13610000000 -13.842164 112.17831 -200 45 -48.870209 -68.203316 -17.892942 165.4379
13620000000 -13.452099 112.03145 -200 45 -47.750568 -140.26987 -15.923889 -169.63254
13630000000 -13.282668 114.83984 -200 45 -47.038441 147.21744 -13.123116 -172.03244
13640000000 -12.62219 115.92656 -200 45 -47.609215 70.482704 -12.129871 178.19032
13650000000 -11.85938 114.79641 -200 45 -48.242924 -1.1859391 -12.191789 170.55383
13660000000 -11.371044 109.99185 -200 45 -49.116543 -68.881332 -12.564019 166.40297
13670000000 -11.479994 103.81081 -200 45 -50.055164 -135.26608 -12.950328 164.01286
13680000000 -11.932627 101.44472 -200 45 -50.048355 162.96588 -13.349518 164.28603
13690000000 -12.424195 100.21939 -200 45 -49.720421 89.862793 -13.075119 166.33699
13700000000 -12.853787 102.10935 -200 45 -51.475231 22.848257 -12.31897 162.53766
13710000000 -12.909568 103.88053 -200 45 -51.576958 -39.318863 -12.389028 152.47841
13720000000 -12.913135 103.73651 -200 45 -51.963665 -94.264549 -14.220967 143.43103
13730000000 -13.116751 105.06863 -200 45 -50.050224 -167.04742 -17.448288 153.32582
13740000000 -13.238498 108.0999 -200 45 -51.035625 130.55379 -16.155399 -179.689
13750000000 -12.535154 112.41054 -200 45 -49.779552 63.266296 -13.080357 179.06839
13760000000 -11.573043 110.69863 -200 45 -49.362373 -6.6730709 -11.981042 168.3537
13770000000 -11.127567 105.69998 -200 45 -49.574249 -85.670876 -12.23718 160.13593
13780000000 -11.115911 101.29387 -200 45 -50.821178 -151.53709 -12.719171 157.59396
13790000000 -11.358311 96.815727 -200 45 -51.98378 151.07697 -12.847871 156.54533
13800000000 -11.70272 94.960075 -200 45 -49.938457 88.539116 -12.877555 154.67303
13810000000 -12.108861 93.373154 -200 45 -49.123558 10.556756 -12.955825 153.21483
13820000000 -12.336006 93.39048 -200 45 -50.513096 -60.682331 -12.893879 150.11665
13830000000 -12.89038 91.239967 -200 45 -50.985161 -130.43733 -13.277653 143.6557
13840000000 -13.624459 94.558464 -200 45 -51.578167 169.76756 -14.998234 138.31606
13850000000 -13.680728 101.32304 -200 45 -51.362358 103.12526 -17.58441 150.33098
13860000000 -12.767607 105.64627 -200 45 -51.369984 31.047237 -16.142956 172.9203
13870000000 -11.666782 104.09305 -200 45 -52.342247 -35.573765 -13.442048 171.63152
13880000000 -11.187106 99.34214 -200 45 -52.441387 -99.745537 -12.541255 161.45018
13890000000 -10.925573 94.899117 -200 45 -52.159084 -161.19408 -13.046296 154.57629
13900000000 -11.090893 89.576683 -200 45 -51.479221 120.91985 -13.559867 155.68695
13910000000 -11.461728 86.664734 -200 45 -53.445892 51.287849 -13.051506 156.29544
13920000000 -11.719965 84.508911 -200 45 -55.281189 -12.18406 -12.663289 151.31314
13930000000 -12.259781 81.240479 -200 45 -56.018356 -64.363655 -13.016781 145.14626
13940000000 -13.207242 81.636543 -200 45 -54.227848 -121.65168 -13.8597 142.25198
13950000000 -14.135027 86.62558 -200 45 -53.164051 161.2663 -14.592387 141.91133
13960000000 -13.858939 96.902359 -200 45 -54.94289 90.804298 -15.482762 142.17313
13970000000 -12.579256 100.28291 -200 45 -56.807529 34.819561 -16.642122 148.27454
13980000000 -11.581816 98.372101 -200 45 -53.494469 -15.073005 -16.372334 161.58997
13990000000 -10.814101 94.141754 -200 45 -52.148651 -92.313148 -14.538344 165.30942
14000000000 -10.639993 88.391304 -200 45 -53.007217 -167.30408 -13.500757 159.5545
14010000000 -10.731915 84.206612 -200 45 -53.815674 130.01488 -13.499518 154.51662
14020000000 -10.930653 80.136971 -200 45 -52.106655 66.963135 -13.440031 153.97354
14030000000 -11.363043 76.705238 -200 45 -52.009235 -5.4267092 -12.803212 151.37524
14040000000 -12.010842 73.591835 -200 45 -51.639915 -81.989532 -12.54448 143.61034
14050000000 -13.307278 74.006844 -200 45 -54.21294 -152.07648 -13.39587 135.41742
14060000000 -13.914277 83.430779 -200 45 -54.606133 155.2292 -14.981977 134.98387
14070000000 -13.388585 91.099503 -200 45 -52.435493 87.583595 -15.450241 142.35818
14080000000 -12.161806 94.611008 -200 45 -51.641712 6.0485668 -14.998837 143.25064
14090000000 -11.019478 91.738174 -200 45 -54.768494 -75.812096 -15.405232 140.07547
14100000000 -10.458042 86.137604 -200 45 -57.95953 -129.0448 -16.644028 144.866
14110000000 -10.302454 81.034172 -200 45 -58.5849 -170.97545 -16.063395 158.19122
14120000000 -10.399221 76.341377 -200 45 -56.567646 133.23293 -14.141873 159.34959
14130000000 -10.474059 72.20829 -200 45 -54.083488 63.822758 -13.079903 153.01309
14140000000 -10.945541 66.932671 -200 45 -55.563957 -2.2600939 -12.695091 146.25241
14150000000 -11.944787 64.188545 -200 45 -53.881161 -57.926945 -12.660029 139.46584
14160000000 -13.101316 66.180717 -200 45 -52.076546 -132.7571 -13.060414 131.93112
14170000000 -13.591626 74.370407 -200 45 -51.692932 150.74237 -14.309052 125.99409
14180000000 -12.885453 80.844536 -200 45 -51.016293 83.329781 -16.045029 129.29895
14190000000 -11.921448 82.62191 -200 45 -51.457176 3.7988732 -16.043327 139.61896
14200000000 -10.874321 79.609688 -200 45 -51.430595 -64.896614 -15.067536 138.8835
14210000000 -10.53501 73.549339 -200 45 -52.327557 -138.87968 -15.442019 131.92972
14220000000 -10.496876 70.141434 -200 45 -53.892059 147.71782 -17.535145 133.30783
14230000000 -10.388068 65.969009 -200 45 -54.472073 87.48365 -17.80344 155.26503
14240000000 -10.487822 60.75111 -200 45 -56.623222 21.758718 -14.707587 161.47327
14250000000 -11.037357 55.665844 -200 45 -55.20517 -33.258423 -12.789273 151.2668
14260000000 -12.056754 53.01421 -200 45 -56.139103 -112.69862 -12.493354 138.80087
14270000000 -13.003393 55.775131 -200 45 -57.753487 -171.20012 -13.161883 129.49844
14280000000 -13.378485 61.417084 -200 45 -59.017864 151.44044 -14.256845 124.64439
14290000000 -12.94129 67.451546 -200 45 -54.863197 81.946518 -15.397941 123.72195
14300000000 -11.951978 68.34343 -200 45 -55.841713 13.875113 -16.342852 127.13956
14310000000 -11.461596 65.346848 -200 45 -54.442593 -46.125301 -16.405117 133.15678
14320000000 -11.149631 62.153286 -200 45 -52.715549 -119.87799 -15.763021 132.69193
14330000000 -11.106511 59.847942 -200 45 -52.997784 162.94287 -16.119707 125.70089
14340000000 -10.714068 56.490292 -200 45 -53.580482 102.12419 -18.358799 124.83131
14350000000 -10.748612 50.602009 -200 45 -52.489891 29.548273 -19.604635 148.78081
14360000000 -11.342348 46.10302 -200 45 -52.170601 -37.989712 -16.038662 161.58694
14370000000 -12.091212 44.271549 -200 45 -51.246716 -118.0164 -13.440801 150.90161
14380000000 -12.968281 45.091778 -200 45 -52.150997 164.84511 -12.826414 135.40599
14390000000 -13.452722 49.931622 -200 45 -54.368851 90.624809 -13.681895 122.66228
14400000000 -13.051879 55.182491 -200 45 -54.44957 26.36202 -15.291938 117.52702
14410000000 -12.397367 55.134518 -200 45 -57.657269 -68.683403 -16.513695 119.41377
14420000000 -12.112907 53.713047 -200 45 -61.126736 -93.021347 -17.109306 122.20002
14430000000 -11.925365 53.780727 -200 45 -64.619286 -144.66588 -17.466665 125.05633
14440000000 -11.310482 52.62159 -200 45 -59.808273 169.42087 -17.41012 126.87104
14450000000 -10.877355 48.125759 -200 45 -58.671665 110.96548 -17.556026 123.71475
14460000000 -10.799302 42.501888 -200 45 -56.6222 37.379173 -19.215872 121.27292
14470000000 -11.127902 37.47258 -200 45 -57.283108 -23.224882 -21.21669 141.81807
14480000000 -11.767663 33.969986 -200 45 -54.269096 -88.742424 -17.723259 161.75487
14490000000 -12.585772 33.498981 -200 45 -53.605251 -166.17166 -14.393594 152.25906
14500000000 -13.133849 37.087334 -200 45 -53.594925 122.5538 -13.226518 134.41365
14510000000 -12.875387 39.482327 -200 45 -52.308277 48.497971 -13.856862 116.99849
14520000000 -12.8583 39.885937 -200 45 -52.80603 -27.388281 -15.955814 106.29644
14530000000 -12.753547 41.325523 -200 45 -52.696712 -103.866 -18.308298 108.70711
14540000000 -12.286515 43.788677 -200 45 -54.343864 175.87553 -19.064405 117.56246
14550000000 -11.45728 42.142334 -200 45 -55.389515 114.46685 -18.816793 121.22837
14560000000 -10.954661 37.605186 -200 45 -56.487362 34.950317 -18.811075 119.8858
14570000000 -10.727444 31.754168 -200 45 -58.241535 -31.212114 -19.369352 116.90769
14580000000 -10.942134 24.837652 -200 45 -64.895798 -113.38026 -21.072979 115.42532
14590000000 -11.726024 20.167562 -200 45 -65.532867 -143.17862 -23.66577 136.6067
14600000000 -12.641004 19.550146 -200 45 -69.196472 -176.16927 -19.694296 163.18298
14610000000 -13.179105 21.29833 -200 45 -65.940918 163.48712 -15.543518 152.73048
14620000000 -13.669391 23.184235 -200 45 -60.642715 106.86069 -13.832539 131.54459
14630000000 -13.955224 26.084633 -200 45 -54.840366 30.192858 -14.251173 108.32
14640000000 -13.992238 31.600103 -200 45 -53.107826 -60.45652 -16.851055 89.385193
14650000000 -13.055729 34.841335 -200 45 -53.197468 -140.94852 -21.596886 90.160027
14660000000 -12.09442 34.105541 -200 45 -53.401737 141.01494 -22.222897 118.82661
14670000000 -11.261682 29.095627 -200 45 -54.020321 72.257843 -19.873938 119.00384
14680000000 -11.058009 21.551056 -200 45 -53.321297 -4.1211381 -19.75293 106.34506
14690000000 -11.45015 14.702931 -200 45 -53.964931 -86.352371 -21.904203 95.134125
14700000000 -12.187448 9.7341576 -200 45 -55.649342 -165.37016 -26.665733 99.498253
14710000000 -13.08966 7.8290439 -200 45 -59.691174 113.39011 -27.726088 156.89537
14720000000 -13.893574 7.4800878 -200 45 -62.538311 82.11042 -20.588751 168.23369
14730000000 -14.818962 10.779435 -200 45 -62.194073 -1.492702 -16.521973 150.02963
14740000000 -15.333197 17.038244 -200 45 -67.812164 -62.567142 -14.98655 124.60641
14750000000 -15.095695 24.106726 -200 45 -73.395798 -64.904617 -15.57815 97.569962
14760000000 -14.142562 29.292435 -200 45 -66.827263 -100.74724 -18.686296 72.222397
14770000000 -12.666368 27.731932 -200 45 -60.717411 -162.29495 -26.475563 67.203308
14780000000 -11.904905 20.421661 -200 45 -58.169296 124.77303 -25.515636 132.27051
14790000000 -11.784312 13.189018 -200 45 -56.909061 44.777016 -20.73749 117.28048
14800000000 -12.097034 6.2124 -200 45 -55.564983 -29.545469 -20.770912 88.860504
14810000000 -12.883515 1.0265582 -200 45 -55.21167 -95.370628 -25.325958 57.805225
14820000000 -13.844537 -2.0299182 -200 45 -54.332672 -175.47849 -50.660923 -95.78907
14830000000 -14.979253 -1.8281243 -200 45 -54.869038 115.17088 -25.036461 -171.98756
14840000000 -16.030518 1.7988409 -200 45 -53.893608 37.824299 -19.924801 163.22813
14850000000 -16.673748 10.137977 -200 45 -54.666473 -45.837418 -17.640474 138.0078
14860000000 -16.297258 21.48666 -200 45 -58.172298 -110.80219 -17.033609 111.67456
14870000000 -14.436383 25.449232 -200 45 -58.216011 -168.23943 -18.021166 83.997391
14880000000 -13.159402 20.407719 -200 45 -59.229317 119.50661 -21.362452 55.719715
14890000000 -12.540627 13.817043 -200 45 -63.028091 49.924904 -30.239731 38.841003
14900000000 -12.30918 6.2043028 -200 45 -61.151157 27.519129 -30.869051 130.53674
14910000000 -12.660645 -1.3517388 -200 45 -61.445496 -49.991268 -24.597023 108.08712
14920000000 -13.335402 -6.7578654 -200 45 -59.456753 -95.862381 -24.444017 66.959938
14930000000 -14.323874 -10.98361 -200 45 -58.022755 -167.07993 -28.477648 1.9648454
14940000000 -15.486975 -11.216707 -200 45 -57.785404 139.82544 -27.789612 -105.50573
14950000000 -16.622866 -10.002444 -200 45 -54.974346 69.902382 -22.871395 -165.56976
14960000000 -17.725927 0.221016 -200 45 -54.265961 -5.7721987 -20.750935 156.49913
14970000000 -16.811451 11.218433 -200 45 -53.960133 -79.388916 -20.472805 126.14506
14980000000 -15.370976 12.684446 -200 45 -55.007084 -142.83195 -21.329462 100.52577
14990000000 -14.336898 8.2618237 -200 45 -52.984756 148.34294 -22.806551 76.993279
15000000000 -13.88552 1.7360271 -200 45 -52.468578 75.132202 -25.116421 48.833767
15010000000 -13.790943 -4.6170616 -200 45 -52.486019 -0.61051571 -29.597305 11.998241
15020000000 -14.152385 -11.449008 -200 45 -53.01701 -76.468597 -39.695358 -39.66943
15030000000 -14.742536 -15.702774 -200 45 -53.998276 -143.82002 -47.635933 96.147339
15040000000 -15.513021 -19.722345 -200 45 -55.962917 146.02113 -35.804207 2.8408942
15050000000 -16.661945 -22.794003 -200 45 -55.241524 98.852463 -27.97345 -62.560291
15060000000 -18.127611 -20.265802 -200 45 -53.784229 29.56752 -23.52426 -112.00525
15070000000 -18.899731 -11.394977 -200 45 -53.731586 -54.519943 -21.67305 -154.3082
15080000000 -18.279346 -2.6787095 -200 45 -56.758507 -113.13705 -21.883612 168.29164
15090000000 -16.982714 -0.78615654 -200 45 -56.651367 -171.09932 -23.785786 135.73218
15100000000 -16.365284 -5.7766962 -200 45 -55.388577 126.30556 -26.845188 108.08414
15110000000 -16.107557 -8.9056778 -200 45 -55.801144 64.452087 -29.904831 78.076439
15120000000 -16.069235 -13.673951 -200 45 -52.720303 -1.3544235 -31.427103 28.386583
15130000000 -16.123327 -18.144051 -200 45 -52.897766 -78.191841 -29.377472 -29.712099
15140000000 -16.219074 -22.376932 -200 45 -53.345459 -145.7251 -26.94043 -74.551193
15150000000 -16.570253 -28.711086 -200 45 -53.512966 148.2439 -27.038269 -105.47377
15160000000 -17.519835 -33.719421 -200 45 -53.536156 84.248894 -28.972218 -104.31301
15170000000 -18.929411 -35.400356 -200 45 -51.947285 18.121441 -25.137621 -90.762421
15180000000 -20.172321 -28.880257 -200 45 -51.624535 -57.170425 -20.941957 -109.502
15190000000 -19.768745 -21.323387 -200 45 -51.766632 -124.408 -19.267799 -138.96269
15200000000 -19.278612 -22.84133 -200 45 -51.695244 160.27933 -19.955286 -171.15306
15210000000 -19.210222 -21.898979 -200 45 -52.830006 89.781975 -23.323118 157.5368
15220000000 -18.968927 -22.726177 -200 45 -52.577507 23.226967 -30.93298 128.47931
15230000000 -18.414579 -23.435053 -200 45 -53.033752 -43.93531 -44.949078 -30.687258
15240000000 -17.977108 -27.64666 -200 45 -52.915848 -118.29576 -30.610094 -68.416237
15250000000 -17.483332 -34.381519 -200 45 -55.127434 169.68924 -25.942022 -81.199936
15260000000 -17.557125 -44.726402 -200 45 -57.539967 106.38486 -23.250635 -93.305519
15270000000 -18.622173 -56.13937 -200 45 -58.328667 58.402573 -22.050528 -107.02267
15280000000 -20.754438 -60.648544 -200 45 -56.595009 5.0264864 -22.332432 -112.60787
15290000000 -22.688641 -58.373276 -200 45 -54.975761 -61.487297 -21.049162 -107.31445
15300000000 -23.869978 -50.483154 -200 45 -55.429115 -123.3658 -18.470181 -116.73755
15310000000 -24.507078 -43.881401 -200 45 -53.338104 172.18959 -17.390818 -137.42987
15320000000 -24.243137 -32.465637 -200 45 -52.00124 95.651039 -18.542868 -161.19008
15330000000 -22.769621 -26.187128 -200 45 -52.27935 22.097937 -22.866968 -179.7525
