!Keysight Technologies,P9374A,MY57211810,A.19.30.04
!Date: Friday, May 02, 2025 08:57:20
!Correction: S11(Off) 
!S21(Off) 
!S12(Off) 
!S22(Off) 
!S2P File: Measurements: S11, S21, S12, S22:
# Hz S  dB   R 50
13000000000 -12.257938 110.73361 -200 45 -20.607237 29.392866 -13.21361 -177.7063
13010000000 -13.131832 109.12963 -200 45 -20.366184 -37.318432 -19.084045 -171.13342
13020000000 -13.784705 107.19587 -200 45 -20.358414 -105.15804 -18.818363 -122.72316
13030000000 -14.576246 108.76158 -200 45 -20.503782 -172.74507 -13.926746 -114.85767
13040000000 -15.320623 110.6064 -200 45 -20.761833 121.46221 -11.094657 -128.22183
13050000000 -16.084389 116.26201 -200 45 -20.716642 55.916367 -10.595443 -147.37337
13060000000 -15.40894 128.23241 -200 45 -20.565407 -9.6959553 -12.329575 -161.48738
13070000000 -14.020244 130.37617 -200 45 -20.422476 -77.657379 -15.316161 -159.08954
13080000000 -12.738594 127.66779 -200 45 -20.504881 -144.96173 -15.667874 -137.74084
13090000000 -11.977684 121.72035 -200 45 -20.848242 147.36792 -12.826305 -131.12137
13100000000 -11.633368 113.72072 -200 45 -21.024958 82.496788 -10.852541 -143.87074
13110000000 -12.043393 107.52921 -200 45 -21.116442 17.643564 -11.02856 -162.31584
13120000000 -12.460309 102.83903 -200 45 -20.835484 -47.577065 -13.599195 -177.00706
13130000000 -13.23008 98.889305 -200 45 -20.735357 -114.39334 -18.741518 -170.37021
13140000000 -14.489188 97.68412 -200 45 -20.706425 177.81497 -18.24646 -122.15426
13150000000 -15.273426 101.64317 -200 45 -20.874855 111.07365 -13.176582 -118.84117
13160000000 -16.050537 109.45644 -200 45 -21.068209 45.029228 -10.726642 -133.15506
13170000000 -15.416481 117.55505 -200 45 -21.123854 -19.454895 -10.179964 -150.91014
13180000000 -14.342012 119.9781 -200 45 -20.938305 -85.061829 -11.598174 -167.24626
13190000000 -13.646235 119.06273 -200 45 -20.761736 -151.4565 -15.318742 -167.56775
13200000000 -12.873863 117.72354 -200 45 -20.761539 140.76813 -15.170456 -139.88916
13210000000 -12.398088 113.32568 -200 45 -20.917027 74.317047 -12.153981 -140.84996
13220000000 -12.089828 108.31106 -200 45 -20.982378 8.9396877 -11.06905 -153.39615
13230000000 -12.131112 103.21008 -200 45 -20.973885 -56.569 -11.146908 -167.73561
13240000000 -12.560541 96.045876 -200 45 -20.842525 -121.68792 -13.14782 175.46445
13250000000 -13.867143 92.873367 -200 45 -20.527206 171.5565 -19.62459 175.78551
13260000000 -15.369014 95.741722 -200 45 -20.529402 104.09302 -17.851866 -122.31015
13270000000 -16.263325 104.13745 -200 45 -20.538141 37.192776 -12.770034 -128.16071
13280000000 -15.882442 118.07455 -200 45 -20.590168 -28.807686 -10.898643 -143.10362
13290000000 -14.536533 121.94303 -200 45 -20.535444 -95.630043 -10.45676 -159.01605
13300000000 -13.411272 123.21533 -200 45 -20.402252 -161.0997 -12.026953 -173.99237
13310000000 -12.244346 120.83192 -200 45 -20.360531 131.08409 -15.14325 -168.85803
13320000000 -11.494954 114.65199 -200 45 -20.421705 64.69175 -13.85931 -150.37318
13330000000 -11.426152 108.24931 -200 45 -20.522736 -2.1785128 -11.715777 -156.43405
13340000000 -11.56143 100.98466 -200 45 -20.463877 -67.727669 -11.094903 -168.3215
13350000000 -12.557508 95.778847 -200 45 -20.440619 -134.06599 -11.667598 177.53719
13360000000 -13.985389 95.717255 -200 45 -20.299074 159.44516 -14.296443 164.88792
13370000000 -14.79664 102.73521 -200 45 -20.292604 92.979416 -19.638105 -177.77266
13380000000 -14.987909 109.69946 -200 45 -20.198271 25.264111 -16.131313 -138.9698
13390000000 -14.375688 115.81477 -200 45 -20.316347 -41.05135 -12.159156 -147.12411
13400000000 -13.756219 117.7393 -200 45 -20.334299 -107.94608 -10.950504 -162.81784
13410000000 -13.151413 118.91015 -200 45 -20.316326 -173.92883 -11.439117 -176.28323
13420000000 -12.15595 119.21594 -200 45 -20.279747 119.05499 -12.894669 177.70479
13430000000 -11.477304 113.35781 -200 45 -20.323267 52.144112 -14.50212 -176.63268
13440000000 -11.321548 107.69199 -200 45 -20.524935 -14.742014 -13.517208 -164.82999
13450000000 -11.506589 101.08727 -200 45 -20.566784 -80.416832 -11.297446 -169.48241
13460000000 -12.450028 95.223015 -200 45 -20.604719 -145.97472 -10.847976 174.77135
13470000000 -13.782529 95.924164 -200 45 -20.481037 148.16908 -12.268634 161.72714
13480000000 -14.554498 99.893242 -200 45 -20.371569 81.290115 -14.835081 158.79836
13490000000 -15.011669 105.93298 -200 45 -20.422594 13.965005 -17.903265 169.26627
13500000000 -14.885365 111.9446 -200 45 -20.540207 -52.305962 -16.654009 -158.14937
13510000000 -14.193999 117.44741 -200 45 -20.638315 -119.57039 -12.637316 -159.18796
13520000000 -13.435372 119.05143 -200 45 -20.785105 175.72206 -11.419588 -174.96593
13530000000 -12.289078 117.84499 -200 45 -20.7568 109.7618 -11.993067 175.20264
13540000000 -11.801189 111.49648 -200 45 -20.68173 44.237873 -12.853617 171.45738
13550000000 -11.911198 105.75619 -200 45 -20.613153 -22.503088 -13.782268 171.79536
13560000000 -12.341645 102.19883 -200 45 -20.628008 -89.125893 -13.701882 179.97346
13570000000 -13.081302 99.659988 -200 45 -20.82522 -155.34041 -12.264534 178.4216
13580000000 -13.683511 103.47868 -200 45 -20.736198 139.718 -11.799768 168.07475
13590000000 -13.746044 105.2912 -200 45 -20.698885 74.015625 -12.788521 158.57567
13600000000 -13.802791 106.02262 -200 45 -20.475513 7.8952913 -14.730186 155.15819
13610000000 -14.065319 109.09042 -200 45 -20.380201 -59.57832 -16.895077 164.92854
13620000000 -13.919754 112.41607 -200 45 -20.428896 -127.16803 -16.373974 -174.60182
13630000000 -13.354869 117.3222 -200 45 -20.606827 166.5504 -13.658188 -169.33565
13640000000 -12.387257 116.87313 -200 45 -20.738419 100.79348 -11.784363 -178.88058
13650000000 -11.673973 113.25555 -200 45 -20.735683 36.205868 -11.774952 168.59972
13660000000 -11.57442 109.18253 -200 45 -20.575872 -30.265457 -12.870089 164.06509
13670000000 -11.52523 105.00095 -200 45 -20.490362 -96.734581 -13.156387 165.91222
13680000000 -11.90715 101.66187 -200 45 -20.487041 -163.09348 -13.201272 164.88341
13690000000 -12.393787 101.10675 -200 45 -20.444201 130.42715 -13.053736 166.60793
13700000000 -12.555503 101.09831 -200 45 -20.504198 64.399544 -12.130416 162.24405
13710000000 -13.181343 101.02568 -200 45 -20.379768 -1.4270966 -12.473281 149.96095
13720000000 -13.295105 104.97771 -200 45 -20.295486 -68.366127 -14.872776 144.91512
13730000000 -13.19699 107.95301 -200 45 -20.197735 -135.13792 -16.707048 158.37245
13740000000 -12.773942 110.18647 -200 45 -20.203316 157.53903 -15.988622 174.04529
13750000000 -12.098257 110.01358 -200 45 -20.283669 90.467697 -13.741717 179.87851
13760000000 -11.781309 107.2001 -200 45 -20.495295 24.272356 -11.855873 171.03108
13770000000 -11.612556 105.79284 -200 45 -20.501812 -41.325031 -11.932832 159.88995
13780000000 -11.343778 103.48863 -200 45 -20.47286 -107.22054 -12.760597 156.44647
13790000000 -11.213482 98.95443 -200 45 -20.420998 -173.78523 -12.874415 156.04683
13800000000 -11.395379 96.332146 -200 45 -20.408964 119.69046 -13.115859 154.79337
13810000000 -11.66768 91.450554 -200 45 -20.439249 53.270588 -12.945993 155.04236
13820000000 -12.532776 89.314743 -200 45 -20.505142 -13.195508 -12.529432 150.36455
13830000000 -13.553378 91.928429 -200 45 -20.52755 -78.886749 -13.200195 140.63718
13840000000 -13.695781 97.39463 -200 45 -20.457981 -145.20911 -15.677016 137.08682
13850000000 -13.395069 103.56247 -200 45 -20.397747 147.66415 -17.527266 157.77621
13860000000 -12.406384 104.54173 -200 45 -20.557152 80.996864 -15.221688 169.97043
13870000000 -11.73875 102.49757 -200 45 -20.568104 14.88734 -13.895581 166.76988
13880000000 -11.389376 99.292862 -200 45 -20.827744 -51.678726 -13.192149 164.42328
13890000000 -10.986701 95.427696 -200 45 -20.852709 -116.48122 -12.590401 158.55789
13900000000 -11.108076 90.472534 -200 45 -20.885181 177.55269 -13.018139 152.4861
13910000000 -11.314299 86.686729 -200 45 -20.807644 112.21917 -13.497543 153.79909
13920000000 -11.68426 83.629303 -200 45 -20.7355 45.905857 -12.869506 153.50209
13930000000 -12.499681 80.411041 -200 45 -20.721354 -20.469542 -12.918491 146.40573
13940000000 -13.380009 84.177391 -200 45 -20.748856 -86.909439 -13.627419 142.93538
13950000000 -13.756262 88.082848 -200 45 -20.803778 -152.67508 -14.256563 139.63635
13960000000 -13.586892 94.581093 -200 45 -20.705669 141.03638 -16.266722 138.48088
13970000000 -12.790463 98.424774 -200 45 -20.721752 74.515663 -16.911861 156.51503
13980000000 -11.810103 98.322517 -200 45 -20.787806 8.1462593 -15.082808 160.82076
13990000000 -11.07667 96.137383 -200 45 -20.847769 -57.632187 -14.944889 158.17694
14000000000 -10.422338 90.608284 -200 45 -20.891924 -123.87257 -14.235327 162.45187
14010000000 -10.378201 83.958267 -200 45 -21.014889 170.93097 -13.163312 158.82668
14020000000 -10.769829 78.368576 -200 45 -20.857651 105.58367 -12.911055 152.03256
14030000000 -11.427256 74.302666 -200 45 -20.787661 39.466167 -12.947842 148.61104
14040000000 -12.608722 72.809921 -200 45 -20.704502 -26.401703 -12.973343 143.84544
14050000000 -13.592334 76.996201 -200 45 -20.616289 -92.486832 -13.443212 138.24768
14060000000 -13.57129 85.016487 -200 45 -20.588491 -159.30447 -14.463454 135.79776
14070000000 -13.047735 89.815804 -200 45 -20.538382 134.7253 -15.434889 138.46638
14080000000 -12.286317 91.5345 -200 45 -20.426622 67.938736 -15.470356 143.40016
14090000000 -11.469948 91.773705 -200 45 -20.442739 1.3490187 -15.488012 142.54167
14100000000 -10.598657 88.815071 -200 45 -20.449398 -64.984131 -16.295979 146.38211
14110000000 -9.9444046 82.884621 -200 45 -20.509466 -131.44746 -15.633011 155.52254
14120000000 -10.067768 74.54258 -200 45 -20.490673 162.49518 -14.659847 156.26874
14130000000 -10.661895 69.785713 -200 45 -20.509228 96.397278 -13.488631 157.02145
14140000000 -11.272968 67.656082 -200 45 -20.458033 30.469126 -12.082571 148.84744
14150000000 -12.062387 65.278725 -200 45 -20.369606 -35.44231 -12.287773 135.15419
14160000000 -12.904135 68.341141 -200 45 -20.316074 -102.3874 -13.70035 130.11217
14170000000 -13.404823 73.021317 -200 45 -20.364265 -168.80017 -14.521646 130.06468
14180000000 -12.960674 80.102921 -200 45 -20.289516 125.02818 -15.481626 129.65378
14190000000 -11.936996 82.209175 -200 45 -20.267542 58.043488 -16.082602 137.91312
14200000000 -11.083522 79.311188 -200 45 -20.375811 -8.2758684 -15.119314 138.36432
14210000000 -10.618417 75.6381 -200 45 -20.32164 -74.206276 -15.756043 131.30986
14220000000 -10.260742 71.068169 -200 45 -20.367952 -140.92764 -17.634998 138.12476
14230000000 -10.146386 65.183075 -200 45 -20.354862 152.75487 -17.037287 153.02321
14240000000 -10.538777 58.787521 -200 45 -20.433733 86.17083 -15.122864 157.78682
14250000000 -11.320293 55.350903 -200 45 -20.464785 20.519976 -13.215747 153.76321
14260000000 -12.255821 54.286873 -200 45 -20.466242 -45.508125 -12.227772 141.1734
14270000000 -12.870328 58.580627 -200 45 -20.473331 -111.65224 -12.770926 128.35194
14280000000 -12.83767 60.90736 -200 45 -20.422619 -177.43639 -14.368304 122.0806
14290000000 -13.034744 63.996647 -200 45 -20.377544 115.50887 -15.80495 123.87546
14300000000 -12.438903 67.911049 -200 45 -20.446438 49.495689 -16.345263 130.20656
14310000000 -11.562992 67.517334 -200 45 -20.455845 -17.007231 -16.018103 132.54565
14320000000 -10.957839 64.287987 -200 45 -20.502073 -83.188072 -15.849686 130.96101
14330000000 -10.699874 58.729588 -200 45 -20.600458 -149.2869 -16.245142 126.01453
14340000000 -10.818309 54.350208 -200 45 -20.575386 145.03407 -18.439791 124.04174
14350000000 -11.000925 50.577003 -200 45 -20.622761 78.852097 -19.690945 153.19928
14360000000 -11.406294 47.067875 -200 45 -20.611794 13.260317 -15.385343 159.84462
14370000000 -12.086991 44.453812 -200 45 -20.592491 -52.390087 -13.729077 146.75311
14380000000 -12.916496 46.195518 -200 45 -20.491915 -118.75954 -13.51178 137.65878
14390000000 -13.137456 50.164467 -200 45 -20.512518 175.18098 -13.248693 127.40981
14400000000 -13.020117 52.400055 -200 45 -20.493826 108.78909 -14.523492 114.25869
14410000000 -12.781314 54.857613 -200 45 -20.445366 43.475109 -17.230284 114.61777
14420000000 -12.301213 55.527542 -200 45 -20.2876 -23.548553 -17.416105 126.50909
14430000000 -11.719917 55.54063 -200 45 -20.347092 -89.961998 -17.268791 126.67675
14440000000 -11.00412 51.935593 -200 45 -20.395367 -156.24805 -17.063776 127.37437
14450000000 -10.838756 45.95874 -200 45 -20.379452 137.60863 -17.171663 120.41387
14460000000 -11.070298 41.857082 -200 45 -20.346123 71.750954 -20.298527 116.49102
14470000000 -11.363842 38.206791 -200 45 -20.285528 5.0322151 -21.069866 154.5356
14480000000 -11.773179 36.402996 -200 45 -20.331734 -61.087067 -16.425816 157.99767
14490000000 -12.158027 34.223343 -200 45 -20.290607 -127.17963 -14.84528 145.76172
14500000000 -12.89016 34.03709 -200 45 -20.309452 166.55634 -14.122967 136.08171
14510000000 -13.376727 37.811203 -200 45 -20.271143 100.30164 -13.747034 123.30741
14520000000 -13.142091 42.530258 -200 45 -20.204098 34.307503 -14.883111 106.47323
14530000000 -12.489803 43.349018 -200 45 -20.19565 -32.716648 -18.236259 99.476883
14540000000 -12.105354 42.482834 -200 45 -20.15382 -98.955788 -20.598867 120.63774
14550000000 -11.549748 41.615379 -200 45 -20.184418 -165.7821 -18.380842 128.51617
14560000000 -10.96198 37.273651 -200 45 -20.291256 127.72945 -17.824873 118.19599
14570000000 -10.770468 31.515736 -200 45 -20.35071 62.286026 -19.519409 110.45212
14580000000 -11.099291 25.284199 -200 45 -20.246376 -4.0777283 -22.118069 116.00538
14590000000 -11.754704 21.60335 -200 45 -20.29299 -69.921371 -23.30348 144.54027
14600000000 -12.389309 20.402697 -200 45 -20.190441 -136.57341 -19.035151 161.02736
14610000000 -12.945103 19.256184 -200 45 -20.269377 157.14821 -15.546784 149.49837
14620000000 -13.995288 21.367945 -200 45 -20.1824 90.623009 -14.323446 130.19469
14630000000 -14.298673 27.795662 -200 45 -20.262045 24.20458 -14.613654 111.55317
14640000000 -13.709369 34.231831 -200 45 -20.303055 -42.09034 -16.349207 93.747307
14650000000 -12.714342 34.929871 -200 45 -20.277109 -108.28709 -20.507551 83.754593
14660000000 -12.032335 31.807976 -200 45 -20.394602 -175.14313 -23.948139 118.02735
14670000000 -11.56967 28.14279 -200 45 -20.475847 119.52975 -19.778032 125.23686
14680000000 -11.288693 22.773289 -200 45 -20.439741 53.415989 -19.16637 106.36446
14690000000 -11.299817 16.682068 -200 45 -20.479639 -12.233967 -21.652433 93.850327
14700000000 -11.834042 9.6631975 -200 45 -20.424187 -78.48185 -26.779943 94.533272
14710000000 -12.969707 5.9473348 -200 45 -20.440292 -144.74245 -28.41754 163.53114
14720000000 -14.22423 6.7353945 -200 45 -20.474239 149.34735 -19.934938 170.13
14730000000 -14.949714 12.030797 -200 45 -20.449961 83.012634 -16.257603 148.24217
14740000000 -15.240385 18.354628 -200 45 -20.449781 17.644886 -14.998073 122.61842
14750000000 -14.854774 23.898043 -200 45 -20.354492 -49.017838 -15.836878 96.123322
14760000000 -14.055676 27.995623 -200 45 -20.412851 -115.40765 -19.417616 73.025314
14770000000 -12.79792 27.2208 -200 45 -20.467615 178.44461 -25.545645 82.408775
14780000000 -11.953013 20.729837 -200 45 -20.463358 112.34942 -25.243315 115.08076
14790000000 -11.823474 13.587546 -200 45 -20.540968 46.694649 -22.53923 117.21378
14800000000 -12.111334 6.760283 -200 45 -20.477253 -18.859966 -21.133297 99.660004
14810000000 -12.687576 1.7671177 -200 45 -20.37822 -84.806938 -23.53727 65.784554
14820000000 -13.596636 -3.4581916 -200 45 -20.306791 -151.72182 -39.530251 -18.25305
14830000000 -15.19954 -4.6703749 -200 45 -20.379305 141.96294 -24.856157 -166.04288
14840000000 -16.615026 3.6004562 -200 45 -20.377457 76.052757 -19.815645 164.87685
14850000000 -16.480663 14.334373 -200 45 -20.36171 10.012761 -17.24881 140.01944
14860000000 -15.467408 20.243193 -200 45 -20.34314 -56.297695 -16.394903 109.6861
14870000000 -14.719795 20.187662 -200 45 -20.399042 -122.04637 -18.007994 77.34034
14880000000 -13.713075 21.55138 -200 45 -20.274996 171.82239 -23.241667 51.231056
14890000000 -12.568385 16.477772 -200 45 -20.328018 105.23775 -30.566795 74.254166
14900000000 -12.015351 7.1027541 -200 45 -20.324041 39.691505 -28.785099 102.31737
14910000000 -12.431235 -2.1938183 -200 45 -20.233833 -26.303839 -27.086418 98.650665
14920000000 -13.406939 -9.1180372 -200 45 -20.171597 -92.663254 -26.360081 75.985535
14930000000 -14.5551 -10.831957 -200 45 -20.123415 -158.95923 -29.5396 20.165636
14940000000 -15.639111 -11.004944 -200 45 -20.093674 134.53636 -29.19179 -96.249207
14950000000 -16.725988 -7.7817206 -200 45 -20.042852 67.751877 -23.178135 -162.26546
14960000000 -17.393742 1.1212204 -200 45 -20.14481 1.4944733 -20.997232 158.74088
14970000000 -16.723331 9.1138411 -200 45 -20.099283 -64.585609 -20.389141 130.77414
14980000000 -15.419972 11.21207 -200 45 -20.069576 -130.89072 -20.213345 103.52444
14990000000 -14.753379 7.6761537 -200 45 -20.099192 162.40724 -21.442772 68.471359
15000000000 -13.964346 4.480247 -200 45 -20.125402 96.897057 -25.950466 28.183102
15010000000 -13.588294 -2.990356 -200 45 -20.058598 29.99785 -39.280987 7.7682157
15020000000 -13.806995 -11.653472 -200 45 -20.140684 -35.874989 -35.120171 64.960556
15030000000 -14.54487 -18.587345 -200 45 -20.104702 -102.1105 -33.588406 5.4415426
15040000000 -16.098145 -23.30455 -200 45 -20.02252 -168.25119 -33.085121 -59.083126
15050000000 -17.261515 -18.315008 -200 45 -20.073097 124.85181 -30.780172 -85.722046
15060000000 -17.687452 -15.445493 -200 45 -20.103119 59.188065 -25.685421 -112.15888
15070000000 -17.9484 -12.867596 -200 45 -20.054356 -6.7522516 -22.393787 -147.85825
15080000000 -18.470686 -8.2145824 -200 45 -19.930698 -73.38369 -21.85508 172.89481
15090000000 -17.775341 -0.99920887 -200 45 -19.921656 -140.33757 -23.463299 141.2386
15100000000 -16.493107 -1.4556532 -200 45 -19.997475 153.18481 -25.376957 112.17086
15110000000 -15.769382 -7.307209 -200 45 -20.024622 86.74987 -26.946264 69.91729
15120000000 -15.60074 -14.430805 -200 45 -20.101503 20.373329 -28.694551 -0.69828832
15130000000 -16.096584 -20.322714 -200 45 -20.109043 -45.413292 -30.017647 -65.754005
15140000000 -16.413782 -23.187212 -200 45 -20.071236 -111.57101 -32.482647 -84.506721
15150000000 -16.765713 -28.507746 -200 45 -20.075531 -178.06003 -28.16394 -76.205833
15160000000 -17.860233 -32.607502 -200 45 -20.127701 115.42175 -25.421007 -98.39193
15170000000 -18.666815 -30.760778 -200 45 -20.175434 49.486877 -24.867184 -106.69089
15180000000 -19.314976 -29.858677 -200 45 -20.178598 -16.733643 -22.132681 -111.49754
15190000000 -19.721807 -27.453804 -200 45 -20.196854 -82.888535 -19.806145 -136.42732
15200000000 -20.017746 -23.567993 -200 45 -20.204546 -148.74896 -20.107866 -166.95663
15210000000 -19.64061 -18.037653 -200 45 -20.153004 144.91788 -22.878395 162.34427
15220000000 -18.440405 -18.736935 -200 45 -20.217566 78.284943 -28.713354 129.25801
15230000000 -17.793768 -24.463852 -200 45 -20.221312 12.352736 -39.123291 13.726597
15240000000 -17.632681 -32.561222 -200 45 -20.188871 -54.003868 -29.024435 -61.855812
15250000000 -18.196276 -37.074955 -200 45 -20.290487 -120.71276 -24.763462 -84.502708
15260000000 -18.100664 -42.463947 -200 45 -20.346121 173.78009 -23.228683 -100.76669
15270000000 -18.616682 -51.742706 -200 45 -20.362234 107.67329 -23.271774 -109.14606
15280000000 -19.932327 -58.669098 -200 45 -20.299974 42.114357 -22.448513 -103.46398
15290000000 -21.917448 -63.681583 -200 45 -20.275793 -24.503859 -20.017366 -107.12462
15300000000 -24.795097 -56.232906 -200 45 -20.21726 -90.602417 -18.322395 -122.18034
15310000000 -24.898716 -40.372906 -200 45 -20.244413 -157.45099 -18.048239 -139.54489
15320000000 -24.151159 -30.012562 -200 45 -20.308205 136.20824 -19.032753 -158.43369
15330000000 -22.822929 -24.525009 -200 45 -20.379698 70.190956 -22.530903 -173.80626
