!Keysight Technologies,P9374A,MY57211810,A.19.30.04
!Date: Friday, May 02, 2025 09:02:27
!Correction: S11(Off) 
!S21(Off) 
!S12(Off) 
!S22(Off) 
!S2P File: Measurements: S11, S21, S12, S22:
# Hz S  dB   R 50
13000000000 -12.067434 109.02251 -200 45 -39.885284 -79.524498 -13.070562 -174.66241
13010000000 -13.30623 106.70562 -200 45 -39.290623 -147.40434 -18.25432 -175.13081
13020000000 -14.155512 108.06608 -200 45 -39.15583 144.3799 -19.756186 -120.17825
13030000000 -14.672313 110.55529 -200 45 -39.380615 75.708221 -13.664065 -113.03458
13040000000 -15.003653 111.3554 -200 45 -39.410625 9.8247032 -10.994233 -129.43089
13050000000 -15.882679 115.0246 -200 45 -39.458382 -56.509941 -10.718023 -147.56955
13060000000 -15.834811 127.1422 -200 45 -39.537182 -122.48775 -12.328826 -160.76979
13070000000 -13.969706 133.09103 -200 45 -39.526314 170.52138 -15.25642 -159.35719
13080000000 -12.367768 128.17569 -200 45 -39.420876 105.05647 -15.668938 -137.20932
13090000000 -11.698371 119.47272 -200 45 -39.39027 39.051655 -12.792992 -132.23537
13100000000 -11.828787 111.37939 -200 45 -39.019993 -29.986956 -11.039372 -143.78944
13110000000 -12.448871 106.2328 -200 45 -39.393349 -99.15728 -11.029403 -160.72141
13120000000 -13.007266 105.31738 -200 45 -39.646877 -164.85703 -13.275412 -177.1208
13130000000 -13.136678 104.44186 -200 45 -40.006535 129.55109 -18.963249 -173.27211
13140000000 -13.345681 99.159225 -200 45 -40.219723 63.26807 -18.268476 -120.184
13150000000 -14.805202 94.664162 -200 45 -40.250023 0.71090418 -13.086723 -118.8143
13160000000 -16.923595 102.50101 -200 45 -39.994259 -64.56414 -10.703069 -133.62062
13170000000 -16.468384 121.92464 -200 45 -39.406658 -131.17133 -10.268255 -151.20044
13180000000 -14.222238 126.60715 -200 45 -39.724823 159.49796 -11.711147 -166.31883
13190000000 -12.792812 120.92294 -200 45 -39.990669 93.428307 -14.920703 -166.74791
13200000000 -12.425807 114.13282 -200 45 -40.042419 28.079311 -15.373432 -142.53339
13210000000 -12.559951 109.37748 -200 45 -39.98082 -38.481022 -12.360238 -139.45003
13220000000 -12.633944 108.34965 -200 45 -40.136105 -103.75465 -10.841289 -152.38623
13230000000 -12.340397 105.6299 -200 45 -40.126526 -167.77145 -11.063858 -169.06488
13240000000 -12.24963 98.976563 -200 45 -39.791931 125.92386 -13.412899 175.41289
13250000000 -13.33601 90.814232 -200 45 -39.540863 60.077614 -19.228094 179.33688
13260000000 -15.57083 90.642197 -200 45 -39.449768 -7.6752858 -18.321852 -124.48434
13270000000 -17.118593 106.27238 -200 45 -39.59108 -76.003853 -12.807505 -126.40282
13280000000 -15.87265 121.77113 -200 45 -39.906307 -141.77008 -10.696214 -143.47134
13290000000 -13.979413 124.41855 -200 45 -39.742004 156.21507 -10.652079 -160.32471
13300000000 -12.783206 120.55119 -200 45 -39.052757 88.920471 -12.162124 -171.78896
13310000000 -12.383097 115.77319 -200 45 -39.156338 19.20661 -14.514484 -169.18527
13320000000 -12.248454 113.61678 -200 45 -39.434677 -46.217854 -14.249887 -152.95816
13330000000 -11.838801 111.15831 -200 45 -39.205814 -111.81863 -11.853209 -153.56691
13340000000 -11.47738 105.6741 -200 45 -38.962238 -179.38625 -10.787634 -167.69775
13350000000 -11.848323 97.806503 -200 45 -38.772392 113.18887 -11.619804 175.46855
13360000000 -13.215796 92.204041 -200 45 -38.85965 45.386341 -14.747528 164.77455
13370000000 -15.224784 96.047691 -200 45 -39.032299 -21.10565 -19.162222 -175.18295
13380000000 -15.929378 110.15267 -200 45 -38.74762 -89.050499 -16.173811 -142.11433
13390000000 -14.704415 120.86668 -200 45 -39.133053 -156.24515 -12.425693 -146.763
13400000000 -13.204487 121.69424 -200 45 -39.324547 137.12373 -10.923313 -161.60089
13410000000 -12.351201 117.35134 -200 45 -39.338013 72.768669 -11.204898 -176.33667
13420000000 -12.295396 113.8793 -200 45 -39.19183 6.9272914 -13.025351 176.06364
13430000000 -12.012962 113.31549 -200 45 -38.835289 -60.52066 -14.600363 -174.45476
13440000000 -11.47788 109.77216 -200 45 -38.996944 -130.74261 -13.205187 -165.261
13450000000 -11.390471 102.61382 -200 45 -39.571388 162.55797 -11.541601 -170.94673
13460000000 -12.115376 95.718933 -200 45 -39.771736 99.065559 -11.021531 176.6286
13470000000 -13.499645 93.071136 -200 45 -39.59013 35.598629 -11.906466 162.79926
13480000000 -15.033587 96.914482 -200 45 -39.426277 -31.129148 -14.736683 154.3833
13490000000 -15.668286 109.56187 -200 45 -39.057003 -97.746223 -18.564047 173.33972
13500000000 -14.434798 117.18087 -200 45 -39.024891 -167.59767 -15.936958 -158.60242
13510000000 -13.438742 116.02367 -200 45 -39.256184 124.62283 -12.907729 -162.11447
13520000000 -13.228154 113.88542 -200 45 -39.726929 58.417538 -11.697654 -172.55519
13530000000 -13.008457 114.63044 -200 45 -39.784977 -6.5967174 -11.678826 176.47557
13540000000 -12.405493 114.35117 -200 45 -39.743767 -70.981949 -12.800572 169.17528
13550000000 -11.882841 110.11884 -200 45 -39.706013 -138.20145 -14.094404 172.6389
13560000000 -11.834146 104.41629 -200 45 -39.774834 156.47647 -13.510108 -179.71074
13570000000 -12.348066 98.670036 -200 45 -39.674652 89.387817 -12.263269 177.51135
13580000000 -13.584063 96.332405 -200 45 -39.887058 23.852564 -11.944805 168.5817
13590000000 -14.794962 103.24407 -200 45 -39.74649 -40.531673 -12.677909 159.34277
13600000000 -14.293561 112.06691 -200 45 -39.473812 -107.40266 -14.58091 154.10796
13610000000 -13.475024 112.67417 -200 45 -39.577057 -175.265 -17.170485 164.41151
13620000000 -13.307558 110.76371 -200 45 -39.495411 120.32501 -16.267473 -172.6257
13630000000 -13.432994 113.16129 -200 45 -39.193993 54.695522 -13.453583 -170.71307
13640000000 -12.871996 116.48286 -200 45 -39.076054 -15.043301 -12.079646 -179.9427
13650000000 -11.876288 115.88788 -200 45 -39.316254 -83.630203 -11.927938 170.89603
13660000000 -11.219732 110.62043 -200 45 -39.821346 -148.36745 -12.403091 164.17067
13670000000 -11.222975 103.56858 -200 45 -39.506935 147.63391 -13.324158 162.60283
13680000000 -12.003958 98.858093 -200 45 -39.381161 80.316864 -13.533788 167.19717
13690000000 -12.925824 100.6425 -200 45 -39.523514 11.788751 -12.637634 167.59904
13700000000 -12.857842 105.21986 -200 45 -39.678871 -53.945366 -12.106124 160.03029
13710000000 -12.436337 104.3542 -200 45 -39.643738 -119.08537 -12.820097 150.41992
13720000000 -12.730442 100.76238 -200 45 -39.351299 175.47655 -14.655034 146.75526
13730000000 -13.615021 103.31486 -200 45 -39.360859 107.37334 -16.640051 156.07808
13740000000 -13.42656 110.91774 -200 45 -39.596264 40.286446 -16.158752 174.79184
13750000000 -12.336604 113.81432 -200 45 -39.547707 -25.046137 -13.60669 179.17857
13760000000 -11.383048 110.78833 -200 45 -39.418861 -90.624832 -12.023945 171.11421
13770000000 -10.920606 104.47771 -200 45 -39.237732 -159.03732 -11.85568 161.0537
13780000000 -11.252608 98.509743 -200 45 -39.330849 133.29237 -12.580134 155.50044
13790000000 -11.854989 97.474236 -200 45 -39.608273 66.35247 -13.117368 155.39075
13800000000 -11.801811 98.467323 -200 45 -39.64381 -0.41694257 -13.132694 156.05006
13810000000 -11.557363 95.234253 -200 45 -39.738762 -66.631866 -12.777463 155.33423
13820000000 -12.017813 89.562035 -200 45 -39.951569 -131.99843 -12.531671 148.87999
13830000000 -13.320318 88.76001 -200 45 -39.703819 163.15991 -13.440281 140.3089
13840000000 -14.090778 96.445992 -200 45 -39.851757 95.059868 -15.607835 139.85262
13850000000 -13.595078 104.05988 -200 45 -40.000763 27.296213 -17.061735 155.03444
13860000000 -12.430612 106.55186 -200 45 -40.142906 -37.233669 -15.722249 168.88153
13870000000 -11.422775 103.07242 -200 45 -40.354404 -101.90339 -13.915933 169.60689
13880000000 -11.154765 96.90358 -200 45 -40.037384 -168.05 -12.875756 163.89479
13890000000 -11.398243 93.491432 -200 45 -40.012089 125.54132 -12.734537 157.08739
13900000000 -11.443227 92.55986 -200 45 -40.074142 57.91935 -13.175066 153.45378
13910000000 -11.126995 89.526772 -200 45 -40.101383 -7.3941998 -13.350432 154.02155
13920000000 -11.288058 83.553024 -200 45 -40.059826 -73.680367 -12.97796 152.74315
13930000000 -12.181961 78.753654 -200 45 -39.922157 -140.40591 -12.880032 147.26367
13940000000 -13.573461 79.588432 -200 45 -40.016376 151.79489 -13.471519 141.79889
13950000000 -14.544683 88.737999 -200 45 -40.230679 84.414688 -14.596401 139.24019
13960000000 -13.765588 99.748337 -200 45 -40.411854 19.452265 -15.966139 142.10155
13970000000 -12.123979 101.26012 -200 45 -40.412159 -46.725243 -16.67662 152.42772
13980000000 -11.219191 95.886894 -200 45 -40.565716 -113.86676 -15.809034 160.80885
13990000000 -11.099107 90.913879 -200 45 -40.597622 -179.71875 -14.67482 162.15028
14000000000 -11.162804 89.129456 -200 45 -40.970959 114.87537 -13.904759 159.72188
14010000000 -10.835442 87.248383 -200 45 -40.847805 51.170288 -13.533681 157.16104
14020000000 -10.564999 82.242294 -200 45 -40.828686 -14.134817 -13.002508 154.63295
14030000000 -10.883008 75.296066 -200 45 -40.699627 -80.77021 -12.657347 148.52074
14040000000 -12.027978 70.231361 -200 45 -40.570057 -146.45326 -13.002732 142.3447
14050000000 -13.743377 72.44194 -200 45 -40.530537 146.93143 -13.65031 138.8972
14060000000 -14.563303 85.895241 -200 45 -40.190277 80.649727 -14.390182 136.68098
14070000000 -13.020227 95.850067 -200 45 -40.347309 12.460073 -15.298526 137.80721
14080000000 -11.470385 93.205589 -200 45 -40.560204 -53.862362 -15.579675 142.46431
14090000000 -10.993507 87.443726 -200 45 -40.390499 -120.42009 -15.567306 143.57251
14100000000 -10.994644 84.687279 -200 45 -40.678635 171.66292 -16.121778 146.28929
14110000000 -10.696003 83.390465 -200 45 -40.806374 105.63583 -15.884154 154.43582
14120000000 -10.244483 79.406174 -200 45 -41.162735 40.568806 -14.594382 158.29453
14130000000 -10.094337 72.633728 -200 45 -41.193165 -24.102285 -13.272252 155.52061
14140000000 -10.66041 65.219154 -200 45 -41.113152 -86.583961 -12.405134 147.98888
14150000000 -12.023973 60.52351 -200 45 -40.663658 -153.20686 -12.33708 137.80716
14160000000 -13.850091 65.747467 -200 45 -40.598583 140.00388 -13.278267 129.15698
14170000000 -13.78014 79.441391 -200 45 -40.333031 71.690857 -14.795529 127.38773
14180000000 -12.303223 83.331909 -200 45 -40.439774 4.7221079 -15.737834 132.94868
14190000000 -11.383628 79.471687 -200 45 -40.664642 -62.74324 -15.521405 137.55322
14200000000 -11.18726 75.938034 -200 45 -40.73238 -126.81939 -15.349336 135.89348
14210000000 -11.059264 74.43029 -200 45 -40.749493 166.65424 -16.046106 133.5022
14220000000 -10.630694 72.952896 -200 45 -40.555729 102.861 -17.211815 137.94075
14230000000 -10.10509 67.999046 -200 45 -40.200031 33.498798 -17.268036 151.39426
14240000000 -10.102479 60.231369 -200 45 -40.49548 -35.041012 -15.148437 159.2504
14250000000 -10.86346 52.865074 -200 45 -40.939011 -100.56331 -13.080672 153.10768
14260000000 -12.432561 50.314304 -200 45 -40.998051 -164.52083 -12.323388 140.718
14270000000 -13.654348 58.174858 -200 45 -40.82798 129.37335 -12.857948 129.20366
14280000000 -13.083877 66.529846 -200 45 -40.962067 62.708649 -14.184546 122.56409
14290000000 -12.19418 66.120049 -200 45 -40.96357 -2.6639562 -15.756168 122.59321
14300000000 -12.022032 63.991013 -200 45 -40.902481 -68.357819 -16.659168 130.0233
14310000000 -11.945372 64.208366 -200 45 -40.759609 -133.27153 -15.909264 134.98143
14320000000 -11.50218 64.774307 -200 45 -40.639091 160.49866 -15.434843 129.35718
14330000000 -10.804185 62.244328 -200 45 -40.301281 91.208702 -16.633326 122.62989
14340000000 -10.398186 56.168095 -200 45 -40.74025 22.746628 -18.961079 129.98825
14350000000 -10.607537 48.880104 -200 45 -41.086063 -41.429321 -18.506552 150.21559
14360000000 -11.502882 43.839417 -200 45 -40.914646 -106.96961 -16.052547 156.32773
14370000000 -12.583388 44.353371 -200 45 -40.978764 -172.20866 -14.003904 150.91327
14380000000 -13.004452 48.703537 -200 45 -40.729774 121.15199 -12.954524 138.47716
14390000000 -12.902007 51.167057 -200 45 -41.029289 53.704788 -13.329357 124.16884
14400000000 -12.792388 52.024345 -200 45 -41.184952 -12.661635 -14.986243 115.08757
14410000000 -12.714961 53.052296 -200 45 -41.278 -76.277367 -16.834063 116.6397
14420000000 -12.483418 54.848564 -200 45 -41.040756 -140.14969 -17.485718 123.95168
14430000000 -11.883527 55.626648 -200 45 -40.830429 152.55737 -17.205265 128.09256
14440000000 -11.144946 53.333218 -200 45 -40.740192 86.854843 -16.875706 126.27812
14450000000 -10.625709 47.838428 -200 45 -40.65752 19.16927 -17.639416 119.56071
14460000000 -10.688093 40.651268 -200 45 -40.660484 -47.405884 -20.251392 122.07698
14470000000 -11.41235 35.455715 -200 45 -40.646114 -111.58327 -20.605722 148.1929
14480000000 -12.222494 35.369324 -200 45 -40.267883 -179.55154 -17.26091 157.45242
14490000000 -12.511483 37.137119 -200 45 -40.336136 112.48474 -14.757902 149.44757
14500000000 -12.483294 37.354187 -200 45 -40.459011 45.003201 -13.618995 135.28723
14510000000 -12.696271 35.676361 -200 45 -40.724903 -21.048796 -13.840595 120.17432
14520000000 -13.34451 37.191235 -200 45 -40.773685 -87.118851 -15.347776 107.8588
14530000000 -13.317411 43.732956 -200 45 -40.590515 -153.49217 -18.022488 103.59109
14540000000 -12.203039 47.429688 -200 45 -40.561016 140.7252 -20.068933 116.93011
14550000000 -10.938798 43.420338 -200 45 -40.845154 72.755043 -18.942766 127.03604
14560000000 -10.501122 34.623253 -200 45 -40.959679 7.7389288 -18.09359 120.9869
14570000000 -10.993953 27.297661 -200 45 -40.766266 -56.589062 -19.121847 111.46729
14580000000 -11.778233 25.265661 -200 45 -40.670345 -122.98368 -21.965696 112.40491
14590000000 -11.973999 25.849192 -200 45 -40.472893 170.71326 -23.640938 143.20625
14600000000 -11.884463 23.194693 -200 45 -40.35508 101.74587 -18.986412 162.07739
14610000000 -12.391599 17.4487 -200 45 -40.340836 34.616165 -15.392318 149.92822
14620000000 -13.945496 16.004038 -200 45 -40.667107 -30.446371 -14.193916 130.05284
14630000000 -15.197966 26.880178 -200 45 -40.508804 -100.29467 -14.725994 110.2908
14640000000 -14.038451 39.16346 -200 45 -40.89735 -167.19579 -16.72558 93.989021
14650000000 -12.191144 38.261734 -200 45 -41.341431 128.17682 -20.324732 88.119019
14660000000 -11.343846 30.161333 -200 45 -41.331902 62.949162 -23.283878 109.66792
14670000000 -11.566855 23.147093 -200 45 -41.389351 -2.261786 -20.736471 124.5087
14680000000 -11.952027 21.129562 -200 45 -41.104927 -66.71331 -19.085888 112.38589
14690000000 -11.811399 19.693075 -200 45 -41.050991 -133.59227 -20.534109 93.052361
14700000000 -11.65745 14.398458 -200 45 -41.099182 159.67639 -27.323748 85.208191
14710000000 -12.151746 6.6840277 -200 45 -41.105255 92.197685 -27.657265 175.12578
14720000000 -13.730148 1.3595098 -200 45 -41.421288 26.117338 -19.64872 168.68785
14730000000 -15.770683 6.7052984 -200 45 -41.602486 -38.895065 -16.398354 146.85323
14740000000 -16.150864 22.518543 -200 45 -41.448307 -101.22895 -15.256334 122.31758
14750000000 -14.459355 30.4289 -200 45 -40.837612 -167.58174 -15.956918 97.121582
14760000000 -13.111526 27.112377 -200 45 -40.573185 121.58423 -18.999773 75.496284
14770000000 -12.671699 22.18903 -200 45 -40.913834 52.866436 -25.20772 75.025421
14780000000 -12.481944 18.475353 -200 45 -41.411194 -13.543889 -25.650351 121.28066
14790000000 -12.279546 15.190177 -200 45 -41.493652 -78.743607 -21.748348 117.37294
14800000000 -12.11667 9.8602228 -200 45 -41.707539 -145.51683 -21.446785 95.54718
14810000000 -12.37774 2.9466281 -200 45 -42.144413 149.44029 -24.595463 68.57782
14820000000 -13.269381 -3.8573391 -200 45 -42.219879 85.953957 -39.06337 22.693712
14830000000 -14.92373 -7.1203213 -200 45 -41.949337 21.657455 -25.88542 -158.83142
14840000000 -16.950397 -0.6625399 -200 45 -41.91539 -43.264374 -19.316628 168.31577
14850000000 -17.315828 16.462109 -200 45 -41.909286 -110.18828 -16.899982 136.67081
14860000000 -15.468461 25.439709 -200 45 -42.021111 -174.8681 -16.805767 107.08002
14870000000 -13.856475 22.821054 -200 45 -41.681423 119.00909 -18.575445 80.89666
14880000000 -13.111537 16.321756 -200 45 -41.756828 52.416325 -22.360043 59.233326
14890000000 -13.038946 11.072247 -200 45 -41.899265 -13.891384 -30.091681 54.834301
14900000000 -12.978754 7.8056998 -200 45 -42.225571 -75.579926 -30.436401 115.7572
14910000000 -12.734114 3.5830188 -200 45 -41.152222 -137.85402 -25.640369 101.70526
14920000000 -12.701835 -3.8528657 -200 45 -40.441826 150.81697 -25.851816 66.491356
14930000000 -13.438364 -13.734274 -200 45 -40.48843 81.365181 -30.750446 8.8903532
14940000000 -15.584883 -20.480608 -200 45 -40.729855 11.784659 -30.53824 -107.0265
14950000000 -18.496456 -10.310501 -200 45 -41.26965 -56.121998 -24.279745 -161.85214
14960000000 -17.798235 11.804648 -200 45 -41.514389 -118.41044 -21.022848 163.77165
14970000000 -15.539609 13.83443 -200 45 -41.602173 176.82396 -19.691746 131.73856
14980000000 -14.578822 6.7731652 -200 45 -41.32835 114.32392 -20.123209 99.268013
14990000000 -14.809421 1.2302688 -200 45 -40.735538 46.556587 -22.429886 66.676407
15000000000 -14.974375 2.019145 -200 45 -40.613579 -21.762167 -26.86471 38.028458
15010000000 -14.259785 1.8173232 -200 45 -40.562119 -90.059601 -33.249367 23.127171
15020000000 -13.488558 -5.6099958 -200 45 -40.843609 -157.63762 -38.709377 28.694902
15030000000 -13.664355 -17.373028 -200 45 -40.849205 136.49074 -39.124554 18.990547
15040000000 -15.186859 -28.12505 -200 45 -41.041351 71.345917 -34.631901 -32.438622
15050000000 -18.027857 -28.785553 -200 45 -40.866726 5.9454923 -28.871628 -78.760582
15060000000 -19.386532 -10.965327 -200 45 -40.664093 -60.775024 -24.917234 -116.59135
15070000000 -17.778681 -1.9014369 -200 45 -40.492973 -127.16927 -22.683506 -151.44664
15080000000 -16.802456 -5.8748646 -200 45 -40.284966 163.23993 -22.208857 175.29442
15090000000 -17.057568 -10.570077 -200 45 -40.517422 94.375366 -23.277018 142.68338
15100000000 -17.605885 -8.0408316 -200 45 -41.102695 26.093176 -25.251154 109.265
15110000000 -16.81695 -3.7462115 -200 45 -41.419971 -37.38026 -27.74362 68.478584
15120000000 -15.705582 -7.6429877 -200 45 -41.452766 -99.253456 -29.737377 9.0001268
15130000000 -15.132304 -16.198925 -200 45 -40.946293 -167.16429 -29.638304 -52.905254
15140000000 -15.440681 -27.848566 -200 45 -40.799263 125.7767 -29.785664 -88.295975
15150000000 -17.046249 -36.22105 -200 45 -41.074684 56.894741 -29.675718 -90.140732
15160000000 -19.032164 -33.603378 -200 45 -41.237991 -7.4499016 -26.485651 -89.770622
15170000000 -19.272356 -24.582359 -200 45 -41.051716 -73.398674 -23.6555 -101.62657
15180000000 -18.649378 -23.614649 -200 45 -40.845158 -139.40105 -21.681004 -116.9389
15190000000 -18.629549 -28.491493 -200 45 -40.977402 151.82498 -20.351431 -138.13341
15200000000 -19.652628 -30.942131 -200 45 -41.069233 85.071243 -20.523666 -165.06656
15210000000 -20.620981 -23.927197 -200 45 -41.183952 18.982437 -22.668875 165.76936
15220000000 -19.598284 -14.252671 -200 45 -41.065948 -46.510124 -27.966799 131.10339
15230000000 -17.623596 -16.336931 -200 45 -41.07576 -116.30737 -38.024731 25.311348
15240000000 -16.539621 -29.021965 -200 45 -41.204556 176.60316 -28.450449 -60.493244
15250000000 -16.991318 -43.459408 -200 45 -41.773994 109.48519 -24.630531 -87.114777
15260000000 -18.629911 -52.959221 -200 45 -42.049591 44.692924 -23.424225 -101.63469
15270000000 -20.448301 -52.326023 -200 45 -42.107224 -19.045397 -23.292572 -106.54469
15280000000 -20.778 -47.842575 -200 45 -42.110413 -85.768509 -22.383726 -103.89719
15290000000 -20.670191 -52.396378 -200 45 -42.135086 -148.96649 -20.056129 -107.17363
15300000000 -21.90843 -61.724026 -200 45 -41.885353 144.21095 -18.276897 -121.94825
15310000000 -25.391314 -63.210835 -200 45 -41.606571 77.040329 -17.988205 -140.64694
15320000000 -28.099697 -26.03895 -200 45 -41.90089 10.285752 -19.307644 -158.49843
15330000000 -22.591755 -6.9626088 -200 45 -41.721199 -56.287296 -22.55801 -169.73486
