!Keysight Technologies,P9374A,MY57211810,A.19.30.04
!Date: Friday, May 02, 2025 09:02:53
!Correction: S11(Off) 
!S21(Off) 
!S12(Off) 
!S22(Off) 
!S2P File: Measurements: S11, S21, S12, S22:
# Hz S  dB   R 50
13000000000 -11.674535 109.44333 -200 45 -46.745979 174.28752 -12.963662 -175.47363
13010000000 -12.994719 104.12542 -200 45 -46.386948 110.49587 -18.506281 -176.20491
13020000000 -14.506072 105.19572 -200 45 -46.12529 41.498848 -19.556301 -118.26899
13030000000 -15.111838 111.12503 -200 45 -46.392368 -31.253601 -13.52723 -113.6994
13040000000 -15.220647 115.04435 -200 45 -47.42709 -97.023392 -11.064688 -130.03348
13050000000 -15.302213 117.79866 -200 45 -47.473618 -167.50745 -10.802051 -147.32419
13060000000 -15.240748 123.77214 -200 45 -48.702301 132.48213 -12.284929 -160.45747
13070000000 -14.331738 129.36224 -200 45 -48.819767 70.449364 -15.209563 -159.55649
13080000000 -12.891273 128.71725 -200 45 -48.28178 10.138519 -15.670842 -137.16963
13090000000 -11.894664 122.39014 -200 45 -48.360207 -57.450901 -12.797996 -132.0986
13100000000 -11.547727 113.7213 -200 45 -47.60141 -118.13358 -11.044443 -143.78781
13110000000 -11.977078 106.14526 -200 45 -46.892662 175.58134 -11.061913 -160.8215
13120000000 -12.731538 102.19686 -200 45 -46.050659 105.31251 -13.277594 -176.68352
13130000000 -13.518476 100.54507 -200 45 -45.393673 32.664543 -18.781513 -173.91232
13140000000 -14.156583 100.72937 -200 45 -45.926563 -43.092995 -18.493187 -119.67696
13150000000 -14.882741 101.26221 -200 45 -47.325432 -114.44202 -13.003476 -118.06254
13160000000 -15.715289 104.54936 -200 45 -48.267467 -178.42876 -10.609294 -133.98004
13170000000 -16.131008 114.2426 -200 45 -48.832764 126.828 -10.291926 -151.86688
13180000000 -15.057717 123.64947 -200 45 -47.603233 59.646725 -11.846216 -166.16875
13190000000 -13.371285 123.8009 -200 45 -46.934124 -10.369328 -14.885056 -165.35387
13200000000 -12.349856 118.34027 -200 45 -47.620705 -83.465202 -15.281353 -143.57227
13210000000 -11.953034 111.27534 -200 45 -48.484177 -155.74789 -12.495955 -139.7137
13220000000 -12.110168 105.28807 -200 45 -50.571243 140.34943 -10.854184 -151.86015
13230000000 -12.565907 101.14156 -200 45 -51.248726 89.336838 -11.007395 -169.00221
13240000000 -12.982714 98.338684 -200 45 -49.996784 33.529095 -13.386633 174.90471
13250000000 -13.730979 95.31205 -200 45 -48.793686 -34.739677 -19.28838 179.35829
13260000000 -15.025582 95.428551 -200 45 -48.285419 -106.88107 -18.25713 -124.48076
13270000000 -16.208441 103.13573 -200 45 -48.700691 -174.41302 -12.822469 -126.37574
13280000000 -16.253889 116.31576 -200 45 -48.904442 118.48972 -10.686926 -143.20712
13290000000 -14.573947 124.75976 -200 45 -49.869068 55.423306 -10.604117 -160.39211
13300000000 -13.036755 123.37062 -200 45 -47.745579 -15.626274 -12.177399 -172.33795
13310000000 -12.160707 118.55262 -200 45 -48.317333 -84.49968 -14.646179 -168.7627
13320000000 -11.76639 113.54804 -200 45 -48.666084 -148.20514 -14.151745 -152.49353
13330000000 -11.590773 108.44616 -200 45 -48.222523 145.71857 -11.833541 -154.36914
13340000000 -11.799309 102.84412 -200 45 -48.518684 78.916969 -10.877884 -167.87088
13350000000 -12.344814 98.811378 -200 45 -48.019825 16.201563 -11.615746 176.16508
13360000000 -13.33938 95.424362 -200 45 -47.76218 -54.166912 -14.602185 164.79695
13370000000 -14.705351 98.143272 -200 45 -47.792213 -126.04423 -19.351414 -175.64746
13380000000 -15.542966 107.93812 -200 45 -48.129341 169.9176 -16.112345 -141.13518
13390000000 -14.796773 117.42709 -200 45 -49.08276 101.96799 -12.374392 -147.05074
13400000000 -13.748982 121.49311 -200 45 -48.999222 38.536575 -10.952827 -161.82254
13410000000 -12.595085 120.22218 -200 45 -48.756851 -21.656467 -11.252141 -176.16992
13420000000 -11.933393 116.6377 -200 45 -48.04287 -90.150696 -13.006318 176.3243
13430000000 -11.589939 111.91419 -200 45 -47.984184 -161.02519 -14.583363 -175.06854
13440000000 -11.503608 107.2461 -200 45 -48.493156 125.94503 -13.26474 -165.07353
13450000000 -11.703316 101.6861 -200 45 -49.507107 61.771542 -11.46499 -170.71307
13460000000 -12.3678 96.785027 -200 45 -50.84409 2.5836983 -10.983769 176.29402
13470000000 -13.505584 95.324562 -200 45 -50.190605 -51.074738 -11.989513 162.72136
13480000000 -14.705453 98.341248 -200 45 -48.501293 -120.70153 -14.804597 154.90445
13490000000 -15.261142 106.65559 -200 45 -48.164055 171.688 -18.445118 173.37209
13500000000 -14.852806 114.80177 -200 45 -47.554523 100.74566 -16.052294 -159.2726
13510000000 -13.750607 117.55049 -200 45 -47.735703 30.756384 -12.947172 -161.54398
13520000000 -13.142162 116.26469 -200 45 -48.242699 -37.857513 -11.613749 -172.68617
13530000000 -12.69329 114.79897 -200 45 -48.411629 -105.54902 -11.689535 175.94293
13540000000 -12.319829 112.69893 -200 45 -49.151402 -171.17979 -12.849643 169.51123
13550000000 -12.026035 109.32851 -200 45 -49.122272 123.97984 -14.02268 173.13405
13560000000 -11.959742 104.48083 -200 45 -49.235149 62.993607 -13.527711 179.91519
13570000000 -12.469794 99.515854 -200 45 -48.522228 -3.590919 -12.324586 177.68558
13580000000 -13.474042 97.825935 -200 45 -48.824539 -72.523705 -11.903661 168.7702
13590000000 -14.450623 102.53403 -200 45 -48.93177 -141.20509 -12.643947 158.89418
13600000000 -14.447631 109.91999 -200 45 -49.103455 157.21664 -14.659739 153.89232
13610000000 -13.746217 113.05798 -200 45 -49.14151 88.216347 -17.158867 165.29591
13620000000 -13.362969 112.93172 -200 45 -49.270981 24.633295 -16.154135 -173.31595
13630000000 -13.103129 113.48251 -200 45 -49.151234 -38.380119 -13.545831 -171.09375
13640000000 -12.792603 114.7077 -200 45 -48.561737 -104.69962 -12.084208 -179.20184
13650000000 -12.062243 115.27656 -200 45 -48.283802 -173.5928 -11.810248 170.94577
13660000000 -11.349822 111.17645 -200 45 -48.358639 116.81422 -12.459012 163.69002
13670000000 -11.256342 104.67213 -200 45 -48.705261 49.638672 -13.42349 162.96935
13680000000 -11.830384 99.924606 -200 45 -48.753368 -14.293494 -13.499477 167.49071
13690000000 -12.632356 99.524063 -200 45 -48.602322 -84.498146 -12.604067 167.19757
13700000000 -13.04362 102.68789 -200 45 -49.333134 -149.68405 -12.14781 159.66269
13710000000 -12.853934 104.88233 -200 45 -49.249283 146.91805 -12.81441 150.95868
13720000000 -12.773535 104.15311 -200 45 -48.973503 79.979546 -14.560079 146.57797
13730000000 -13.009834 103.869 -200 45 -48.91132 14.691158 -16.761702 155.85269
13740000000 -13.379877 107.4417 -200 45 -48.806786 -51.04808 -16.07128 175.65044
13750000000 -12.679958 112.85841 -200 45 -48.930813 -124.25806 -13.603811 178.83572
13760000000 -11.594646 111.86407 -200 45 -49.753345 175.58661 -12.09253 171.02576
13770000000 -10.969338 106.20416 -200 45 -48.960686 111.7094 -11.876157 161.32301
13780000000 -10.950253 100.28135 -200 45 -48.701416 41.702827 -12.479239 155.44464
13790000000 -11.443787 95.382195 -200 45 -49.222046 -23.981689 -13.167507 154.66621
13800000000 -12.033993 95.259399 -200 45 -48.512032 -90.002998 -13.2134 156.80981
13810000000 -12.081661 95.669853 -200 45 -48.548409 -158.93533 -12.628502 155.45122
13820000000 -12.163101 93.11515 -200 45 -48.991997 130.21777 -12.526568 148.20477
13830000000 -12.767537 90.72715 -200 45 -49.392769 66.267365 -13.556396 140.72069
13840000000 -13.727721 93.389946 -200 45 -49.273327 1.9206411 -15.565217 140.43912
13850000000 -13.855654 101.63417 -200 45 -49.771683 -72.713272 -17.045084 154.21617
13860000000 -12.781629 106.96935 -200 45 -50.92543 -131.13078 -15.822234 169.05374
13870000000 -11.60005 104.75432 -200 45 -50.645889 168.82042 -13.858088 169.87303
13880000000 -10.989288 99.250778 -200 45 -50.121613 103.4734 -12.840852 163.42252
13890000000 -10.988621 93.158997 -200 45 -50.160175 36.175396 -12.803174 157.03648
13900000000 -11.314398 89.941498 -200 45 -49.516472 -30.848646 -13.155698 154.07506
13910000000 -11.439754 87.66507 -200 45 -49.782822 -98.178329 -13.279546 153.65808
13920000000 -11.672608 84.82885 -200 45 -49.469231 -164.28221 -13.04933 152.39064
13930000000 -12.147815 81.411964 -200 45 -49.207531 124.35186 -12.924243 147.97041
13940000000 -13.254507 80.370216 -200 45 -50.043434 55.30677 -13.371042 141.82813
13950000000 -14.212801 87.469841 -200 45 -50.832897 -4.4601135 -14.630166 138.30528
13960000000 -13.842039 96.87011 -200 45 -50.370041 -70.174782 -16.060665 142.61853
13970000000 -12.563586 100.70236 -200 45 -50.153374 -138.27766 -16.544348 152.58768
13980000000 -11.462612 98.448685 -200 45 -50.632469 155.11067 -15.790603 160.45972
13990000000 -10.832047 93.210358 -200 45 -50.77599 86.964149 -14.715525 162.13007
14000000000 -10.76997 88.547333 -200 45 -52.336418 26.665077 -13.943008 160.05818
14010000000 -10.72875 84.683746 -200 45 -50.921692 -35.54351 -13.469038 157.31549
14020000000 -10.872416 80.51049 -200 45 -51.136528 -100.2024 -13.013409 154.20055
14030000000 -11.25612 76.149933 -200 45 -50.626823 -166.23337 -12.712166 148.60396
14040000000 -12.125314 73.220741 -200 45 -50.080982 124.68847 -12.965461 142.5052
14050000000 -13.268306 74.760696 -200 45 -50.468632 54.033298 -13.613827 138.61734
14060000000 -13.997326 82.889809 -200 45 -50.900307 -7.2420001 -14.431665 136.81496
14070000000 -13.412977 91.705215 -200 45 -50.673908 -73.239075 -15.256432 138.36812
14080000000 -12.088304 94.395531 -200 45 -50.447868 -138.67599 -15.547304 141.95999
14090000000 -11.059444 91.052567 -200 45 -50.714638 152.5892 -15.67851 143.55217
14100000000 -10.547915 86.527443 -200 45 -50.954475 86.633606 -16.050581 146.84317
14110000000 -10.294599 81.553848 -200 45 -51.049511 17.286776 -15.866511 153.91391
14120000000 -10.294364 76.547836 -200 45 -51.958015 -41.291382 -14.65508 158.26947
14130000000 -10.488426 71.570633 -200 45 -52.187542 -105.23899 -13.263817 155.68394
14140000000 -11.03318 66.8601 -200 45 -51.525967 -165.06497 -12.351745 147.99081
14150000000 -11.97858 64.179024 -200 45 -50.803894 130.28792 -12.319028 137.58469
14160000000 -13.134801 66.481102 -200 45 -49.80127 62.11945 -13.329541 129.26805
14170000000 -13.632813 74.796898 -200 45 -49.457249 -8.0963545 -14.810181 127.79465
14180000000 -12.796655 81.520767 -200 45 -49.368778 -77.711044 -15.704313 132.78207
14190000000 -11.792964 81.456551 -200 45 -49.633476 -150.97423 -15.575563 137.02974
14200000000 -11.089374 79.010399 -200 45 -51.400242 144.09253 -15.363062 136.01607
14210000000 -10.583891 74.976936 -200 45 -51.350964 86.665497 -15.939607 133.41148
14220000000 -10.421381 70.297577 -200 45 -51.079735 19.705057 -17.268379 137.54311
14230000000 -10.352178 66.127113 -200 45 -50.853706 -39.848022 -17.246864 152.20325
14240000000 -10.434141 60.46315 -200 45 -49.78801 -110.08925 -15.053339 158.9736
14250000000 -11.060364 55.101555 -200 45 -50.17112 -179.4216 -13.147426 152.72701
14260000000 -12.129715 53.009941 -200 45 -50.733822 118.31744 -12.397072 141.25365
14270000000 -13.074886 56.209198 -200 45 -50.511993 52.814129 -12.771676 129.5899
14280000000 -13.334036 62.811802 -200 45 -50.074051 -10.241831 -14.138885 121.53848
14290000000 -12.736416 66.590736 -200 45 -49.364731 -75.918861 -15.937384 122.56077
14300000000 -12.08953 67.249268 -200 45 -48.832287 -148.11987 -16.510195 131.24864
14310000000 -11.554239 65.250748 -200 45 -48.733524 143.9109 -15.810128 134.06641
14320000000 -11.305481 63.133011 -200 45 -49.387985 69.475433 -15.557489 128.93689
14330000000 -10.891628 61.005604 -200 45 -50.221775 4.9728308 -16.702623 123.76435
14340000000 -10.570935 55.691605 -200 45 -51.444813 -58.417961 -18.748529 129.957
14350000000 -10.786412 49.759155 -200 45 -51.159836 -114.19899 -18.699493 149.32611
14360000000 -11.415722 45.460869 -200 45 -50.016163 177.39287 -16.081678 157.3705
14370000000 -12.318151 43.990559 -200 45 -50.114635 113.79576 -13.898659 150.52652
14380000000 -13.061024 47.336311 -200 45 -49.65617 48.248272 -12.995836 137.81165
14390000000 -13.029518 51.092583 -200 45 -48.991383 -22.047285 -13.378904 124.72266
14400000000 -12.819661 52.659344 -200 45 -49.153221 -91.251701 -14.875276 115.73126
14410000000 -12.674354 53.160969 -200 45 -49.229465 -160.00665 -16.828005 115.79007
14420000000 -12.472375 54.734444 -200 45 -49.813728 131.47211 -17.703411 124.36175
14430000000 -11.860443 56.087852 -200 45 -50.738506 69.717033 -17.116493 129.13052
14440000000 -11.051702 52.693516 -200 45 -49.947754 7.8551197 -16.74439 124.83152
14450000000 -10.755946 47.12281 -200 45 -49.918793 -58.061485 -17.842358 118.77847
14460000000 -10.829771 41.461113 -200 45 -49.245552 -125.77929 -20.154308 123.87719
14470000000 -11.292383 36.373055 -200 45 -49.443245 164.28893 -20.443483 147.25574
14480000000 -12.094209 35.150658 -200 45 -50.257523 98.027069 -17.32538 157.55177
14490000000 -12.411064 36.065212 -200 45 -50.26252 37.51561 -14.753108 149.9502
14500000000 -12.656303 35.951492 -200 45 -50.107704 -30.736702 -13.624808 135.47618
14510000000 -13.002576 36.573605 -200 45 -50.126415 -95.42984 -13.859111 119.98401
14520000000 -13.263083 39.625835 -200 45 -49.902531 -161.27618 -15.373968 107.42706
14530000000 -12.922509 43.941666 -200 45 -50.240612 131.87582 -18.023241 103.76587
14540000000 -12.024714 44.707371 -200 45 -49.669773 70.134354 -20.013634 116.61928
14550000000 -11.310447 41.425838 -200 45 -49.411751 -0.84040093 -18.948124 126.92532
14560000000 -10.893985 36.353531 -200 45 -50.187523 -70.279457 -18.006285 121.16329
14570000000 -10.878258 30.459045 -200 45 -50.495857 -127.10618 -19.060047 111.29372
14580000000 -11.294624 25.652924 -200 45 -50.024506 168.6064 -22.172922 112.54984
14590000000 -11.694402 23.072369 -200 45 -49.843651 106.07608 -23.577818 145.51645
14600000000 -12.215776 19.854158 -200 45 -48.686104 40.485996 -18.95532 161.21309
14610000000 -13.10164 18.623333 -200 45 -48.294624 -30.67275 -15.557689 149.35876
14620000000 -13.942254 21.506477 -200 45 -47.865234 -99.084267 -14.242071 130.40479
14630000000 -14.271099 27.877644 -200 45 -48.159386 -170.23416 -14.60312 110.57973
14640000000 -13.782867 33.667007 -200 45 -48.793453 122.65327 -16.631046 93.592239
14650000000 -12.805712 35.369606 -200 45 -49.145439 57.692814 -20.46999 87.650368
14660000000 -11.938252 32.829166 -200 45 -48.592346 -4.3757339 -23.29343 111.73743
14670000000 -11.376918 27.334049 -200 45 -48.618896 -72.184601 -20.568596 124.51971
14680000000 -11.395223 21.466808 -200 45 -48.682186 -139.21901 -19.184862 111.21588
14690000000 -11.503536 17.009293 -200 45 -48.378075 154.35329 -20.796038 92.813438
14700000000 -11.894821 10.997597 -200 45 -48.845215 89.509773 -27.076868 86.953384
14710000000 -12.780966 6.8905792 -200 45 -48.597179 25.458517 -28.091799 171.34016
14720000000 -13.915889 5.5784726 -200 45 -48.360767 -41.079372 -19.680998 169.45335
14730000000 -15.138915 9.3106041 -200 45 -47.794518 -108.79409 -16.235424 146.95532
14740000000 -15.694168 18.987179 -200 45 -48.236233 -172.4463 -15.219687 121.93385
14750000000 -14.796198 26.942802 -200 45 -47.781322 122.15649 -16.09532 97.263474
14760000000 -13.644949 28.29678 -200 45 -46.793621 55.103168 -19.095881 76.234428
14770000000 -12.647184 24.908911 -200 45 -46.313732 -14.66918 -25.022268 74.889641
14780000000 -12.225542 19.359449 -200 45 -46.3932 -88.242599 -26.016741 119.3092
14790000000 -12.061384 14.572593 -200 45 -47.11335 -160.19391 -21.879972 118.2859
14800000000 -12.027265 8.2044859 -200 45 -48.019783 135.4743 -21.131859 96.011391
14810000000 -12.598832 1.5438854 -200 45 -48.291649 73.946716 -24.292412 67.183792
14820000000 -13.530843 -3.2735045 -200 45 -48.223583 9.9149151 -40.098499 12.351727
14830000000 -15.014015 -5.5166678 -200 45 -47.094242 -56.920898 -25.442993 -160.40038
14840000000 -16.774847 1.6785117 -200 45 -47.607956 -126.98522 -19.350559 167.20464
14850000000 -16.786709 14.906765 -200 45 -47.405575 165.41907 -17.056055 137.20918
14860000000 -15.612999 22.47024 -200 45 -47.618813 97.726669 -16.803616 107.99113
14870000000 -14.222104 22.151804 -200 45 -47.740562 30.702335 -18.445061 80.040771
14880000000 -13.403997 18.140886 -200 45 -48.65276 -35.484089 -22.433073 57.059025
14890000000 -12.921999 13.937589 -200 45 -48.959682 -99.586655 -30.214867 58.442677
14900000000 -12.471918 8.081871 -200 45 -49.204983 -161.32811 -29.743219 113.63834
14910000000 -12.534829 0.65675074 -200 45 -48.590839 140.35204 -25.787418 100.75917
14920000000 -12.981631 -6.4604468 -200 45 -47.560066 71.972618 -26.219543 67.261078
14930000000 -13.9987 -13.350584 -200 45 -47.189407 2.4385414 -31.058334 11.786854
14940000000 -15.826603 -15.787357 -200 45 -47.085255 -65.530037 -30.703407 -102.48582
14950000000 -17.477678 -7.5595107 -200 45 -47.431595 -135.52707 -24.080902 -159.60339
14960000000 -17.580566 5.5118613 -200 45 -47.154636 159.60199 -20.859959 163.47313
14970000000 -16.127747 11.570536 -200 45 -47.191452 93.053818 -19.68424 130.43195
14980000000 -15.078919 8.7044535 -200 45 -47.121605 23.998827 -20.2411 98.365158
14990000000 -14.730578 5.50525 -200 45 -47.257591 -41.412876 -22.578728 67.719818
15000000000 -14.332953 2.3676088 -200 45 -47.526234 -108.62762 -26.698568 40.611477
15010000000 -14.100518 -1.6586239 -200 45 -47.303558 -175.28929 -33.099724 20.381359
15020000000 -13.801465 -7.4730849 -200 45 -47.761337 120.39996 -39.961685 28.479565
15030000000 -14.018407 -16.804798 -200 45 -47.342098 54.782803 -38.473816 20.562218
15040000000 -15.377087 -25.551155 -200 45 -46.870079 -14.95724 -33.923553 -33.682079
15050000000 -17.500322 -25.898714 -200 45 -47.490734 -81.282532 -28.802168 -79.509003
15060000000 -19.052259 -15.089855 -200 45 -47.100441 -144.1519 -25.011829 -117.20354
15070000000 -18.138102 -3.5799842 -200 45 -46.655598 145.95293 -22.899767 -151.81644
15080000000 -17.112995 -5.215888 -200 45 -46.464775 76.676125 -22.298531 176.30112
15090000000 -17.075064 -8.4027348 -200 45 -46.685703 7.4035544 -22.949984 143.93631
15100000000 -17.272068 -7.5480752 -200 45 -47.014915 -63.738853 -24.938343 108.24364
15110000000 -16.804377 -5.2041044 -200 45 -47.713596 -131.09497 -28.037203 64.37088
15120000000 -15.741586 -7.4790454 -200 45 -48.735683 167.08067 -30.497574 5.2690978
15130000000 -15.081023 -16.859541 -200 45 -48.427441 105.14774 -30.337011 -50.259918
15140000000 -15.622482 -28.691662 -200 45 -47.730381 42.936768 -29.679771 -81.682655
15150000000 -17.23555 -34.7033 -200 45 -47.433201 -29.114716 -28.992594 -91.175293
15160000000 -18.782822 -32.084518 -200 45 -47.567741 -96.874146 -26.944628 -92.624367
15170000000 -19.094776 -25.114275 -200 45 -47.818516 -162.93167 -23.967274 -99.557152
15180000000 -18.514971 -25.545868 -200 45 -47.687923 126.39796 -21.458508 -116.5486
15190000000 -18.949402 -30.088718 -200 45 -47.892315 58.9534 -20.268671 -139.19379
15200000000 -20.000525 -29.289522 -200 45 -48.495754 -7.9653444 -20.580612 -164.99155
15210000000 -20.471613 -20.85836 -200 45 -49.107357 -72.44294 -22.759718 166.47235
15220000000 -19.108496 -14.075361 -200 45 -49.559174 -137.13326 -27.936035 131.78188
15230000000 -17.429789 -19.835335 -200 45 -49.176319 161.62376 -37.312725 29.02441
15240000000 -16.978048 -31.468225 -200 45 -48.590813 95.359718 -28.172815 -58.811337
15250000000 -17.513863 -41.496845 -200 45 -48.452358 26.338856 -24.462629 -87.685173
15260000000 -18.520523 -48.838516 -200 45 -48.706757 -47.261761 -23.654001 -103.31284
15270000000 -19.82478 -51.496471 -200 45 -50.168972 -112.60928 -23.532076 -105.52956
15280000000 -20.344559 -51.395622 -200 45 -50.795807 -170.32976 -22.113779 -103.35387
15290000000 -21.035452 -57.130558 -200 45 -50.053532 133.53949 -19.991238 -108.36125
15300000000 -22.883314 -61.636982 -200 45 -48.896553 64.487923 -18.375994 -121.69897
15310000000 -25.80822 -53.809841 -200 45 -48.644611 -5.3828259 -18.000692 -140.00499
15320000000 -26.213444 -25.163818 -200 45 -48.642769 -75.757843 -19.28895 -158.38777
15330000000 -22.445776 -14.742161 -200 45 -49.10593 -142.17314 -22.541586 -170.65216
