!Keysight Technologies,P9374A,MY57211810,A.19.30.04
!Date: Friday, May 02, 2025 09:02:46
!Correction: S11(Off) 
!S21(Off) 
!S12(Off) 
!S22(Off) 
!S2P File: Measurements: S11, S21, S12, S22:
# Hz S  dB   R 50
13000000000 -11.550155 113.65517 -200 45 -44.813183 -154.49461 -12.987479 -175.17386
13010000000 -12.330666 105.62594 -200 45 -44.707108 144.36874 -18.430809 -175.9994
13020000000 -13.926197 101.11076 -200 45 -45.062115 78.786797 -19.60474 -118.56779
13030000000 -15.641133 105.75965 -200 45 -44.605206 12.759211 -13.549586 -113.6189
13040000000 -16.163946 116.67908 -200 45 -44.312645 -50.013195 -11.063903 -129.95107
13050000000 -15.309609 124.59624 -200 45 -43.715408 -122.4237 -10.79294 -147.28976
13060000000 -14.299409 125.62907 -200 45 -44.032825 167.62985 -12.270571 -160.41446
13070000000 -13.881631 123.93 -200 45 -44.896004 101.9743 -15.192244 -159.7023
13080000000 -13.401833 125.24417 -200 45 -44.928146 39.028168 -15.734794 -137.13449
13090000000 -12.477005 123.36436 -200 45 -44.563427 -28.421221 -12.783191 -131.92088
13100000000 -11.735739 117.35892 -200 45 -44.618343 -94.613106 -11.019917 -143.90303
13110000000 -11.583782 109.33414 -200 45 -44.637527 -157.99393 -11.056019 -160.97342
13120000000 -12.0446 100.92513 -200 45 -43.969936 135.43135 -13.305231 -176.74263
13130000000 -13.429954 95.262802 -200 45 -43.729565 65.037674 -18.779797 -173.5419
13140000000 -15.001763 98.417931 -200 45 -43.83123 -4.5152378 -18.470896 -119.92101
13150000000 -15.446056 106.12953 -200 45 -44.155735 -74.103889 -13.017899 -118.19988
13160000000 -15.17918 109.59921 -200 45 -45.185802 -143.08298 -10.632321 -133.99365
13170000000 -15.246678 112.05326 -200 45 -45.981758 156.78633 -10.301297 -151.6852
13180000000 -15.160177 118.10094 -200 45 -45.448532 94.114799 -11.808807 -166.06404
13190000000 -14.102139 122.90508 -200 45 -45.053486 27.925003 -14.865941 -165.77762
13200000000 -12.691732 121.78655 -200 45 -44.854305 -39.162533 -15.330721 -143.52632
13210000000 -11.720381 114.44757 -200 45 -44.783794 -108.29485 -12.475179 -139.47495
13220000000 -11.545344 105.60265 -200 45 -45.344471 -178.62437 -10.829495 -151.91202
13230000000 -12.215581 97.670692 -200 45 -46.002666 120.59509 -11.003707 -169.18205
13240000000 -13.413222 94.387184 -200 45 -45.882401 56.826183 -13.413271 174.9563
13250000000 -14.531018 97.128036 -200 45 -45.58186 -5.6482525 -19.289722 179.60878
13260000000 -14.948432 101.30873 -200 45 -44.777843 -72.780365 -18.237965 -124.59972
13270000000 -15.304461 104.0687 -200 45 -45.061474 -140.97993 -12.82715 -126.4656
13280000000 -15.877579 110.94693 -200 45 -44.607224 151.89342 -10.699805 -143.22438
13290000000 -15.280119 121.54459 -200 45 -44.78006 84.093132 -10.617829 -160.30063
13300000000 -13.56857 126.38664 -200 45 -44.478615 16.144638 -12.177814 -172.18063
13310000000 -12.034966 122.36977 -200 45 -44.980213 -51.609364 -14.636354 -168.91655
13320000000 -11.187893 114.31422 -200 45 -45.485832 -118.29662 -14.17512 -152.50983
13330000000 -11.282274 105.53322 -200 45 -45.417679 177.20798 -11.820226 -154.29102
13340000000 -12.025217 99.698341 -200 45 -45.460556 112.70138 -10.864173 -167.9324
13350000000 -12.976761 98.61673 -200 45 -45.35955 48.588638 -11.632277 176.02774
13360000000 -13.550889 99.931602 -200 45 -45.076286 -20.397274 -14.625877 164.97638
13370000000 -14.145092 101.18714 -200 45 -45.098133 -85.607422 -19.255075 -175.6013
13380000000 -14.827785 104.66756 -200 45 -44.844635 -151.97203 -16.179462 -141.54799
13390000000 -15.225856 112.30461 -200 45 -44.987522 139.63361 -12.400181 -146.66753
13400000000 -14.46568 122.86266 -200 45 -44.759167 72.465858 -10.901559 -161.73051
13410000000 -12.609991 124.20136 -200 45 -45.033062 7.3068528 -11.243184 -176.4304
13420000000 -11.516574 118.07922 -200 45 -44.908787 -59.663815 -13.039783 176.19543
13430000000 -11.205589 110.56762 -200 45 -45.243637 -127.32702 -14.572756 -174.68506
13440000000 -11.462265 104.05727 -200 45 -44.8396 167.31602 -13.221484 -165.20361
13450000000 -12.173058 99.788277 -200 45 -44.8325 100.36536 -11.498569 -170.83194
13460000000 -12.849271 99.602058 -200 45 -45.246498 30.463652 -10.993551 176.41896
13470000000 -13.295934 98.99234 -200 45 -45.261753 -31.064243 -11.971153 162.65019
13480000000 -14.001126 98.664108 -200 45 -45.208408 -100.37988 -14.804062 154.97737
13490000000 -15.027784 101.93148 -200 45 -45.16333 -163.52698 -18.405781 173.19901
13500000000 -15.466627 111.92253 -200 45 -45.416252 127.18464 -16.065729 -159.24983
13510000000 -14.336294 120.53535 -200 45 -45.009453 63.247005 -12.941202 -161.56862
13520000000 -12.943291 120.23052 -200 45 -45.015881 -3.4242871 -11.61613 -172.556
13530000000 -12.11336 115.44625 -200 45 -45.272438 -73.099915 -11.659176 175.998
13540000000 -11.954906 109.61018 -200 45 -45.326305 -139.26495 -12.859839 169.2816
13550000000 -12.328918 105.54184 -200 45 -45.149605 155.16762 -14.063637 173.17915
13560000000 -12.625735 104.95766 -200 45 -45.93594 86.802597 -13.494666 -179.90717
13570000000 -12.695992 103.69533 -200 45 -45.944187 23.759941 -12.302235 177.38069
13580000000 -12.908903 101.31392 -200 45 -45.695721 -39.107285 -11.940712 168.72716
13590000000 -13.716278 99.721169 -200 45 -45.250832 -108.31528 -12.631282 159.15091
13600000000 -14.663935 104.10443 -200 45 -44.926853 -173.15269 -14.631702 153.8185
13610000000 -14.605608 113.09985 -200 45 -45.086979 113.23209 -17.138472 165.32976
13620000000 -13.609709 117.66663 -200 45 -45.631191 47.562954 -16.191715 -173.45959
13630000000 -12.587838 116.68791 -200 45 -46.074406 -18.180067 -13.552513 -170.83559
13640000000 -12.137852 113.07742 -200 45 -45.845512 -82.456909 -12.052277 -179.28008
13650000000 -12.052006 110.5629 -200 45 -45.794765 -146.26869 -11.833341 170.80394
13660000000 -12.003612 109.29653 -200 45 -45.38271 144.28529 -12.459927 163.73459
13670000000 -11.770759 107.89968 -200 45 -45.32756 76.013466 -13.408034 162.96033
13680000000 -11.581025 104.41716 -200 45 -45.868774 6.4134269 -13.480297 167.42067
13690000000 -11.8541 99.816818 -200 45 -46.507183 -58.868683 -12.619148 167.20319
13700000000 -12.690125 97.412865 -200 45 -46.2799 -122.40899 -12.132892 159.87466
13710000000 -13.582471 101.47192 -200 45 -46.702866 171.15802 -12.818275 150.77722
13720000000 -13.414708 107.10288 -200 45 -46.95269 108.23043 -14.606045 146.68211
13730000000 -12.927278 108.95854 -200 45 -46.766563 42.45351 -16.687599 156.03168
13740000000 -12.498624 108.71457 -200 45 -46.478989 -23.6064 -16.139441 175.18179
13750000000 -12.308668 107.71313 -200 45 -46.145767 -91.241982 -13.604985 179.14381
13760000000 -12.151048 108.33981 -200 45 -46.552818 -158.78325 -12.052003 170.93126
13770000000 -11.609654 107.83901 -200 45 -47.088112 134.42285 -11.889632 161.20445
13780000000 -11.022296 104.59744 -200 45 -46.642296 69.077736 -12.49681 155.58415
13790000000 -10.879756 98.082962 -200 45 -46.971916 3.9164767 -13.151889 154.75574
13800000000 -11.35399 92.485641 -200 45 -47.023003 -62.628403 -13.201525 156.62013
13810000000 -12.315084 90.250641 -200 45 -46.804489 -128.88696 -12.671211 155.44093
13820000000 -12.966892 92.656441 -200 45 -47.522465 166.04149 -12.52288 148.44504
13830000000 -13.176044 95.714928 -200 45 -46.68454 99.612076 -13.507453 140.44196
13840000000 -13.070443 97.553932 -200 45 -47.101265 31.963495 -15.621842 140.33194
13850000000 -13.097755 98.685875 -200 45 -47.629662 -37.657444 -17.002184 154.62605
13860000000 -12.99853 101.73666 -200 45 -47.795418 -96.508423 -15.80733 168.75121
13870000000 -12.264743 104.43339 -200 45 -47.986645 -163.08305 -13.879469 169.9373
13880000000 -11.307783 102.57883 -200 45 -47.751919 132.98015 -12.836049 163.5562
13890000000 -10.687075 96.541412 -200 45 -47.559792 67.957962 -12.791846 156.99544
13900000000 -10.707406 89.353584 -200 45 -47.104855 0.94895202 -13.172009 153.99971
13910000000 -11.308339 83.850807 -200 45 -47.189548 -64.725868 -13.274455 153.75574
13920000000 -12.118073 82.453796 -200 45 -46.987827 -134.06378 -13.036756 152.34566
13930000000 -12.733945 83.295502 -200 45 -46.827393 160.14868 -12.932491 147.80783
13940000000 -13.128037 85.325165 -200 45 -47.328869 93.315392 -13.385441 142.02888
13950000000 -13.4505 87.589394 -200 45 -47.058392 28.906355 -14.576384 138.38402
13960000000 -13.641292 92.564102 -200 45 -47.482876 -37.647888 -16.08075 142.26443
13970000000 -13.045415 98.249268 -200 45 -47.102833 -101.51827 -16.582071 153.0741
13980000000 -11.949791 100.13564 -200 45 -46.867958 -170.80214 -15.762292 160.4348
13990000000 -10.813022 96.847183 -200 45 -46.970051 123.83841 -14.71635 162.01065
14000000000 -10.237028 89.803078 -200 45 -47.158356 57.111492 -13.956814 159.95779
14010000000 -10.371511 82.056297 -200 45 -46.690353 -9.1925297 -13.483285 157.3942
14020000000 -11.043314 77.29464 -200 45 -47.399384 -76.093933 -12.990865 154.30583
14030000000 -11.839921 75.688736 -200 45 -47.044807 -140.873 -12.691498 148.51408
14040000000 -12.394481 77.073013 -200 45 -46.852791 153.38631 -12.996625 142.4128
14050000000 -12.798449 77.738876 -200 45 -47.298744 85.049202 -13.638191 138.90034
14060000000 -13.420625 80.585144 -200 45 -46.995552 19.177778 -14.399343 136.76224
14070000000 -13.562352 87.78511 -200 45 -46.800133 -47.603584 -15.268693 138.0434
14080000000 -12.648273 94.061249 -200 45 -47.426952 -111.39301 -15.586419 142.04179
14090000000 -11.239024 94.109924 -200 45 -47.038784 -176.5659 -15.637461 143.75139
14100000000 -10.269049 88.29467 -200 45 -46.415535 114.4152 -16.05806 146.61093
14110000000 -9.9813976 81.016449 -200 45 -47.122955 45.218983 -15.857377 154.13046
14120000000 -10.186804 74.547409 -200 45 -46.541306 -21.265915 -14.651005 158.12827
14130000000 -10.738504 69.834671 -200 45 -47.700127 -93.718506 -13.285199 155.85394
14140000000 -11.380092 67.828392 -200 45 -48.423737 -154.12383 -12.33465 147.99039
14150000000 -11.98053 66.708733 -200 45 -48.387081 145.04401 -12.330207 137.55089
14160000000 -12.733238 67.611938 -200 45 -47.652515 81.377846 -13.31573 129.32651
14170000000 -13.339186 72.091278 -200 45 -47.650436 14.479654 -14.825089 127.64419
14180000000 -13.178379 79.171158 -200 45 -46.433144 -56.235523 -15.702899 133.03094
14190000000 -12.142268 83.552437 -200 45 -47.10799 -129.57608 -15.543988 136.93977
14200000000 -10.913857 80.913551 -200 45 -48.542866 160.75519 -15.373478 135.96939
14210000000 -10.344807 75.082085 -200 45 -49.549744 98.916061 -15.977401 133.55685
14220000000 -10.237549 68.848671 -200 45 -49.930824 44.145599 -17.229231 137.68552
14230000000 -10.506336 64.204086 -200 45 -48.73922 -16.323879 -17.260735 151.94916
14240000000 -10.789525 61.087643 -200 45 -47.993065 -85.981705 -15.081889 159.00101
14250000000 -11.081972 57.497879 -200 45 -48.153233 -153.77855 -13.138681 152.84836
14260000000 -11.776537 54.159027 -200 45 -48.488983 139.35577 -12.377929 141.20663
14270000000 -12.751858 54.074059 -200 45 -48.350227 74.881126 -12.775967 129.41795
14280000000 -13.597799 59.886875 -200 45 -48.355209 10.631989 -14.159745 121.75244
14290000000 -13.22381 67.884392 -200 45 -48.211159 -56.061443 -15.888803 122.62616
14300000000 -12.045035 70.054153 -200 45 -48.064342 -121.68906 -16.56278 130.98204
14310000000 -11.220576 66.395081 -200 45 -47.833439 173.31439 -15.832948 134.35387
14320000000 -10.928321 61.687351 -200 45 -47.488297 104.50041 -15.524557 128.97047
14330000000 -10.988457 57.542637 -200 45 -47.550056 34.793499 -16.679626 123.4366
14340000000 -11.078607 55.441593 -200 45 -48.34177 -33.845329 -18.831472 129.94281
14350000000 -11.022276 52.202003 -200 45 -48.633724 -95.545105 -18.619995 149.77557
14360000000 -11.233416 48.297836 -200 45 -49.295177 -161.39911 -16.058838 156.80959
14370000000 -11.762031 44.387222 -200 45 -48.935562 139.66501 -13.966521 150.58717
14380000000 -12.724862 43.319176 -200 45 -48.499863 73.708626 -12.983863 138.20741
14390000000 -13.645304 47.640507 -200 45 -47.704895 11.273216 -13.335558 124.53201
14400000000 -13.428274 55.485695 -200 45 -47.424557 -58.641956 -14.901762 115.4335
14410000000 -12.509971 57.832134 -200 45 -47.057495 -128.10696 -16.860901 116.09686
14420000000 -11.755964 55.267006 -200 45 -47.594383 163.70648 -17.618294 124.34409
14430000000 -11.600943 51.811951 -200 45 -47.81966 96.993195 -17.151527 128.77605
14440000000 -11.501767 50.345966 -200 45 -48.178104 30.977907 -16.788303 125.32893
14450000000 -11.172297 48.299412 -200 45 -47.983936 -28.086458 -17.775513 118.85704
14460000000 -10.923752 44.293785 -200 45 -47.45052 -94.475449 -20.204472 123.34444
14470000000 -10.930137 38.781666 -200 45 -46.708179 -163.55705 -20.464169 147.60588
14480000000 -11.504359 33.109913 -200 45 -46.905647 125.31825 -17.293507 157.46892
14490000000 -12.6609 31.546988 -200 45 -47.22176 57.849831 -14.768165 149.66798
14500000000 -13.361628 36.901291 -200 45 -47.480015 -9.2126074 -13.649523 135.58455
14510000000 -13.051294 40.909409 -200 45 -47.915009 -72.456726 -13.824532 120.13661
14520000000 -12.654183 41.186146 -200 45 -48.12867 -137.16768 -15.353083 107.32359
14530000000 -12.553565 40.592793 -200 45 -48.276585 159.00241 -18.059988 103.73992
14540000000 -12.328876 41.967995 -200 45 -47.636475 98.18129 -20.014692 116.88907
14550000000 -11.784583 41.726036 -200 45 -46.55954 30.047079 -18.933851 126.72362
14560000000 -11.094856 39.379967 -200 45 -46.357094 -41.570488 -18.064909 121.05547
14570000000 -10.549227 33.38036 -200 45 -46.670971 -112.10603 -19.04245 111.74473
14580000000 -10.6363 24.70792 -200 45 -47.201008 -179.76784 -22.087563 111.85844
14590000000 -11.639269 17.954515 -200 45 -47.74094 120.22606 -23.632725 145.60059
14600000000 -12.964642 18.238836 -200 45 -47.407887 53.938217 -18.922506 161.15236
14610000000 -13.543791 22.311489 -200 45 -46.819637 -12.021069 -15.54123 149.62715
14620000000 -13.619881 26.057478 -200 45 -46.483719 -81.83947 -14.204694 130.31424
14630000000 -13.495014 26.766039 -200 45 -46.91151 -151.72922 -14.659161 110.40795
14640000000 -13.741706 29.201412 -200 45 -47.858437 142.09868 -16.662577 93.981895
14650000000 -13.328677 33.737328 -200 45 -47.614082 79.458191 -20.393238 87.538727
14660000000 -12.331455 34.665466 -200 45 -47.500462 15.005979 -23.350521 111.16519
14670000000 -11.359499 30.474997 -200 45 -47.785835 -53.284306 -20.586325 124.59393
14680000000 -10.89019 22.925299 -200 45 -47.513432 -120.62354 -19.139832 111.3505
14690000000 -11.144579 14.116531 -200 45 -47.965687 178.15585 -20.760563 93.009239
14700000000 -12.149664 8.1927357 -200 45 -48.036304 112.97157 -27.053606 86.831352
14710000000 -13.244512 6.8404651 -200 45 -47.671432 45.898014 -28.003784 172.12329
14720000000 -14.222393 8.9610605 -200 45 -47.209007 -17.264095 -19.694605 169.4576
14730000000 -14.585413 12.810223 -200 45 -46.914803 -87.716049 -16.268534 147.18539
14740000000 -15.011545 15.151442 -200 45 -47.714371 -154.03465 -15.200922 122.03827
14750000000 -15.32105 22.687153 -200 45 -47.742508 139.71344 -16.049313 96.852982
14760000000 -14.184777 30.187565 -200 45 -46.875195 78.77375 -19.131166 75.865623
14770000000 -12.679128 28.207941 -200 45 -46.905499 11.302893 -25.039658 75.843163
14780000000 -11.77072 21.263849 -200 45 -46.555809 -60.91518 -25.813637 119.38274
14790000000 -11.615834 12.493267 -200 45 -46.291733 -125.19613 -21.872297 117.65972
14800000000 -12.113647 4.8182015 -200 45 -46.481052 163.88618 -21.319128 96.107132
14810000000 -13.066812 0.075144939 -200 45 -47.140648 95.913918 -24.389137 68.677727
14820000000 -14.078377 -0.9659121 -200 45 -47.759323 30.552237 -39.032715 16.24366
14830000000 -14.89776 0.045639526 -200 45 -47.269417 -31.996902 -25.565044 -159.30865
14840000000 -15.692286 2.4837892 -200 45 -47.783958 -92.549072 -19.341642 167.68634
14850000000 -16.477879 7.6848297 -200 45 -47.262524 -160.79721 -16.995274 137.19017
14860000000 -16.472731 19.182194 -200 45 -46.171276 133.10753 -16.765888 107.53338
14870000000 -14.951824 25.8631 -200 45 -46.460045 63.009789 -18.489067 80.053802
14880000000 -13.166491 23.399038 -200 45 -46.774162 -5.3316622 -22.456131 57.83482
14890000000 -12.205311 14.350624 -200 45 -46.902275 -75.482079 -30.209253 58.372402
14900000000 -12.154961 4.7591162 -200 45 -47.677559 -137.02792 -29.813568 114.22797
14910000000 -12.767448 -2.4528339 -200 45 -47.443527 159.00966 -25.806667 100.82453
14920000000 -13.466946 -7.0520954 -200 45 -47.168663 93.34211 -26.186972 66.708244
14930000000 -14.387323 -10.349028 -200 45 -46.730621 27.844181 -31.076105 10.888123
14940000000 -15.513075 -11.76286 -200 45 -46.30571 -39.271187 -30.848978 -104.36359
14950000000 -16.740311 -8.5837984 -200 45 -46.496674 -112.05974 -24.264286 -160.17366
14960000000 -17.560814 0.088423312 -200 45 -46.801727 178.19604 -20.917381 164.07759
14970000000 -16.88439 10.778762 -200 45 -47.329876 112.37923 -19.591841 130.9967
14980000000 -15.368873 13.049899 -200 45 -48.685909 49.096161 -20.159389 98.394135
14990000000 -14.250656 7.9688902 -200 45 -48.249554 -10.548523 -22.590094 67.06044
15000000000 -13.823726 0.93685383 -200 45 -47.432713 -75.52755 -26.855148 40.300728
15010000000 -14.016655 -5.8431635 -200 45 -47.022152 -144.00551 -33.014984 21.237753
15020000000 -14.491986 -9.7790651 -200 45 -46.966709 146.06342 -39.657112 25.908798
15030000000 -14.652882 -12.882455 -200 45 -47.291183 78.307304 -38.61898 22.042454
15040000000 -15.02538 -19.179077 -200 45 -47.77935 9.9049196 -33.996342 -31.541712
15050000000 -16.27075 -25.922544 -200 45 -48.225552 -51.880859 -28.63563 -79.584175
15060000000 -18.589993 -24.490753 -200 45 -48.080906 -118.36984 -25.002493 -117.92704
15070000000 -19.660719 -8.7967196 -200 45 -48.196625 175.51732 -22.935389 -151.79704
15080000000 -18.160576 2.8134747 -200 45 -48.414043 111.47317 -22.283558 176.4592
15090000000 -16.420351 0.032541759 -200 45 -48.172668 47.869343 -22.988701 144.05672
15100000000 -15.897807 -7.4518509 -200 45 -47.9091 -18.695248 -25.003082 108.49683
15110000000 -16.137426 -13.508534 -200 45 -48.109222 -86.608994 -27.88093 65.218666
15120000000 -16.669601 -15.322097 -200 45 -48.102642 -150.72202 -30.172516 5.6795168
15130000000 -16.56344 -14.401672 -200 45 -48.041988 143.48808 -30.164545 -51.859077
15140000000 -15.959079 -18.781155 -200 45 -48.033375 79.082329 -29.897228 -83.385727
15150000000 -16.066257 -27.802221 -200 45 -47.792522 14.19084 -29.213991 -90.448006
15160000000 -17.055925 -35.964481 -200 45 -47.167053 -52.670994 -26.777206 -92.01873
15170000000 -18.999861 -40.030621 -200 45 -46.529522 -121.58359 -23.891474 -100.80291
15180000000 -20.911917 -29.88133 -200 45 -46.887867 168.57849 -21.561428 -116.47125
15190000000 -20.136818 -16.860012 -200 45 -47.244083 98.327621 -20.248621 -138.50839
15200000000 -18.710194 -17.564003 -200 45 -47.732342 30.027782 -20.519762 -165.35591
15210000000 -18.290863 -24.672308 -200 45 -47.86446 -32.447018 -22.824316 165.83784
15220000000 -18.939869 -28.846001 -200 45 -48.209995 -97.78537 -28.016766 132.67914
15230000000 -19.341272 -24.794092 -200 45 -48.077312 -162.99878 -37.575653 30.674219
15240000000 -18.173956 -23.267748 -200 45 -47.997551 128.01294 -28.212353 -58.813522
15250000000 -17.112282 -32.233482 -200 45 -48.029476 61.071331 -24.484388 -87.550751
15260000000 -17.190336 -45.673321 -200 45 -48.521664 -4.8612857 -23.574276 -103.05009
15270000000 -18.489952 -58.119816 -200 45 -49.01207 -68.755516 -23.485714 -105.8054
15280000000 -20.874535 -64.198517 -200 45 -48.643944 -130.57469 -22.165241 -103.35619
15290000000 -23.256941 -58.090221 -200 45 -48.350849 159.92831 -20.032053 -108.26599
15300000000 -23.843739 -47.000317 -200 45 -48.357815 95.65313 -18.379467 -121.58933
15310000000 -23.632774 -41.703106 -200 45 -48.429581 28.240099 -17.958374 -140.06854
15320000000 -24.031357 -40.080791 -200 45 -48.271591 -40.049267 -19.260778 -158.71959
15330000000 -24.089495 -27.461269 -200 45 -48.225727 -106.33489 -22.612692 -170.83871
