!Keysight Technologies,P9374A,MY57211810,A.19.30.04
!Date: Friday, May 02, 2025 09:03:29
!Correction: S11(Off) 
!S21(Off) 
!S12(Off) 
!S22(Off) 
!S2P File: Measurements: S11, S21, S12, S22:
# Hz S  dB   R 50
13000000000 -11.905505 111.93665 -200 45 -47.449833 120.80395 -12.867482 -174.43491
13010000000 -12.71097 107.24114 -200 45 -47.320213 51.137192 -18.233358 -177.32993
13020000000 -13.859579 104.31215 -200 45 -47.749844 -23.694939 -19.878788 -118.60457
13030000000 -15.090094 106.51018 -200 45 -48.445633 -91.677055 -13.543943 -112.82387
13040000000 -15.868864 112.86564 -200 45 -49.061512 -158.60275 -10.936127 -129.47374
13050000000 -15.825956 121.82454 -200 45 -48.822304 134.77957 -10.700708 -147.98145
13060000000 -14.798421 127.97231 -200 45 -49.07439 69.089478 -12.393714 -161.42888
13070000000 -13.671107 127.70119 -200 45 -49.219513 -0.41283861 -15.392888 -158.73204
13080000000 -12.891656 124.66348 -200 45 -49.133656 -63.959312 -15.509187 -136.39725
13090000000 -12.364712 120.95426 -200 45 -49.701355 -141.98071 -12.703671 -132.89316
13100000000 -12.002246 115.60016 -200 45 -50.663876 159.14366 -11.105866 -144.50554
13110000000 -11.8978 109.83271 -200 45 -51.691525 97.337616 -11.15903 -160.60873
13120000000 -12.180515 103.13068 -200 45 -51.034286 35.445793 -13.300091 -175.72856
13130000000 -13.126863 97.562149 -200 45 -50.543507 -21.988199 -18.50062 -173.61784
13140000000 -14.519052 96.557114 -200 45 -49.552044 -91.224258 -18.733162 -120.89525
13150000000 -15.596402 102.53127 -200 45 -48.745934 -161.7859 -13.083987 -117.19195
13160000000 -15.719268 109.73331 -200 45 -49.37429 126.57188 -10.5397 -133.54762
13170000000 -15.392834 115.32551 -200 45 -48.736485 62.669724 -10.22438 -152.16254
13180000000 -14.721984 119.49873 -200 45 -48.552208 -7.5733523 -11.83421 -166.65645
13190000000 -13.835736 121.18764 -200 45 -48.15451 -79.278557 -14.975543 -165.72742
13200000000 -12.804945 120.07318 -200 45 -49.378254 -150.31824 -15.307256 -142.34058
13210000000 -11.892444 114.05444 -200 45 -49.46804 143.98175 -12.344915 -139.61125
13220000000 -11.75623 106.10062 -200 45 -49.847252 74.265938 -10.833145 -152.67534
13230000000 -12.264233 99.775223 -200 45 -50.305653 7.3888459 -11.114845 -169.416
13240000000 -13.05068 95.370216 -200 45 -51.172066 -56.9142 -13.516726 175.55769
13250000000 -14.285032 95.035332 -200 45 -52.736782 -123.34161 -19.058624 -179.08638
13260000000 -15.147659 99.087967 -200 45 -52.732365 -175.19803 -18.31687 -126.7383
13270000000 -15.678251 104.55234 -200 45 -51.728344 125.33923 -12.979995 -126.00899
13280000000 -16.001184 113.59054 -200 45 -50.732983 56.345688 -10.669563 -142.35794
13290000000 -14.807478 123.08022 -200 45 -50.397175 -8.0975313 -10.48857 -160.31717
13300000000 -13.375865 123.93581 -200 45 -50.015823 -78.073547 -12.174533 -173.048
13310000000 -12.132267 120.65907 -200 45 -49.247849 -142.59612 -14.777689 -168.96881
13320000000 -11.511467 114.17631 -200 45 -49.019112 145.15825 -14.18478 -151.62306
13330000000 -11.45424 106.97789 -200 45 -48.879028 78.546913 -11.716847 -154.16614
13340000000 -11.902994 102.03063 -200 45 -48.647259 7.0110888 -10.819617 -168.6142
13350000000 -12.48654 98.339348 -200 45 -48.807999 -60.256287 -11.713983 175.59837
13360000000 -13.47149 96.707436 -200 45 -48.761059 -134.62138 -14.730942 165.61217
13370000000 -14.571571 99.688774 -200 45 -49.6912 159.52721 -19.080313 -174.69829
13380000000 -15.269547 106.94107 -200 45 -50.045322 92.92968 -16.128099 -142.34317
13390000000 -14.882814 115.7716 -200 45 -50.238071 25.247931 -12.470895 -146.82578
13400000000 -13.962884 121.43098 -200 45 -50.62598 -43.530499 -10.959449 -161.42003
13410000000 -12.614182 121.16961 -200 45 -51.792114 -104.80177 -11.213934 -175.98331
13420000000 -11.933086 117.13182 -200 45 -51.185795 -169.14545 -12.939413 176.1804
13430000000 -11.460492 112.31944 -200 45 -52.013653 127.02619 -14.634722 -175.79736
13440000000 -11.364205 106.51434 -200 45 -51.337414 70.771759 -13.368245 -164.55652
13450000000 -11.74831 100.20796 -200 45 -49.997059 -0.77092516 -11.402026 -170.1895
13460000000 -12.624897 96.765411 -200 45 -50.059666 -66.938148 -10.869673 175.95023
13470000000 -13.632106 96.634933 -200 45 -50.072845 -137.17709 -12.016374 161.79141
13480000000 -14.53775 99.969131 -200 45 -49.104553 158.85768 -14.989561 155.30702
13490000000 -14.873392 106.69422 -200 45 -49.45488 80.055862 -18.267925 174.76071
13500000000 -14.813372 111.21038 -200 45 -50.551231 15.197776 -16.012817 -160.17181
13510000000 -14.246096 116.78201 -200 45 -51.1399 -49.439445 -13.018954 -161.83144
13520000000 -13.437593 118.9949 -200 45 -50.740517 -111.83141 -11.662879 -172.46657
13530000000 -12.384567 117.2329 -200 45 -50.46299 176.87152 -11.666514 176.24762
13540000000 -11.910524 112.2145 -200 45 -50.789898 108.2498 -12.779418 169.38716
13550000000 -11.856001 106.29427 -200 45 -51.309658 37.86158 -13.989975 172.59541
13560000000 -12.365685 102.11974 -200 45 -53.437832 -26.191217 -13.61909 -179.9825
13570000000 -13.066149 101.13046 -200 45 -53.485268 -81.204681 -12.315839 178.32039
13580000000 -13.333521 102.72485 -200 45 -53.60474 -139.94626 -11.806602 168.7556
13590000000 -13.696623 103.2035 -200 45 -51.910946 159.42828 -12.626042 158.2574
13600000000 -14.07408 104.66337 -200 45 -50.57613 93.193985 -14.802228 153.76773
13610000000 -14.421714 109.96654 -200 45 -49.813873 17.13553 -17.114191 166.07333
13620000000 -14.018302 115.60202 -200 45 -50.656895 -50.21434 -16.065277 -173.51257
13630000000 -12.923357 118.45837 -200 45 -50.572987 -120.02114 -13.553593 -171.51245
13640000000 -12.068765 115.16807 -200 45 -51.073395 174.57109 -12.152122 -179.3502
13650000000 -11.749373 111.15107 -200 45 -50.660561 111.21225 -11.828223 171.3208
13660000000 -11.784906 107.9702 -200 45 -50.354645 40.352448 -12.391242 163.79974
13670000000 -11.861835 105.68111 -200 45 -50.396725 -29.665991 -13.391895 162.76692
13680000000 -11.933151 104.14473 -200 45 -50.902702 -100.7115 -13.525749 167.15965
13690000000 -12.036465 101.81796 -200 45 -52.064228 -164.41354 -12.674611 167.4772
13700000000 -12.472636 99.651497 -200 45 -52.780884 132.4359 -12.115788 160.16562
13710000000 -13.168315 100.73385 -200 45 -52.625519 71.836159 -12.734761 150.59631
13720000000 -13.401858 104.49087 -200 45 -52.935844 5.6902971 -14.596989 145.95761
13730000000 -13.200741 107.79653 -200 45 -52.526524 -49.57019 -16.875467 156.08391
13740000000 -12.844182 110.07507 -200 45 -51.150471 -116.54976 -16.009258 176.27779
13750000000 -12.225102 110.33541 -200 45 -50.869049 172.61044 -13.498343 178.36453
13760000000 -11.76852 108.88944 -200 45 -49.997936 106.73704 -12.154445 170.48795
13770000000 -11.358305 105.7223 -200 45 -50.340008 34.870167 -11.933903 161.71683
13780000000 -11.213213 102.34781 -200 45 -50.146023 -27.733088 -12.452042 155.71619
13790000000 -11.284307 97.893097 -200 45 -49.900665 -99.216316 -13.110862 154.69817
13800000000 -11.558713 95.164284 -200 45 -49.298843 -165.87396 -13.204679 156.39418
13810000000 -12.022741 92.93058 -200 45 -49.085339 119.50378 -12.708651 155.30933
13820000000 -12.372844 91.779709 -200 45 -50.479355 49.206928 -12.550026 148.77966
13830000000 -13.162238 91.568275 -200 45 -50.796188 -15.904467 -13.448017 140.92484
13840000000 -13.677223 95.523056 -200 45 -51.334953 -81.494759 -15.516258 139.60632
13850000000 -13.590804 102.64758 -200 45 -51.670853 -145.80638 -17.214111 153.99203
13860000000 -12.582519 105.39629 -200 45 -51.500202 147.82506 -15.780047 170.09456
13870000000 -11.623155 103.35303 -200 45 -52.04464 77.61837 -13.746828 169.68323
13880000000 -11.246589 98.75029 -200 45 -52.623119 14.44795 -12.843868 162.93512
13890000000 -11.126684 94.302589 -200 45 -53.175465 -47.278873 -12.867862 156.8304
13900000000 -11.26031 91.209732 -200 45 -52.75053 -104.24589 -13.202973 154.55952
13910000000 -11.260475 88.173714 -200 45 -51.382515 -165.8192 -13.193591 154.11513
13920000000 -11.458342 83.862686 -200 45 -50.238613 122.88385 -12.988353 151.81139
13930000000 -12.215177 79.451241 -200 45 -50.154728 47.506542 -12.798522 147.56781
13940000000 -13.605491 80.339966 -200 45 -50.281475 -23.197269 -13.435666 141.08073
13950000000 -14.312067 89.487572 -200 45 -50.821453 -90.935463 -14.741804 138.78444
13960000000 -13.619921 98.16021 -200 45 -50.573597 -156.40401 -16.024073 143.25702
13970000000 -12.271544 99.780884 -200 45 -51.020386 135.42924 -16.419386 152.23708
13980000000 -11.51999 96.350685 -200 45 -51.046616 71.377495 -15.848577 159.52628
13990000000 -11.11794 92.787704 -200 45 -51.433079 7.8637438 -14.807633 162.57498
14000000000 -10.905754 90.269295 -200 45 -50.313221 -60.017365 -13.892006 160.66951
14010000000 -10.588332 85.872459 -200 45 -50.955208 -132.31648 -13.399324 157.18872
14020000000 -10.625477 80.470108 -200 45 -52.146461 161.13058 -13.014459 153.61862
14030000000 -11.15242 74.45993 -200 45 -51.800327 103.29691 -12.811096 148.51328
14040000000 -12.321527 71.597015 -200 45 -51.216228 38.951389 -12.988451 143.17885
14050000000 -13.653324 76.065681 -200 45 -50.813557 -27.076435 -13.517286 138.6981
14060000000 -13.83995 85.323479 -200 45 -50.885845 -96.486847 -14.396434 136.1279
14070000000 -13.003286 91.460876 -200 45 -50.696705 -159.86533 -15.351209 138.09348
14080000000 -12.09848 91.884079 -200 45 -50.164719 133.71387 -15.618839 142.60323
14090000000 -11.30696 90.703735 -200 45 -48.990459 63.584873 -15.562098 144.20702
14100000000 -10.719599 87.386696 -200 45 -49.285294 -13.643146 -15.928922 145.88882
14110000000 -10.213011 83.011627 -200 45 -50.13517 -84.626099 -16.052818 153.29004
14120000000 -10.084801 76.625008 -200 45 -51.702229 -148.76341 -14.7443 159.5663
14130000000 -10.378918 70.017319 -200 45 -52.410282 150.24101 -13.095394 156.20592
14140000000 -11.229714 66.041519 -200 45 -51.43615 91.11834 -12.280916 146.91373
14150000000 -12.20013 64.735123 -200 45 -50.42519 16.628317 -12.470917 136.88637
14160000000 -13.060969 68.667595 -200 45 -51.78067 -48.368973 -13.41749 130.19485
14170000000 -13.280357 74.395859 -200 45 -51.687504 -116.56864 -14.689352 128.54707
14180000000 -12.79707 79.183708 -200 45 -52.750732 -177.33147 -15.572332 132.14317
14190000000 -12.108429 81.47377 -200 45 -51.672981 122.23351 -15.676989 136.05623
14200000000 -11.15879 80.250526 -200 45 -50.84948 52.761181 -15.530415 136.74678
14210000000 -10.487264 76.241028 -200 45 -50.606884 -21.03076 -15.851427 134.5948
14220000000 -10.189646 70.187172 -200 45 -52.092323 -86.614792 -17.063829 136.71635
14230000000 -10.244942 64.441925 -200 45 -52.105251 -153.5024 -17.418724 151.16505
14240000000 -10.659663 59.163174 -200 45 -52.695614 147.03111 -15.189135 159.87637
14250000000 -11.352445 55.947315 -200 45 -52.377491 82.199219 -13.045981 153.55444
14260000000 -12.042766 55.560555 -200 45 -51.503586 21.482557 -12.251534 140.7003
14270000000 -12.720701 56.439964 -200 45 -50.191479 -48.687237 -12.814032 128.51225
14280000000 -13.135014 60.247734 -200 45 -50.434658 -125.07 -14.336062 121.69549
14290000000 -13.081651 65.281364 -200 45 -51.069496 165.27643 -15.921141 124.29259
14300000000 -12.344692 68.195496 -200 45 -51.94838 97.744385 -16.247511 130.99265
14310000000 -11.529993 67.720055 -200 45 -51.847687 32.901936 -15.8487 132.30969
14320000000 -10.939209 63.431461 -200 45 -52.739849 -33.577202 -15.845057 129.03857
14330000000 -10.720018 59.005077 -200 45 -53.159645 -96.83889 -16.685776 125.86969
14340000000 -10.809941 53.968178 -200 45 -54.175972 -163.99852 -18.357235 129.35789
14350000000 -11.074049 50.426437 -200 45 -53.626781 141.13794 -18.889563 147.25552
14360000000 -11.528982 47.71244 -200 45 -53.515347 75.655396 -16.270514 158.46648
14370000000 -11.947018 45.452179 -200 45 -53.022724 14.474498 -13.799444 151.59317
14380000000 -12.70188 45.617699 -200 45 -52.025173 -49.312584 -12.84939 137.45041
14390000000 -13.224896 47.929829 -200 45 -50.831451 -118.9116 -13.375675 123.717
14400000000 -13.241416 53.244808 -200 45 -50.35033 170.12706 -15.020845 115.3111
14410000000 -12.830849 55.774685 -200 45 -51.123951 95.0485 -16.937477 117.05013
14420000000 -12.103428 56.465736 -200 45 -51.504875 27.164587 -17.458868 125.35854
14430000000 -11.548403 54.466919 -200 45 -53.249104 -38.512562 -16.987247 127.34827
14440000000 -11.143651 50.66996 -200 45 -52.66589 -99.04438 -17.043985 123.94099
14450000000 -10.990917 46.616325 -200 45 -53.486141 -162.50826 -17.984074 120.65184
14460000000 -11.044313 42.388229 -200 45 -53.470062 129.34732 -19.776209 124.82727
14470000000 -11.278994 38.377316 -200 45 -53.422527 73.082909 -20.438587 144.44701
14480000000 -11.769891 35.837467 -200 45 -52.404003 12.8885 -17.614887 157.93405
14490000000 -12.228938 34.177044 -200 45 -50.889194 -59.121078 -14.737133 151.28656
14500000000 -12.830299 34.622932 -200 45 -51.708351 -130.41051 -13.454982 135.83354
14510000000 -13.258323 36.762539 -200 45 -51.294464 165.15465 -13.749386 119.02876
14520000000 -13.311706 41.213322 -200 45 -52.495628 97.315582 -15.532928 106.17831
14530000000 -12.779302 44.88419 -200 45 -51.051128 37.962231 -18.296518 104.82286
14540000000 -11.846871 44.287701 -200 45 -51.009769 -33.61837 -19.701046 118.30083
14550000000 -11.246395 40.192932 -200 45 -50.974155 -99.288872 -18.727312 125.05716
14560000000 -11.059118 35.281879 -200 45 -50.840336 -163.7395 -18.256369 119.87843
14570000000 -11.084989 31.34173 -200 45 -50.335011 128.6698 -19.250568 112.93572
14580000000 -11.26395 26.954119 -200 45 -49.690498 59.259487 -21.930223 113.94335
14590000000 -11.497823 23.464626 -200 45 -49.872078 -12.6437 -23.427206 144.05836
14600000000 -12.124036 19.263103 -200 45 -50.413975 -80.384056 -19.14756 160.58257
14610000000 -13.014995 17.234581 -200 45 -50.037735 -146.61247 -15.676245 150.30176
14620000000 -14.268417 20.954769 -200 45 -50.198444 142.89502 -14.179075 131.11864
14630000000 -14.399244 29.108212 -200 45 -51.005341 73.504883 -14.471904 110.42694
14640000000 -13.584373 35.204643 -200 45 -52.030884 6.1303606 -16.543695 92.357033
14650000000 -12.650476 34.79855 -200 45 -53.43074 -54.760166 -20.829048 86.557632
14660000000 -11.887364 31.558548 -200 45 -53.270016 -111.15222 -23.169464 115.73142
14670000000 -11.577147 26.879988 -200 45 -53.138836 -163.77325 -20.207697 123.36694
14680000000 -11.450251 22.100792 -200 45 -50.592804 130.17757 -19.271532 109.33154
14690000000 -11.478984 17.691298 -200 45 -49.22596 57.386028 -21.160059 92.501083
14700000000 -11.829596 11.070093 -200 45 -49.614891 -17.139179 -27.339714 90.341759
14710000000 -12.680168 6.9207292 -200 45 -49.334656 -87.042282 -27.683506 167.5267
14720000000 -13.933271 4.6669726 -200 45 -49.368355 -158.27621 -19.93326 168.20822
14730000000 -15.249315 9.2653933 -200 45 -49.920235 129.81218 -16.356602 147.46907
14740000000 -15.698947 19.53306 -200 45 -51.063671 62.455776 -15.212582 122.70584
14750000000 -14.795293 26.846231 -200 45 -52.119671 -7.7413707 -15.987084 97.946198
14760000000 -13.609801 28.494888 -200 45 -53.724003 -65.861343 -18.87295 75.831665
14770000000 -12.629354 25.093288 -200 45 -53.964722 -117.14603 -25.258146 71.297508
14780000000 -12.125422 18.980654 -200 45 -53.067467 -177.36009 -26.228449 123.90308
14790000000 -12.137711 13.853865 -200 45 -51.31554 125.27522 -21.517859 119.10765
14800000000 -12.162412 8.3757648 -200 45 -49.697536 54.098198 -20.903996 94.094185
14810000000 -12.593478 2.5270777 -200 45 -48.875515 -16.610283 -24.389879 63.23616
14820000000 -13.464234 -2.9679573 -200 45 -48.404728 -89.418343 -42.637939 -6.4219108
14830000000 -14.857388 -5.133225 -200 45 -48.030258 -165.02122 -25.086214 -164.05739
14840000000 -16.689556 -0.68260944 -200 45 -49.016918 121.05086 -19.460396 165.31471
14850000000 -17.145895 14.715351 -200 45 -49.862007 54.506046 -17.277693 137.06604
14860000000 -15.631834 24.457146 -200 45 -50.841778 -13.771596 -16.908556 109.29773
14870000000 -14.088552 22.569168 -200 45 -51.723671 -78.276863 -18.333483 81.541397
14880000000 -13.234324 18.032795 -200 45 -52.274841 -137.68747 -22.11664 56.630413
14890000000 -12.890016 12.578594 -200 45 -52.592583 163.05518 -30.17461 52.91597
14900000000 -12.62648 7.5255957 -200 45 -51.415051 101.10425 -30.364964 117.13832
14910000000 -12.672718 1.5636239 -200 45 -50.704685 39.929726 -25.503973 104.01221
14920000000 -12.90673 -6.0371046 -200 45 -50.004391 -33.72422 -25.496639 68.437607
14930000000 -13.940281 -13.101661 -200 45 -50.074612 -96.733841 -29.910662 8.8514643
14940000000 -15.804379 -16.148092 -200 45 -48.892864 -166.35716 -29.355843 -102.9554
14950000000 -17.395525 -7.339747 -200 45 -49.038483 119.32986 -23.510809 -162.09181
14960000000 -17.587805 4.9772806 -200 45 -49.527203 51.530022 -20.790417 160.20316
14970000000 -16.224319 10.945761 -200 45 -49.78466 -17.516148 -20.098742 128.61172
14980000000 -15.192582 9.6869946 -200 45 -50.574471 -82.149406 -20.713522 100.17237
14990000000 -14.732333 5.8612142 -200 45 -50.292072 -141.71016 -22.4394 71.991661
15000000000 -14.212573 3.3551252 -200 45 -50.368473 150.20422 -25.831049 41.437115
15010000000 -13.84313 -2.3226256 -200 45 -49.817783 86.707146 -32.327225 12.406371
15020000000 -13.843684 -10.005691 -200 45 -48.960621 17.74357 -42.875179 17.831766
15030000000 -14.46013 -17.103214 -200 45 -48.752903 -53.482269 -40.128162 33.469406
15040000000 -15.619888 -22.817423 -200 45 -49.132393 -126.72176 -34.284317 -23.298052
15050000000 -17.122881 -22.687523 -200 45 -50.454025 166.72801 -28.302446 -74.745033
15060000000 -18.299248 -17.442411 -200 45 -51.52433 108.1265 -24.428076 -116.79008
15070000000 -18.452477 -8.9422436 -200 45 -50.069492 46.007454 -22.602001 -153.49178
15080000000 -17.941114 -4.0819535 -200 45 -49.809456 -20.375418 -22.335436 173.60196
15090000000 -17.134068 -3.6309884 -200 45 -49.659451 -87.637749 -23.32106 142.00395
15100000000 -16.719954 -5.1283412 -200 45 -49.553154 -154.57951 -25.474936 109.63151
15110000000 -16.231239 -7.7964768 -200 45 -49.118877 142.13519 -28.443754 69.701904
15120000000 -15.905297 -11.680451 -200 45 -48.026913 75.750519 -30.576639 13.880459
15130000000 -15.779322 -18.029959 -200 45 -47.369549 2.8069308 -29.581732 -44.014763
15140000000 -16.043533 -24.342712 -200 45 -46.946156 -70.531059 -28.54981 -82.195251
15150000000 -16.758562 -30.246349 -200 45 -46.978397 -146.79362 -28.705038 -98.169586
15160000000 -17.941975 -33.872765 -200 45 -48.527813 138.09288 -27.843161 -93.742241
15170000000 -19.078678 -30.749273 -200 45 -50.43441 71.732544 -24.201374 -95.459175
15180000000 -19.409817 -27.743824 -200 45 -51.145111 14.834469 -21.05434 -114.53619
15190000000 -19.39381 -25.552305 -200 45 -51.798397 -46.252357 -19.894512 -140.96747
15200000000 -19.637724 -24.339499 -200 45 -52.089077 -102.68376 -20.691437 -168.10406
15210000000 -19.627251 -22.370647 -200 45 -50.552261 -160.65422 -23.206604 165.81625
15220000000 -19.025814 -19.026892 -200 45 -49.295921 133.75322 -28.57905 135.10402
15230000000 -18.073118 -21.833427 -200 45 -47.728741 64.027336 -39.973217 34.070297
15240000000 -17.354431 -28.950602 -200 45 -47.187473 -9.0342236 -28.982473 -57.215206
15250000000 -17.515108 -38.252468 -200 45 -46.874752 -82.810638 -24.581844 -84.138008
15260000000 -18.001076 -47.356388 -200 45 -46.738567 -153.78476 -23.254066 -101.58389
15270000000 -19.356432 -53.407433 -200 45 -47.299938 129.78751 -23.225225 -108.08311
15280000000 -20.525293 -56.500195 -200 45 -48.38382 57.743614 -22.465248 -105.24516
15290000000 -21.710272 -56.578564 -200 45 -50.061588 -9.1639462 -20.263786 -106.72655
15300000000 -23.306353 -58.768135 -200 45 -51.413464 -65.410172 -18.202114 -120.06616
15310000000 -25.240648 -47.840939 -200 45 -50.423302 -129.71777 -17.703793 -140.41643
15320000000 -25.332901 -29.206112 -200 45 -51.175629 166.26994 -19.200216 -160.54567
15330000000 -22.843731 -20.158882 -200 45 -51.072308 106.20353 -23.03896 -172.15022
