!Keysight Technologies,P9374A,MY57211810,A.19.30.04
!Date: Friday, May 02, 2025 09:02:00
!Correction: S11(Off) 
!S21(Off) 
!S12(Off) 
!S22(Off) 
!S2P File: Measurements: S11, S21, S12, S22:
# Hz S  dB   R 50
13000000000 -11.791431 114.79073 -200 45 -35.158859 -33.421814 -13.106333 -176.3893
13010000000 -12.273409 107.53101 -200 45 -35.149136 -99.114822 -18.647635 -173.40474
13020000000 -13.658362 101.38421 -200 45 -35.079376 -166.05765 -19.328754 -121.22075
13030000000 -15.49179 104.27101 -200 45 -34.891483 128.19693 -13.854959 -113.92871
13040000000 -16.328581 115.98555 -200 45 -34.860733 60.917454 -11.083928 -128.65688
13050000000 -15.383012 124.25352 -200 45 -35.109852 -6.7615657 -10.597575 -147.05263
13060000000 -14.450138 125.67574 -200 45 -35.10125 -70.751274 -12.218754 -161.77167
13070000000 -13.936001 125.38628 -200 45 -34.806686 -137.40236 -15.487783 -159.38831
13080000000 -13.195991 126.03479 -200 45 -34.730289 154.68663 -15.516413 -135.96196
13090000000 -12.257215 122.56062 -200 45 -34.91143 87.153404 -12.702328 -133.04649
13100000000 -11.724094 115.65972 -200 45 -34.963123 19.465475 -11.180978 -144.11954
13110000000 -11.815284 108.10832 -200 45 -35.077206 -45.36882 -11.114789 -159.73773
13120000000 -12.448296 101.99073 -200 45 -35.213577 -111.16624 -13.085857 -176.4803
13130000000 -13.393672 99.192642 -200 45 -35.031246 -178.52768 -18.870998 -176.54398
13140000000 -14.272825 99.098305 -200 45 -35.241451 115.58582 -18.41699 -117.41261
13150000000 -15.153483 100.70599 -200 45 -35.120762 49.571655 -12.845774 -118.82809
13160000000 -15.932831 106.66376 -200 45 -35.480473 -17.066591 -10.698869 -134.79816
13170000000 -15.85224 115.91843 -200 45 -35.148571 -81.485069 -10.438583 -151.15114
13180000000 -14.773232 122.75713 -200 45 -35.325218 -147.65498 -11.697572 -164.84026
13190000000 -13.368879 122.17554 -200 45 -34.987568 146.43935 -14.64489 -167.45012
13200000000 -12.536516 117.41881 -200 45 -34.858692 78.856911 -15.661181 -143.55296
13210000000 -12.198713 112.11987 -200 45 -35.090881 9.8062325 -12.380392 -138.03464
13220000000 -12.098704 106.88401 -200 45 -35.438446 -55.04184 -10.664602 -152.40077
13230000000 -12.279839 101.98177 -200 45 -35.48362 -118.68724 -11.076735 -170.14903
13240000000 -12.797108 96.929405 -200 45 -35.088917 175.35768 -13.623099 175.75607
13250000000 -13.84164 93.656136 -200 45 -35.003944 108.83075 -18.966436 -178.38452
13260000000 -15.322097 95.161713 -200 45 -34.838684 41.886333 -18.457201 -126.67698
13270000000 -16.345575 105.53517 -200 45 -34.866314 -25.826437 -12.968587 -125.48185
13280000000 -15.881366 117.77511 -200 45 -34.996517 -92.616447 -10.596591 -142.70361
13290000000 -14.345381 122.92021 -200 45 -34.991062 -157.65703 -10.540385 -161.09816
13300000000 -13.212482 121.67744 -200 45 -34.801498 136.30046 -12.314006 -172.56326
13310000000 -12.416411 119.15183 -200 45 -34.787762 68.596207 -14.548373 -167.55501
13320000000 -11.771542 115.12723 -200 45 -34.883678 1.6827291 -14.052995 -153.89804
13330000000 -11.415789 109.14349 -200 45 -34.840607 -63.938194 -11.983434 -154.1414
13340000000 -11.597247 102.12676 -200 45 -34.928761 -130.74393 -10.853331 -166.94785
13350000000 -12.406749 96.771164 -200 45 -34.937553 163.54655 -11.516355 175.99208
13360000000 -13.71648 95.706009 -200 45 -34.826897 97.554955 -14.653911 163.84332
13370000000 -14.710954 100.99059 -200 45 -34.582188 30.488384 -19.418585 -175.12268
13380000000 -15.104842 107.91766 -200 45 -34.87281 -36.893005 -16.050892 -141.62303
13390000000 -14.752831 115.01952 -200 45 -34.539097 -103.0068 -12.380516 -147.35521
13400000000 -14.058953 120.45522 -200 45 -34.701046 -171.50908 -10.984818 -161.7011
13410000000 -12.805852 121.65788 -200 45 -34.893475 122.11109 -11.223028 -175.71158
13420000000 -11.827256 118.53281 -200 45 -35.023476 56.397858 -12.917935 176.08745
13430000000 -11.262602 111.90787 -200 45 -34.959702 -9.4531221 -14.703511 -175.436
13440000000 -11.370925 105.06797 -200 45 -34.94191 -76.751678 -13.254824 -164.32138
13450000000 -11.95055 99.809418 -200 45 -35.077129 -142.76846 -11.427852 -171.03285
13460000000 -12.786567 97.842499 -200 45 -35.131393 150.41939 -11.043261 175.83195
13470000000 -13.516325 98.437836 -200 45 -35.215881 85.006279 -12.03413 163.05772
13480000000 -14.147083 99.762604 -200 45 -35.328426 18.920546 -14.632095 155.77243
13490000000 -14.864447 103.3772 -200 45 -35.298691 -46.479034 -18.359451 171.15443
13500000000 -15.246358 110.95655 -200 45 -35.217899 -113.03801 -16.271263 -157.78722
13510000000 -14.463115 119.57972 -200 45 -35.181923 -178.48737 -12.740569 -160.96291
13520000000 -13.069967 120.7272 -200 45 -35.117924 113.96347 -11.568439 -173.7076
13530000000 -12.08321 116.05476 -200 45 -35.192848 47.707821 -11.871314 176.07802
13540000000 -11.895019 109.75024 -200 45 -35.183487 -19.693714 -12.830276 170.58855
13550000000 -12.24098 105.22102 -200 45 -35.437138 -85.744232 -13.902037 172.06555
13560000000 -12.708928 104.01924 -200 45 -35.571999 -151.15903 -13.665837 179.40118
13570000000 -12.800473 104.39847 -200 45 -35.49221 142.6478 -12.317292 178.28999
13580000000 -12.88637 102.01507 -200 45 -35.583027 78.098015 -11.82275 168.65448
13590000000 -13.549561 99.927956 -200 45 -35.439686 12.623517 -12.68097 158.58374
13600000000 -14.609559 102.64682 -200 45 -35.272255 -53.412121 -14.686112 154.40636
13610000000 -14.831262 112.94523 -200 45 -35.218174 -119.92306 -17.036892 164.7646
13620000000 -13.629842 118.69922 -200 45 -35.023598 173.0088 -16.279554 -173.12766
13630000000 -12.498528 117.02495 -200 45 -35.178871 105.52662 -13.482966 -170.61481
13640000000 -12.07223 112.67712 -200 45 -35.221443 39.660324 -12.055994 -179.6646
13650000000 -12.077873 110.23092 -200 45 -35.23164 -25.887413 -11.901511 170.76018
13660000000 -12.04402 109.44865 -200 45 -35.269341 -93.271599 -12.444027 164.30449
13670000000 -11.71544 107.94702 -200 45 -35.198654 -157.98843 -13.31054 162.57379
13680000000 -11.603987 103.71947 -200 45 -35.110622 135.11354 -13.589089 166.99002
13690000000 -12.014561 100.05957 -200 45 -35.096588 68.469589 -12.626421 167.75835
13700000000 -12.684795 99.03022 -200 45 -35.208675 2.7292109 -12.062366 159.64557
13710000000 -13.253218 101.4557 -200 45 -34.938828 -63.183601 -12.843022 150.25516
13720000000 -13.391452 105.20253 -200 45 -35.014038 -130.1951 -14.637578 147.25647
13730000000 -13.130466 108.00674 -200 45 -34.886547 162.13026 -16.584635 156.1124
13740000000 -12.783708 109.82177 -200 45 -35.013508 96.004333 -16.191744 174.91135
13750000000 -12.222505 109.99128 -200 45 -35.056751 29.132288 -13.643105 179.38515
13760000000 -11.790409 108.71269 -200 45 -35.132442 -37.707874 -12.055454 171.0672
13770000000 -11.395426 105.5909 -200 45 -35.301979 -104.45329 -11.855331 161.08395
13780000000 -11.28086 102.14894 -200 45 -35.331589 -168.51419 -12.52723 155.20493
13790000000 -11.33946 99.079796 -200 45 -35.233982 125.00122 -13.176661 155.0869
13800000000 -11.411501 95.794365 -200 45 -35.09206 58.341972 -13.104622 156.77934
13810000000 -11.778073 91.927429 -200 45 -35.401154 -9.3358021 -12.697825 154.83409
13820000000 -12.549249 89.866417 -200 45 -35.378967 -74.263306 -12.605905 148.76576
13830000000 -13.442662 91.881424 -200 45 -35.566135 -139.1857 -13.430343 140.93158
13840000000 -13.800179 98.304985 -200 45 -35.2351 154.62801 -15.548614 139.3768
13850000000 -13.163744 103.31174 -200 45 -35.215645 88.203896 -17.170004 155.33235
13860000000 -12.353737 103.49453 -200 45 -35.075577 20.430496 -15.630947 169.09294
13870000000 -11.855922 101.3059 -200 45 -35.179607 -46.696896 -13.930119 169.0834
13880000000 -11.585184 99.152695 -200 45 -35.59362 -113.98812 -12.955389 164.07819
13890000000 -11.223683 96.957115 -200 45 -35.781788 -179.65652 -12.677897 157.57135
13900000000 -10.885876 92.446815 -200 45 -36.182968 116.85368 -13.126649 152.94965
13910000000 -10.954901 86.609337 -200 45 -35.775612 53.874367 -13.459332 153.82698
13920000000 -11.578966 81.04541 -200 45 -35.498428 -12.424307 -12.982477 153.27489
13930000000 -12.705775 79.327782 -200 45 -35.10146 -80.478714 -12.776339 147.05946
13940000000 -13.769582 83.795479 -200 45 -35.093678 -148.48598 -13.500798 141.25081
13950000000 -13.79884 91.317383 -200 45 -35.396534 142.27675 -14.644558 139.73755
13960000000 -13.267141 95.405754 -200 45 -35.839027 77.211235 -15.89386 142.52922
13970000000 -12.585538 97.264809 -200 45 -35.846001 11.893708 -16.658964 151.89937
13980000000 -11.915249 97.396133 -200 45 -36.010151 -52.263107 -15.906266 161.16086
13990000000 -11.114322 95.444351 -200 45 -35.841843 -118.36331 -14.636656 162.38791
14000000000 -10.586145 90.746315 -200 45 -35.669716 176.13521 -13.905294 159.342
14010000000 -10.374298 84.602829 -200 45 -35.743515 108.05603 -13.56158 157.07626
14020000000 -10.742097 78.489212 -200 45 -35.878319 41.93713 -12.996001 154.78445
14030000000 -11.467823 74.379402 -200 45 -36.061298 -23.883327 -12.612065 148.56963
14040000000 -12.507487 74.074112 -200 45 -36.050259 -88.250618 -12.999076 142.08479
14050000000 -13.217237 77.546455 -200 45 -35.983189 -152.44319 -13.679625 139.11429
14060000000 -13.582023 83.129486 -200 45 -35.671066 141.32837 -14.348309 137.0751
14070000000 -13.291217 89.216759 -200 45 -35.519733 73.212807 -15.281343 137.56624
14080000000 -12.40602 93.198166 -200 45 -35.490429 6.4762754 -15.685439 142.33327
14090000000 -11.270658 92.785866 -200 45 -35.699879 -60.289501 -15.597974 144.23299
14100000000 -10.380037 87.973427 -200 45 -35.84296 -126.75886 -16.004335 145.76138
14110000000 -10.049052 81.083885 -200 45 -36.084007 168.35255 -15.995755 153.83202
14120000000 -10.288164 74.850647 -200 45 -35.847107 103.21095 -14.580563 158.71675
14130000000 -10.736452 70.897102 -200 45 -35.851814 37.363476 -13.174775 155.30147
14140000000 -11.233235 68.456268 -200 45 -35.536022 -27.655369 -12.410539 147.63689
14150000000 -11.767301 66.034058 -200 45 -35.517754 -95.327393 -12.378533 138.32675
14160000000 -12.772978 65.706451 -200 45 -35.455376 -162.43326 -13.199568 129.70323
14170000000 -13.648349 71.668999 -200 45 -35.685764 130.34167 -14.831569 126.62492
14180000000 -13.308275 81.351028 -200 45 -35.804993 64.728394 -15.877199 133.21191
14190000000 -11.888291 84.617355 -200 45 -35.795589 -0.4403325 -15.453783 137.77272
14200000000 -10.720032 79.991135 -200 45 -35.705044 -64.763634 -15.282883 134.99734
14210000000 -10.381138 73.778511 -200 45 -35.542858 -131.25603 -16.136917 133.15724
14220000000 -10.438601 68.608253 -200 45 -35.305168 161.50848 -17.153809 139.18161
14230000000 -10.576361 65.336555 -200 45 -35.367416 94.801521 -17.058126 150.77158
14240000000 -10.688716 61.368587 -200 45 -35.302326 26.656923 -15.311386 158.83226
14250000000 -11.015715 57.251686 -200 45 -35.643787 -40.231865 -13.13423 154.20061
14260000000 -11.793921 53.665321 -200 45 -35.706879 -105.66074 -12.194629 141.0033
14270000000 -12.858237 54.303913 -200 45 -35.916817 -170.40262 -12.856315 128.11301
14280000000 -13.552239 60.687283 -200 45 -35.70079 124.73927 -14.368318 122.62186
14290000000 -13.055864 67.68576 -200 45 -35.691166 57.979454 -15.667264 123.69567
14300000000 -12.081613 68.687469 -200 45 -35.588421 -8.5402231 -16.501904 128.65518
14310000000 -11.386961 66.334854 -200 45 -35.727921 -75.198418 -16.141777 134.71713
14320000000 -11.049714 62.385494 -200 45 -35.74194 -140.52747 -15.389812 130.68765
14330000000 -10.896795 59.148434 -200 45 -35.74334 153.59132 -16.401594 122.4481
14340000000 -10.857537 55.286144 -200 45 -35.767323 86.789291 -19.109913 128.54857
14350000000 -10.888466 51.043823 -200 45 -35.867725 21.43722 -18.619566 152.36708
14360000000 -11.391784 46.641373 -200 45 -35.888763 -44.781128 -15.817674 156.24557
14370000000 -12.059965 44.635235 -200 45 -35.879101 -109.46065 -14.091255 149.5791
14380000000 -12.885458 45.859467 -200 45 -35.749165 -175.93352 -13.154717 139.16104
14390000000 -13.193748 49.254841 -200 45 -35.869026 118.45194 -13.178439 125.33124
14400000000 -13.123756 53.285133 -200 45 -35.787735 52.836765 -14.788888 113.56734
14410000000 -12.727274 55.098862 -200 45 -35.584045 -12.896642 -17.161833 116.12318
14420000000 -12.213531 56.030781 -200 45 -35.609474 -79.817612 -17.402294 126.2035
14430000000 -11.614724 54.634342 -200 45 -35.558079 -145.98671 -16.990065 126.96676
14440000000 -11.139023 51.308296 -200 45 -35.680977 148.59367 -17.1057 125.37952
14450000000 -10.929058 46.460571 -200 45 -35.422909 82.544716 -17.726933 121.1442
14460000000 -11.054387 42.262852 -200 45 -35.407013 17.21954 -19.9349 121.79962
14470000000 -11.301597 38.67931 -200 45 -35.129463 -49.90382 -20.872095 147.07027
14480000000 -11.678345 35.985336 -200 45 -35.134617 -117.1817 -17.256538 158.47446
14490000000 -12.193712 33.532356 -200 45 -35.315651 175.19388 -14.648056 149.20059
14500000000 -12.935786 33.827686 -200 45 -35.484409 109.57071 -13.650774 134.87492
14510000000 -13.477201 37.453396 -200 45 -35.420082 45.225266 -13.934905 120.53558
14520000000 -13.198861 43.384075 -200 45 -35.396584 -19.520777 -15.28339 108.62321
14530000000 -12.40106 44.170696 -200 45 -35.082787 -86.055107 -17.852966 102.76709
14540000000 -11.841942 42.098614 -200 45 -34.683414 -153.46933 -20.491302 116.28147
14550000000 -11.559617 39.325527 -200 45 -34.74147 137.61803 -18.834646 129.27287
14560000000 -11.310988 36.929283 -200 45 -35.018967 69.760941 -17.830841 119.41429
14570000000 -10.962383 33.538486 -200 45 -35.279881 4.0890212 -19.375431 109.63689
14580000000 -10.846288 27.268572 -200 45 -35.367416 -60.791431 -22.134165 115.83352
14590000000 -11.336548 20.792646 -200 45 -35.313465 -124.86146 -23.043036 141.91086
14600000000 -12.421604 16.94508 -200 45 -35.042267 168.25876 -19.276171 160.81429
14610000000 -13.552788 18.914013 -200 45 -34.952267 100.81342 -15.540206 151.40791
14620000000 -14.097937 24.793369 -200 45 -34.906231 33.821384 -14.02917 130.98817
14630000000 -13.80522 29.332474 -200 45 -35.141972 -33.415642 -14.564115 109.20063
14640000000 -13.480653 31.457533 -200 45 -35.270481 -99.05011 -16.933407 92.478531
14650000000 -13.019946 32.969467 -200 45 -35.267849 -164.26801 -20.585068 90.707245
14660000000 -12.311829 33.31678 -200 45 -35.222565 129.20248 -22.591421 109.10967
14670000000 -11.446043 29.768375 -200 45 -35.088078 63.087002 -21.066601 121.50968
14680000000 -11.052141 22.720047 -200 45 -35.06353 -4.5582952 -19.382841 114.84486
14690000000 -11.20899 15.209426 -200 45 -35.298985 -70.810852 -20.103333 95.953842
14700000000 -12.055884 8.7266693 -200 45 -35.406734 -137.33818 -26.637917 78.392799
14710000000 -13.164719 6.7083278 -200 45 -35.611065 156.61287 -27.779915 -175.2706
14720000000 -14.191746 8.6141682 -200 45 -35.646996 92.626099 -19.188789 168.64963
14730000000 -14.623593 12.169356 -200 45 -35.651291 26.436947 -16.404671 144.59065
14740000000 -15.120123 16.150223 -200 45 -35.561798 -37.7654 -15.530124 121.89819
14750000000 -15.142603 22.516058 -200 45 -35.365227 -105.01627 -15.999145 98.84375
14760000000 -14.254008 29.495861 -200 45 -35.28867 -170.53362 -18.594225 76.623627
14770000000 -12.756628 28.421106 -200 45 -35.338112 121.98721 -25.139603 70.647957
14780000000 -11.764304 21.483418 -200 45 -35.382156 55.621765 -25.954674 127.05272
14790000000 -11.627943 12.676702 -200 45 -35.296734 -10.273794 -21.32342 118.20906
14800000000 -12.106886 5.1141815 -200 45 -35.507732 -76.368477 -21.391542 92.506996
14810000000 -13.009442 0.6910677 -200 45 -35.511101 -141.38011 -25.304447 67.279457
14820000000 -13.909781 -1.3712506 -200 45 -35.284149 152.70296 -40.156437 44.206413
14830000000 -14.836443 -1.5680661 -200 45 -35.267864 86.574089 -26.711327 -159.72755
14840000000 -16.055151 1.1004869 -200 45 -35.157204 21.514889 -19.473583 170.26028
14850000000 -16.771486 10.212224 -200 45 -35.031315 -45.803234 -16.663055 137.69542
14860000000 -16.174141 21.661621 -200 45 -34.791054 -114.75483 -16.548363 105.90656
14870000000 -14.537423 24.640114 -200 45 -35.200947 178.758 -18.799475 78.735428
14880000000 -13.207643 20.960539 -200 45 -35.435974 112.37225 -23.07272 61.881981
14890000000 -12.494925 13.739345 -200 45 -35.591412 48.272461 -28.819826 62.264771
14900000000 -12.351718 6.1092296 -200 45 -35.493912 -15.721042 -31.670298 101.81985
14910000000 -12.650055 -0.86445498 -200 45 -35.148857 -80.501129 -26.694569 107.8781
14920000000 -13.259385 -7.1986446 -200 45 -34.854523 -146.81021 -25.213865 73.663322
14930000000 -14.302192 -11.579165 -200 45 -34.493481 143.68007 -28.547823 12.331105
14940000000 -15.644957 -12.705443 -200 45 -34.492451 76.111176 -28.662939 -103.38097
14950000000 -16.887663 -8.0275478 -200 45 -34.865635 6.9625702 -23.401443 -166.80896
14960000000 -17.473301 1.875142 -200 45 -35.2906 -59.113991 -21.311949 159.12868
14970000000 -16.597277 9.232439 -200 45 -35.458576 -123.4375 -20.295561 133.3822
14980000000 -15.633791 11.333716 -200 45 -35.445229 173.12764 -20.063248 103.67741
14990000000 -14.225427 8.959671 -200 45 -35.180904 107.46146 -21.695913 67.404861
15000000000 -13.694761 1.5858735 -200 45 -34.912518 40.495693 -26.255514 29.972794
15010000000 -13.832376 -5.7326765 -200 45 -34.655708 -27.717728 -36.483028 12.90114
15020000000 -14.265163 -11.524475 -200 45 -34.979412 -95.44957 -36.542747 60.329578
15030000000 -14.900462 -15.522705 -200 45 -35.172756 -162.83829 -34.425762 9.665513
15040000000 -15.567142 -19.2122 -200 45 -35.563095 132.52983 -33.55872 -53.535439
15050000000 -16.56867 -21.325445 -200 45 -35.610199 68.791122 -30.469978 -87.391373
15060000000 -17.889135 -20.832773 -200 45 -35.357674 5.070941 -25.83411 -111.7397
15070000000 -18.863436 -12.609859 -200 45 -34.905704 -61.547588 -22.355955 -146.13736
15080000000 -18.512678 -2.4490404 -200 45 -34.633419 -128.82565 -21.502953 174.92334
15090000000 -17.129978 -0.23450504 -200 45 -34.578381 162.30238 -23.097498 137.4919
15100000000 -16.257935 -3.8071032 -200 45 -34.820084 93.975136 -26.072845 106.56897
15110000000 -15.90566 -9.8328686 -200 45 -35.1278 28.778679 -28.55382 73.230576
15120000000 -16.014891 -14.355613 -200 45 -35.103966 -36.915825 -29.70602 17.853949
15130000000 -16.157148 -18.250536 -200 45 -35.15345 -103.11628 -28.734751 -47.618187
15140000000 -16.247976 -22.59107 -200 45 -35.056576 -168.21356 -28.726732 -91.994263
15150000000 -16.691219 -28.185743 -200 45 -34.976372 125.50307 -30.648819 -96.294197
15160000000 -17.536325 -33.036476 -200 45 -34.709759 57.693501 -26.851095 -83.865273
15170000000 -18.808109 -33.712986 -200 45 -34.880917 -9.7500248 -23.094427 -100.5722
15180000000 -19.682888 -29.645266 -200 45 -35.036457 -77.181206 -21.522636 -120.71888
15190000000 -19.874784 -24.89992 -200 45 -35.364033 -143.03149 -20.816986 -138.98811
15200000000 -19.663321 -21.528917 -200 45 -35.432026 152.48241 -20.685734 -161.28101
15210000000 -19.257187 -20.922663 -200 45 -35.208652 87.573357 -22.114965 167.76733
15220000000 -18.766674 -20.735718 -200 45 -35.125984 20.298409 -27.192005 124.47367
15230000000 -18.139416 -23.641134 -200 45 -35.117931 -46.254128 -35.477543 8.4944162
15240000000 -17.623116 -29.606394 -200 45 -35.144333 -113.70315 -28.197672 -69.083
15250000000 -17.712193 -37.482613 -200 45 -35.091484 -179.72008 -25.514816 -88.575737
15260000000 -18.103756 -45.358551 -200 45 -35.360874 111.98688 -23.475775 -97.021004
15270000000 -19.077869 -51.609333 -200 45 -35.746235 46.446388 -22.638641 -107.14316
15280000000 -19.955544 -57.26989 -200 45 -35.815746 -18.228003 -22.607971 -106.75021
15290000000 -21.760979 -61.510239 -200 45 -35.754879 -82.262367 -20.318716 -105.45867
15300000000 -24.005823 -60.354298 -200 45 -35.652851 -147.54506 -18.102816 -120.70745
15310000000 -25.81259 -41.380245 -200 45 -35.346935 144.73039 -17.822725 -141.90298
15320000000 -24.501141 -26.181013 -200 45 -35.357716 77.784592 -19.496065 -159.87932
15330000000 -22.217327 -22.941713 -200 45 -35.484974 11.091715 -22.771374 -167.38814
