!Keysight Technologies,P9374A,MY57211810,A.19.30.04
!Date: Friday, May 09, 2025 09:14:50
!Correction: S11(Cdelta 2-Port  ) 
!S21(Cdelta 2-Port  ) 
!S12(Cdelta 2-Port  ) 
!S22(Cdelta 2-Port  ) 
!S2P File: Measurements: S11, S21, S12, S22:
# Hz S  dB   R 50
13000000000 -20.359802 -83.338043 -47.069698 60.730896 -47.110809 63.644905 -16.054756 -56.008762
13020000000 -20.492973 -82.100349 -48.959637 29.795284 -47.621853 26.278152 -15.356941 -57.995583
13040000000 -20.376848 -81.378113 -49.558575 4.5091772 -50.133793 -6.1083884 -14.354368 -64.698677
13060000000 -21.294104 -83.431534 -50.37981 -24.596125 -50.640465 -32.551323 -12.859172 -60.815472
13080000000 -21.217157 -81.57634 -50.760025 -57.640438 -52.738026 -62.46402 -12.278716 -68.247322
13100000000 -20.316395 -82.452934 -52.263939 -72.987366 -56.054588 -78.833336 -11.508937 -71.556305
13120000000 -20.187395 -84.61927 -51.892071 -94.962875 -55.583061 -86.576691 -11.04634 -73.472664
13140000000 -20.634874 -85.900726 -50.550236 -121.89266 -53.347061 -109.96638 -10.076978 -78.363968
13160000000 -20.77849 -83.290329 -49.595821 -150.80363 -50.275219 -129.24205 -9.6087189 -85.116226
13180000000 -20.179258 -83.596886 -47.811443 170.48692 -49.091709 -165.49426 -8.697546 -86.459023
13200000000 -20.051313 -92.366844 -48.794479 137.3994 -47.170238 165.66266 -8.4301491 -93.822769
13220000000 -20.340427 -97.281731 -49.031879 108.7037 -46.601795 124.62594 -8.2578096 -103.56271
13240000000 -20.830555 -95.278763 -48.58659 89.861954 -45.331429 98.43454 -7.8226542 -100.41408
13260000000 -20.366861 -93.740158 -47.094601 60.498055 -43.512234 57.026726 -7.0762038 -112.0147
13280000000 -19.863001 -100.17477 -45.237862 28.22506 -42.875072 19.484709 -6.8915105 -118.04493
13300000000 -20.537588 -107.32436 -43.764008 -8.8264008 -42.29808 -18.02224 -6.7612739 -124.80357
13320000000 -21.705904 -109.92374 -42.515648 -44.243877 -41.542858 -54.778816 -6.740098 -131.35611
13340000000 -21.404194 -110.13734 -42.269764 -81.066307 -42.095589 -92.447647 -7.8619227 -139.04762
13360000000 -20.886095 -109.56898 -40.790531 -119.62502 -40.588608 -130.69542 -6.8194613 -144.06441
13380000000 -21.395437 -118.24957 -39.805378 -161.46898 -40.654335 -170.10802 -7.1139517 -152.45721
13400000000 -22.848911 -119.0904 -39.667522 160.02258 -40.314808 154.72803 -7.243875 -158.22145
13420000000 -23.025166 -120.20084 -39.531445 121.52434 -40.428173 117.38136 -7.7462015 -163.85272
13440000000 -23.081446 -123.59377 -39.290958 84.660736 -40.099571 83.489372 -8.2630072 -170.50322
13460000000 -23.326628 -130.15312 -39.43137 50.050419 -40.499069 49.481434 -9.5313311 -171.38855
13480000000 -25.258661 -130.83734 -39.588829 10.786085 -39.643402 9.29111 -9.2027502 178.95586
13500000000 -25.245712 -124.17833 -38.894524 -25.001043 -39.597893 -29.176455 -9.554265 172.66925
13520000000 -25.700695 -128.34038 -38.805454 -63.459377 -39.603348 -64.710579 -10.27199 167.88435
13540000000 -25.824585 -137.88477 -38.846745 -98.62001 -39.507675 -99.798752 -10.804975 165.07071
13560000000 -28.256056 -143.02196 -38.248077 -134.7901 -39.10107 -136.09663 -11.655155 156.02081
13580000000 -29.461931 -126.87344 -37.741856 -172.80338 -39.483883 -170.57889 -12.358203 157.36111
13600000000 -28.169397 -125.07437 -38.298485 146.04898 -39.14896 151.65572 -12.686075 149.18985
13620000000 -28.784124 -126.70026 -38.550877 110.56924 -39.078743 113.32329 -13.597338 143.26178
13640000000 -30.070675 -137.2972 -38.052177 74.315071 -39.13834 78.698898 -14.17264 138.658
13660000000 -31.216377 -121.3202 -38.545692 33.830433 -38.943592 41.775051 -14.92774 139.54538
13680000000 -28.946495 -119.54868 -39.355118 -2.389225 -39.368923 8.6996651 -16.394514 129.18396
13700000000 -29.473131 -120.87189 -39.660198 -38.616791 -38.987144 -29.92952 -16.682535 127.01205
13720000000 -29.845903 -121.86283 -40.077366 -72.705917 -39.434261 -70.068077 -17.991602 115.82971
13740000000 -30.655762 -122.32364 -40.247971 -102.82176 -39.593063 -99.268921 -18.983059 108.4454
13760000000 -29.652599 -117.98089 -40.093159 -141.05806 -39.380177 -138.41954 -19.890224 105.63457
13780000000 -28.271938 -131.82739 -40.679756 -173.79181 -39.667931 -175.57614 -22.107214 103.1246
13800000000 -28.081642 -135.88379 -40.56448 154.85065 -40.390869 151.75438 -22.740942 89.736847
13820000000 -28.961166 -139.87015 -40.18821 121.26191 -40.318588 119.31524 -23.919926 77.822174
13840000000 -30.563307 -129.39598 -40.351929 84.455116 -40.391197 82.914452 -26.014402 46.250626
13860000000 -28.750385 -135.33379 -39.919811 55.424728 -40.072716 47.29554 -25.774883 28.645308
13880000000 -29.63026 -154.12309 -39.090481 17.62352 -40.043381 13.569101 -27.290504 4.918622
13900000000 -28.880699 -178.68727 -39.003166 -17.527393 -40.063667 -18.553398 -25.318884 -19.054262
13920000000 -30.626608 171.20387 -38.555882 -59.155525 -39.316803 -55.551262 -22.895084 -36.018547
13940000000 -31.881733 -179.67529 -39.199188 -99.288734 -40.123817 -97.885231 -23.04497 -42.744457
13960000000 -29.921413 -178.19214 -39.506607 -131.62308 -39.773262 -129.03781 -19.680759 -52.411983
13980000000 -30.5711 158.75388 -39.653656 -169.68784 -39.774101 -163.89925 -18.598715 -62.155487
14000000000 -29.795681 127.27937 -40.197083 153.64365 -40.388294 157.39925 -17.461609 -74.473907
14020000000 -30.910959 110.32903 -40.532509 117.98197 -40.084087 125.37124 -16.279631 -82.283974
14040000000 -32.160351 114.04813 -40.967766 85.622902 -40.266369 90.086655 -14.792766 -85.498878
14060000000 -30.255482 109.17916 -41.529305 52.611015 -41.18668 53.114922 -15.522994 -93.134415
14080000000 -30.132236 96.985008 -42.060543 22.587324 -40.944389 22.30847 -13.561429 -98.766731
14100000000 -29.508135 66.019012 -41.176701 -6.3315949 -40.825508 -14.947874 -12.936603 -108.2784
14120000000 -28.796412 58.967693 -40.453648 -42.077461 -41.218201 -47.729866 -12.636142 -114.77377
14140000000 -28.8388 58.059643 -40.529831 -77.668655 -41.383339 -79.604218 -11.75639 -122.12132
14160000000 -27.263472 47.460876 -40.17765 -119.5898 -41.263222 -116.65004 -11.607297 -127.21415
14180000000 -26.753305 41.169777 -40.891834 -154.09908 -41.478596 -148.64815 -11.415131 -134.65741
14200000000 -27.315672 26.574055 -40.838123 176.11147 -40.959354 179.01152 -10.437327 -141.96449
14220000000 -27.693148 25.833538 -40.278767 136.49979 -40.648685 141.77179 -10.49064 -149.75414
14240000000 -26.206108 28.32485 -41.571705 99.158958 -41.683369 107.23978 -10.447721 -157.94011
14260000000 -24.984785 18.684111 -41.893288 73.455482 -40.970428 79.539955 -9.8592415 -163.71436
14280000000 -24.883724 5.1879101 -41.662941 37.249756 -41.142265 41.701408 -10.32531 -168.00859
14300000000 -26.138313 -0.23571594 -41.425526 6.8604155 -41.010559 5.9261432 -9.8053064 -178.08888
14320000000 -26.907642 4.3664541 -40.862774 -26.659328 -40.742146 -28.705708 -9.8751135 173.23416
14340000000 -25.472231 5.4752393 -40.760452 -63.721794 -40.410572 -62.307438 -10.362418 165.40337
14360000000 -23.981625 0.18820412 -40.646481 -96.476768 -40.665985 -97.684914 -10.411578 158.3306
14380000000 -25.068125 -11.533926 -40.435211 -134.30606 -40.059338 -130.60519 -10.451725 154.77158
14400000000 -25.978605 -11.258964 -40.432495 -170.3264 -39.656754 -167.79639 -10.825023 146.98125
14420000000 -25.77243 -9.6450653 -40.975048 155.79135 -40.615002 155.71269 -11.99757 140.16611
14440000000 -25.575981 -4.4476156 -40.814339 124.13059 -39.95248 122.67748 -11.420963 130.45592
14460000000 -24.545462 -11.987332 -40.26622 89.074539 -39.777214 88.108521 -12.230805 123.52786
14480000000 -24.637821 -8.6902819 -40.474903 52.98291 -39.954342 47.601963 -12.765461 117.73969
14500000000 -24.70797 -13.263024 -40.221565 19.840462 -39.970898 17.534189 -13.353276 114.09784
14520000000 -24.432266 -16.147243 -39.836475 -13.450402 -39.849655 -19.423534 -14.189875 107.77503
14540000000 -24.66552 -10.722091 -39.462868 -49.171494 -40.290737 -53.869072 -15.366474 94.873665
14560000000 -24.352167 -10.654826 -38.98925 -85.382683 -39.794472 -87.821671 -14.776382 90.240555
14580000000 -22.495773 -9.5372963 -38.946194 -123.2547 -39.405945 -124.64695 -15.988155 82.314537
14600000000 -22.274168 -16.602678 -38.857288 -161.39453 -39.364864 -161.16489 -17.13485 77.194603
14620000000 -23.269505 -17.818472 -38.878841 163.27963 -39.735111 162.34592 -17.351891 70.708878
14640000000 -22.198559 -20.677439 -38.636883 123.88842 -39.62833 125.83606 -19.797295 58.351536
14660000000 -22.275707 -15.855002 -39.297707 85.216011 -40.111805 90.259819 -18.444105 52.264553
14680000000 -20.775261 -18.830002 -39.639404 53.460289 -40.207466 54.793922 -19.840626 41.344337
14700000000 -19.958961 -26.033539 -39.591839 18.219496 -40.219509 20.714067 -21.721394 28.565994
14720000000 -20.301573 -29.865999 -39.444424 -19.555946 -39.72488 -15.382146 -21.878263 22.204765
14740000000 -21.392277 -37.17099 -40.569878 -58.36792 -40.79528 -54.505569 -23.337776 10.215355
14760000000 -20.7948 -30.174778 -40.687672 -86.965141 -40.623726 -83.250725 -22.962372 -28.819286
14780000000 -19.468805 -30.918005 -40.071072 -124.72338 -40.381565 -121.15185 -23.278978 -15.043043
14800000000 -18.696369 -41.589714 -40.990658 -162.87288 -41.14835 -158.90413 -22.990816 -46.032448
14820000000 -18.840288 -51.398972 -40.982079 166.69881 -41.276886 171.5578 -23.589987 -56.253796
14840000000 -20.663469 -54.515568 -40.864899 128.21727 -40.913456 135.73891 -23.343811 -61.72179
14860000000 -20.790182 -49.194054 -41.487808 90.524902 -41.389717 98.74485 -22.755659 -84.160988
14880000000 -19.19557 -50.164219 -42.10265 58.943447 -41.257282 63.550388 -19.520683 -97.480537
14900000000 -18.494558 -58.61499 -42.4902 22.110083 -42.058006 26.234802 -19.948868 -106.61405
14920000000 -19.148178 -70.232552 -43.19405 -7.9042878 -41.764439 -5.9924483 -18.848963 -133.61943
14940000000 -20.390491 -74.940041 -43.18858 -38.971657 -42.137009 -39.946098 -20.324135 -130.33693
14960000000 -21.101536 -68.314812 -43.235733 -74.271034 -42.232525 -75.236191 -20.427414 -136.07278
14980000000 -20.800236 -67.928772 -44.146801 -106.3159 -43.029133 -107.17927 -19.139551 -146.74568
15000000000 -19.951351 -74.248383 -43.334896 -136.89665 -42.321426 -139.67502 -18.220518 -153.19423
15020000000 -20.492992 -80.424324 -43.560146 -176.32701 -42.734283 -178.72081 -18.825727 -154.59801
15040000000 -21.850838 -85.124374 -44.077343 150.47746 -42.549 146.55614 -15.986968 173.65215
15060000000 -22.833147 -87.724953 -43.897175 123.48267 -43.413715 114.57822 -19.081978 170.83307
15080000000 -23.340418 -79.906914 -43.488361 86.595024 -42.974785 79.850212 -19.89456 164.34592
15100000000 -23.060562 -80.927551 -44.391922 49.694481 -43.789276 38.616215 -20.013205 158.89223
15120000000 -22.802658 -81.994011 -44.529831 23.806797 -44.811176 10.776614 -20.103741 148.16869
15140000000 -22.392185 -84.280952 -44.447193 -9.0064621 -44.655224 -23.505175 -24.944715 139.23347
15160000000 -24.190565 -89.179153 -44.102871 -39.500134 -46.094292 -53.265717 -18.531132 119.95209
15180000000 -24.687811 -81.71917 -42.88628 -72.170395 -44.9366 -78.746918 -23.07897 99.434593
15200000000 -24.692722 -74.24939 -43.141136 -112.52324 -45.408978 -120.03096 -25.211708 85.861374
15220000000 -23.081127 -71.036934 -43.330727 -144.83969 -46.191399 -144.53876 -24.089823 75.428337
15240000000 -22.35358 -80.758507 -43.27533 -178.82156 -44.909283 -172.5766 -26.813799 53.206486
15260000000 -22.645586 -86.841789 -43.514858 145.33476 -45.27507 149.92636 -23.0755 -11.70052
15280000000 -24.182653 -91.50412 -43.11866 111.81298 -44.978046 123.06473 -23.457541 27.349127
15300000000 -24.274832 -78.537102 -43.302086 75.402412 -43.764496 93.750053 -23.190424 -18.217487
15320000000 -22.572077 -82.981323 -43.614346 41.432323 -43.227188 56.581856 -22.942202 -23.489658
15340000000 -21.678001 -92.988991 -43.612076 12.42989 -43.098389 23.918142 -22.133759 -29.68465
15360000000 -22.086533 -102.83173 -43.066708 -22.488239 -42.368492 -14.618603 -20.445408 -52.896328
15380000000 -23.904659 -106.57775 -43.304249 -55.756119 -42.158855 -47.137627 -17.012127 -60.325039
15400000000 -23.895552 -105.10973 -43.040794 -90.554893 -41.488243 -85.594521 -17.611708 -68.745392
15420000000 -23.622597 -108.01344 -43.617676 -122.72456 -41.539444 -118.56345 -17.160009 -85.357605
15440000000 -22.953793 -116.49989 -43.155952 -152.03813 -41.332378 -156.1866 -17.467735 -80.523758
15460000000 -23.468889 -125.63319 -42.269165 174.66942 -41.251057 169.60504 -16.88735 -86.766068
15480000000 -24.626825 -130.47351 -42.298088 139.46571 -41.06358 131.63533 -15.225936 -96.946419
15500000000 -25.677864 -140.97993 -41.735176 104.21429 -41.079041 98.326248 -14.436611 -100.56372
15520000000 -26.467348 -145.89061 -41.693573 70.745659 -40.96315 64.257965 -13.938654 -99.402855
15540000000 -26.420418 -157.98297 -41.074959 36.988815 -41.377068 28.09033 -14.26712 -124.20698
15560000000 -27.890018 -160.5818 -40.701729 -1.5393821 -40.912521 -8.4138041 -14.136298 -119.86493
15580000000 -27.970324 -167.06967 -40.386333 -36.721279 -41.17588 -42.398384 -13.61084 -126.15156
15600000000 -28.641178 179.90349 -40.218353 -73.307228 -41.176384 -77.557884 -12.681024 -130.96085
15620000000 -28.787113 154.84659 -40.042084 -108.07929 -40.750294 -111.69861 -12.309347 -136.13719
15640000000 -29.590912 125.25101 -39.814316 -145.30836 -40.588097 -145.91934 -12.979204 -133.50172
15660000000 -30.381927 116.9434 -39.500084 -178.8644 -41.262535 -175.87381 -12.320969 -153.9397
15680000000 -32.041168 109.26804 -39.255566 139.47806 -40.331238 144.2966 -12.420349 -155.88435
15700000000 -30.156219 113.60358 -39.483997 102.85827 -40.205639 108.80211 -11.981015 -161.49779
15720000000 -27.545311 98.490242 -39.734112 67.573296 -40.197472 72.549835 -11.789722 -170.48978
15740000000 -25.601004 70.528633 -39.596138 31.734798 -40.170052 38.296787 -11.961622 -172.8898
15760000000 -24.707512 57.298744 -39.562862 -3.7700682 -39.936588 1.6821095 -9.4826546 160.92238
15780000000 -26.130882 54.354336 -39.4823 -42.881634 -40.10397 -33.578766 -12.034783 169.15236
15800000000 -26.335087 55.462551 -40.09803 -78.253838 -39.886772 -70.679512 -12.655678 164.06351
15820000000 -24.649029 59.514942 -40.523262 -115.06689 -40.313389 -107.85292 -12.512049 154.29166
15840000000 -23.024851 49.67181 -40.948357 -145.15697 -40.895924 -140.79282 -12.666005 145.28181
15860000000 -21.825584 36.154007 -40.776333 178.60597 -40.349598 -175.46718 -14.093662 141.52336
15880000000 -21.664576 32.655098 -40.928066 145.99045 -39.99474 149.49533 -11.578348 119.97708
15900000000 -22.473293 33.235321 -40.981064 109.31403 -40.758354 113.52876 -15.638627 122.84319
15920000000 -22.279106 35.142517 -41.387699 77.785027 -40.674171 79.351013 -16.57626 117.34586
15940000000 -21.075308 37.216103 -41.195286 44.014351 -40.347527 47.228313 -16.521498 104.28129
15960000000 -19.861025 32.49995 -40.915661 11.059085 -40.735058 10.030541 -17.740339 95.104118
15980000000 -19.175625 26.507627 -40.578377 -24.09461 -39.905563 -23.844063 -21.318451 77.641182
16000000000 -19.205681 23.471802 -40.842396 -60.381939 -40.359322 -60.531891 -22.13928 60.582031
16020000000 -19.413363 26.054913 -40.674969 -91.715546 -40.112614 -94.713654 -31.607925 98.315804
16040000000 -18.788744 26.814062 -40.301575 -126.48513 -40.717564 -127.42916 -27.859056 44.995232
16060000000 -17.714128 25.91725 -40.141693 -162.47639 -40.139816 -163.71123 -24.447596 21.408907
16080000000 -16.67621 22.303083 -39.835323 164.25201 -39.882328 160.55249 -25.334581 -12.921784
16100000000 -16.302263 19.185249 -39.313011 128.06044 -39.719627 125.46412 -22.588581 -42.320374
16120000000 -15.904876 16.001116 -39.242676 91.688644 -39.536777 89.934174 -20.762316 -51.914768
16140000000 -15.892089 16.394423 -39.106785 57.454048 -40.431618 53.682899 -22.093788 -116.12843
16160000000 -15.501054 16.079817 -38.461674 20.418297 -39.388611 20.625868 -21.784986 -81.044968
16180000000 -14.347558 14.394839 -38.333176 -17.726641 -39.233276 -19.808151 -19.91197 -80.82515
16200000000 -13.421998 10.091941 -38.287052 -56.092918 -38.792015 -55.243992 -17.762993 -91.003403
16220000000 -13.133114 5.3562994 -38.095394 -92.73629 -38.523632 -92.881432 -16.893145 -100.80843
16240000000 -13.008656 2.8336313 -38.241379 -129.40346 -38.606125 -129.86057 -15.922261 -94.460083
16260000000 -12.992961 3.9519122 -38.196625 -167.49983 -39.515427 -163.91786 -17.160475 -121.62171
16280000000 -12.29599 2.3911529 -37.899895 154.58653 -38.748215 156.6189 -15.924653 -114.03999
16300000000 -11.371445 -2.063422 -38.113491 115.48734 -39.282009 115.81847 -15.068334 -117.51991
16320000000 -11.012701 -6.7004881 -38.492321 77.534317 -39.582726 79.678169 -14.471111 -129.34103
16340000000 -10.940132 -9.2415962 -38.685417 41.264961 -39.569328 45.347851 -13.64554 -131.35123
16360000000 -10.656077 -10.379157 -38.971096 2.4275279 -39.684437 7.6691866 -13.662138 -126.60023
16380000000 -10.443662 -10.960712 -39.124805 -33.937073 -40.65313 -24.404619 -13.780325 -143.35835
16400000000 -9.8773451 -13.905519 -39.809063 -74.140137 -40.738495 -62.3409 -13.110551 -140.51035
16420000000 -9.5224094 -17.719883 -40.331829 -110.87446 -40.702328 -97.504219 -12.389081 -146.79076
16440000000 -9.2265606 -21.147442 -40.94873 -144.2948 -41.039665 -132.73511 -12.47354 -155.77055
16460000000 -9.0522194 -22.806667 -41.28418 178.23859 -40.758556 -167.37364 -12.062174 -155.25633
16480000000 -8.859868 -23.838367 -42.200874 144.13687 -40.85778 154.7471 -12.300315 -156.74878
16500000000 -8.6018915 -25.485472 -42.549877 110.65621 -41.223301 119.38847 -11.814824 -163.034
16520000000 -8.1070824 -28.514343 -43.104282 77.378136 -41.453701 86.129807 -11.00036 -164.89243
16540000000 -7.810183 -31.328302 -43.809994 46.475193 -41.38839 50.140114 -10.958992 -174.00462
16560000000 -7.5388765 -33.766815 -43.443489 16.67642 -41.06115 12.923304 -10.937546 -179.99489
16580000000 -7.3253431 -34.585213 -42.995094 -20.405867 -40.658577 -24.377495 -10.870171 178.64621
16600000000 -7.1037745 -36.016953 -43.036736 -53.916656 -41.106506 -63.932438 -11.078417 173.03253
16620000000 -6.8230824 -38.71703 -43.06068 -88.979973 -41.36348 -101.94811 -11.031613 165.70488
16640000000 -6.3251581 -41.031906 -42.508434 -124.5864 -42.208244 -137.77046 -9.5974874 168.54443
16660000000 -5.9930983 -43.283314 -42.665195 -159.48027 -42.513466 -175.16251 -9.9059935 155.75792
16680000000 -5.6918507 -45.551975 -42.561733 163.45761 -43.321075 149.87857 -10.074733 150.29517
16700000000 -5.3901935 -47.122002 -42.790634 124.42254 -43.594292 113.89918 -10.60135 145.29178
16720000000 -5.0434761 -49.271713 -42.946125 89.477417 -44.344406 82.809303 -10.406629 140.0547
16740000000 -4.7686162 -53.391796 -42.890358 53.731789 -44.906742 46.252239 -9.1410208 150.31017
16760000000 -4.3196507 -55.549789 -42.970531 13.317225 -45.46257 9.7382631 -10.196614 132.58885
16780000000 -3.9585092 -58.437656 -43.633015 -21.073622 -45.64624 -19.428696 -10.330137 118.7824
16800000000 -3.6492522 -61.002365 -43.692307 -58.932087 -45.66029 -54.545654 -11.056829 111.04552
16820000000 -3.3462572 -63.719559 -44.500942 -91.842491 -46.451454 -87.570923 -11.292377 107.71664
16840000000 -3.0188005 -66.917763 -44.136749 -125.43092 -45.881535 -115.38342 -11.759948 98.186913
16860000000 -2.813741 -71.481712 -44.292908 -162.23479 -45.866291 -151.7621 -12.405712 83.292885
16880000000 -2.4426937 -74.172218 -44.656708 164.27875 -45.959908 175.70485 -12.521682 84.940025
16900000000 -2.1359379 -77.207352 -44.365356 126.19669 -44.645439 140.12508 -12.807587 72.768387
16920000000 -1.9394357 -80.463432 -44.240314 89.533577 -44.415089 99.589508 -14.135477 67.256775
16940000000 -1.68955 -83.820274 -44.211948 51.851971 -44.438557 63.679615 -14.618371 64.401321
16960000000 -1.462286 -87.571434 -43.988682 14.46861 -43.550728 22.583605 -15.07159 50.494297
16980000000 -1.2455014 -91.048737 -43.921452 -27.554028 -43.452717 -17.359268 -14.742723 38.61002
