!Keysight Technologies,P9374A,MY57211810,A.19.30.04
!Date: Friday, May 09, 2025 09:22:22
!Correction: S11(Cdelta 2-Port  ) 
!S21(Cdelta 2-Port  ) 
!S12(Cdelta 2-Port  ) 
!S22(Cdelta 2-Port  ) 
!S2P File: Measurements: S11, S21, S12, S22:
# Hz S  dB   R 50
13000000000 -20.378769 -83.838974 -48.84314 35.441936 -46.061199 65.703453 -15.422872 7.0595326
13020000000 -20.558535 -81.594193 -49.981647 -12.150445 -46.984596 20.931494 -15.078856 -1.3768713
13040000000 -20.618654 -80.416595 -52.631111 -52.451218 -47.489231 -20.097387 -14.72498 -14.994651
13060000000 -20.746592 -82.671387 -56.11161 -74.919113 -48.203228 -59.616501 -13.064799 -21.833223
13080000000 -20.724371 -84.09861 -58.293163 -101.2977 -49.190941 -100.74497 -12.780915 -33.067001
13100000000 -20.468826 -84.987282 -64.934723 -113.57652 -50.58173 -144.67552 -11.928205 -41.064465
13120000000 -20.126667 -84.685074 -60.227142 -118.69305 -52.034271 178.67499 -11.379473 -48.509995
13140000000 -20.524515 -84.488434 -57.001366 -119.75334 -55.379765 130.02605 -10.463237 -55.517757
13160000000 -20.460178 -83.020172 -54.511673 -158.7621 -57.865475 103.95416 -10.139015 -66.072456
13180000000 -19.993759 -85.286133 -53.210613 167.22359 -63.710987 58.415718 -9.111413 -71.374443
13200000000 -20.027252 -92.474754 -51.769138 136.78001 -69.29541 75.138725 -8.924201 -81.279869
13220000000 -20.263523 -97.202759 -51.001331 99.789726 -71.293915 45.751694 -8.5900612 -93.46463
13240000000 -20.741707 -96.561249 -50.00079 63.694103 -66.69696 102.52701 -8.3332396 -92.730621
13260000000 -20.534914 -94.346855 -48.862469 26.46969 -60.452545 80.015694 -7.6070929 -105.80797
13280000000 -19.922304 -96.886757 -48.079342 -11.024081 -57.114754 35.569427 -7.4515448 -114.16354
13300000000 -20.006468 -106.29089 -46.406605 -45.959393 -53.755817 5.0526319 -7.3067002 -122.39472
13320000000 -20.939257 -112.81984 -46.408337 -89.835533 -52.038284 -37.150421 -7.2394075 -129.88237
13340000000 -21.74493 -112.06519 -47.06638 -127.86794 -51.929871 -78.475258 -8.2790518 -138.48975
13360000000 -21.674582 -108.90662 -46.323536 -169.0995 -50.532536 -109.28619 -7.2352452 -144.28519
13380000000 -21.16124 -111.68064 -46.684719 158.30168 -47.930843 -147.58887 -7.4776444 -153.63957
13400000000 -21.659401 -118.68307 -46.024319 120.51605 -45.860828 166.70746 -7.500854 -160.54773
13420000000 -22.475594 -125.27398 -46.419762 83.584373 -45.978439 123.43656 -7.8626456 -167.09987
13440000000 -23.49136 -126.50137 -46.453876 49.410042 -45.704922 82.218391 -8.2175608 -174.35384
13460000000 -23.829296 -125.59486 -46.69746 16.136963 -46.66642 43.52335 -9.349453 -175.81854
13480000000 -24.421202 -126.08148 -46.726749 -22.949894 -45.512974 0.55205387 -8.8992691 173.22969
13500000000 -25.193724 -126.54397 -46.649349 -57.28611 -45.724442 -40.579247 -9.0719633 165.69974
13520000000 -25.685297 -126.90063 -46.42371 -89.230568 -46.574924 -76.209244 -9.5561419 159.71193
13540000000 -25.971977 -133.59244 -46.390736 -120.03581 -46.863327 -108.12042 -9.9040775 155.8911
13560000000 -27.473173 -139.71051 -45.436413 -157.20528 -46.983612 -142.59282 -10.385663 146.11754
13580000000 -29.223167 -135.64 -44.820847 165.58707 -47.089745 -177.24721 -10.949359 145.80402
13600000000 -29.379187 -119.75537 -45.041786 124.89665 -47.326893 145.00667 -11.127831 136.96254
13620000000 -28.615278 -118.66234 -44.753429 87.674721 -47.054932 110.64426 -11.618101 129.44275
13640000000 -28.194328 -125.73782 -44.465729 51.468903 -46.556751 75.710709 -11.825563 123.82741
13660000000 -29.435799 -132.57137 -44.59095 10.130443 -46.77594 42.013367 -12.367453 122.67745
13680000000 -31.219303 -127.56129 -44.968052 -27.137352 -46.959297 9.6901102 -13.18333 113.55684
13700000000 -30.093727 -112.12931 -45.159286 -68.321396 -45.828426 -29.559345 -13.31237 107.53529
13720000000 -28.739552 -111.9668 -46.206837 -112.20862 -46.036144 -67.864777 -13.899576 96.256996
13740000000 -28.592201 -123.05265 -47.545628 -140.00497 -45.400352 -105.07724 -14.214417 89.802711
13760000000 -29.685314 -130.00912 -47.970364 -175.01302 -46.048817 -143.39755 -14.584308 84.972206
13780000000 -29.854973 -128.79076 -49.342182 146.04343 -46.495316 177.84264 -15.618912 80.207565
13800000000 -28.580959 -130.77991 -49.549023 112.78825 -46.686474 138.98595 -15.672905 70.899307
13820000000 -28.263561 -132.4572 -51.906479 85.554054 -48.163464 105.7364 -16.093416 61.831081
13840000000 -29.208248 -137.47746 -52.224472 61.173477 -48.424015 68.714455 -16.831484 45.971161
13860000000 -29.932663 -139.14938 -51.254177 39.805092 -48.939259 36.818428 -16.451328 39.219917
13880000000 -30.402218 -146.35849 -51.327419 16.090788 -50.788883 8.7817678 -17.173073 29.330912
13900000000 -29.391636 -170.74382 -49.618477 -19.009682 -51.035793 -17.291023 -17.253716 16.791636
13920000000 -29.076803 179.34903 -49.573742 -55.753399 -50.069744 -46.797092 -17.116385 3.8238111
13940000000 -29.959618 168.68286 -49.436184 -85.06179 -51.712654 -79.182182 -17.39802 -4.2863898
13960000000 -32.032078 173.24886 -48.229641 -116.84581 -51.618752 -100.98865 -16.014484 -17.342161
13980000000 -32.989208 164.8949 -47.973465 -147.26825 -49.175163 -115.63197 -15.700682 -27.233349
14000000000 -30.689728 144.78531 -46.506115 179.56337 -47.322006 -150.96588 -15.780618 -40.358753
14020000000 -29.188412 124.23492 -45.735546 138.72641 -45.841301 169.22141 -15.136106 -52.732689
14040000000 -29.761942 108.32396 -45.377575 106.8008 -45.203941 137.68845 -13.840571 -61.447601
14060000000 -30.678127 96.927597 -44.505302 65.320656 -44.544209 96.802513 -14.735085 -70.192184
14080000000 -32.381363 88.070129 -44.35099 27.309059 -43.010288 61.33585 -13.147228 -79.232948
14100000000 -31.005365 73.43309 -44.141827 -10.600208 -42.479073 22.221888 -12.790225 -90.935623
14120000000 -29.222395 70.868629 -43.732391 -52.31654 -41.729252 -17.809992 -12.637852 -99.507126
14140000000 -27.330397 56.549389 -45.098625 -87.908669 -41.75758 -55.780251 -11.912278 -110.4159
14160000000 -27.112261 42.774055 -44.574059 -121.97421 -41.728996 -93.080437 -11.664296 -117.54055
14180000000 -27.837751 37.397449 -44.773819 -160.6769 -41.167343 -133.2133 -11.61574 -125.57
14200000000 -27.674555 27.990005 -46.020554 166.59724 -41.20039 -171.1801 -10.671913 -134.68648
14220000000 -27.448423 28.28133 -45.173168 133.93199 -40.935936 151.02567 -10.850417 -144.12164
14240000000 -26.087135 26.386513 -46.013721 99.349693 -41.435581 111.43017 -10.775958 -153.49466
14260000000 -25.138662 15.498447 -45.254063 72.289948 -41.675369 80.022659 -10.119771 -160.65274
14280000000 -25.625168 9.5254536 -45.193436 31.036837 -41.623028 43.623001 -10.563242 -165.38791
14300000000 -26.329491 3.6114519 -45.165257 2.8542545 -41.509892 2.9448032 -9.9167671 -175.76198
14320000000 -26.183826 4.9293656 -44.087017 -30.954731 -41.823433 -29.601316 -9.9731131 174.97615
14340000000 -25.419392 0.59940511 -43.934639 -65.971474 -42.017376 -62.204323 -10.390892 166.5986
14360000000 -24.936157 -1.6009306 -42.974842 -97.865448 -41.606255 -93.571609 -10.184349 158.42839
14380000000 -25.084148 -7.9233065 -42.103703 -137.61899 -41.062817 -127.94708 -10.064223 154.52029
14400000000 -25.701773 -8.3009996 -41.227989 -179.88281 -40.206749 -165.55276 -10.334157 146.98915
14420000000 -25.565931 -11.949317 -41.747147 137.72556 -40.508846 156.37425 -11.255133 139.88496
14440000000 -26.019749 -8.8613234 -41.540272 100.87653 -39.631695 121.99009 -10.553149 129.40422
14460000000 -25.034412 -6.8796558 -41.731724 59.80265 -39.15453 84.490875 -11.161429 122.56682
14480000000 -24.221739 -10.379275 -42.435787 20.122866 -38.943932 43.841656 -11.286244 116.23196
14500000000 -24.540726 -16.215561 -42.915455 -16.026495 -38.959259 7.6668859 -11.619844 111.81611
14520000000 -24.996563 -15.787876 -43.476036 -55.233204 -38.509434 -31.42778 -12.173019 106.10945
14540000000 -25.131859 -9.3227692 -44.454155 -91.347664 -38.741093 -72.166672 -12.946612 94.508888
14560000000 -23.88789 -5.7697911 -45.211647 -126.28296 -38.615997 -111.03107 -12.3946 88.113884
14580000000 -22.198959 -12.002057 -46.246906 -160.76006 -38.603306 -153.76173 -12.950235 81.22036
14600000000 -22.372358 -19.470818 -47.904209 176.43321 -39.729424 167.77469 -13.482368 75.987877
14620000000 -23.404364 -20.203815 -47.001049 153.28468 -40.497902 133.89529 -13.605475 69.889526
14640000000 -22.950296 -14.192231 -46.285072 120.16013 -40.352188 98.224457 -15.042053 60.886486
14660000000 -21.582809 -13.323122 -46.56955 87.230904 -41.274525 57.882034 -14.033221 54.463593
14680000000 -20.412949 -21.338158 -44.946533 63.091812 -41.8484 28.930981 -14.884474 45.379513
14700000000 -20.21427 -29.800491 -43.571957 22.366312 -41.546604 -7.4349198 -15.68411 37.237663
14720000000 -21.213869 -31.53067 -43.086491 -13.87284 -42.298553 -43.348942 -15.578213 32.607643
14740000000 -21.315805 -29.730768 -42.436977 -51.674026 -42.846428 -73.432877 -16.537123 24.703369
14760000000 -20.058281 -30.631018 -42.0424 -90.205635 -42.634708 -102.81739 -17.678328 2.8522801
14780000000 -19.494638 -37.395905 -41.96666 -129.16032 -42.186333 -138.3889 -17.009243 6.9139514
14800000000 -19.257139 -43.09166 -41.564484 -166.92097 -42.113167 -170.77319 -17.786448 -10.26325
14820000000 -19.672728 -46.40247 -41.247856 152.85234 -40.868145 154.89133 -18.317751 -16.479412
14840000000 -19.692915 -49.725693 -42.038628 115.00704 -40.741058 115.19347 -18.560659 -22.230417
14860000000 -19.581448 -53.441326 -41.917328 78.929695 -40.522182 77.905106 -19.854462 -37.111893
14880000000 -19.803614 -56.387775 -41.759502 40.292477 -39.948841 38.181591 -18.523201 -61.897251
14900000000 -19.726906 -57.838478 -42.501659 1.9684206 -39.914063 -1.683576 -19.222857 -71.678093
14920000000 -19.33539 -60.981316 -42.583168 -30.141722 -40.063755 -39.890312 -20.504574 -100.2039
14940000000 -19.310263 -69.953659 -42.541107 -68.326042 -39.924362 -79.921364 -21.348869 -91.313118
14960000000 -20.170494 -76.603737 -42.372395 -104.69561 -40.491863 -120.24567 -21.748516 -101.75914
14980000000 -21.408035 -77.208717 -42.433723 -141.82408 -40.487827 -158.12593 -20.937721 -124.65172
15000000000 -21.711813 -71.543976 -42.287209 -177.73767 -41.153667 163.01147 -20.142204 -135.90981
15020000000 -20.502535 -72.466667 -42.606522 145.40727 -41.729633 125.22272 -20.396757 -137.47295
15040000000 -20.493717 -83.403656 -42.387962 109.52307 -42.09832 90.661789 -17.64571 176.99799
15060000000 -22.006756 -92.289322 -42.174385 71.698021 -42.115059 54.605843 -21.723011 171.23663
15080000000 -23.777519 -87.634392 -42.057983 32.643074 -42.507088 16.522789 -22.364498 159.46039
15100000000 -23.988113 -78.75351 -42.053715 -7.0025067 -42.251972 -18.676252 -21.541969 149.23601
15120000000 -22.630938 -77.60807 -42.1413 -45.66423 -42.750927 -61.978886 -20.94965 136.10207
15140000000 -22.557976 -84.222885 -42.538635 -84.279907 -43.644348 -97.977318 -25.53797 110.64724
15160000000 -23.839317 -88.899719 -42.15538 -124.16137 -43.145039 -135.1438 -18.284895 105.1076
15180000000 -24.421848 -80.88517 -42.83247 -165.10834 -44.489395 -176.06564 -20.559902 78.541405
15200000000 -23.871893 -76.783836 -43.323761 154.99147 -44.639034 147.16583 -20.854095 64.232613
15220000000 -23.986992 -78.992249 -43.775658 118.15678 -45.671532 108.90949 -19.693806 59.663887
15240000000 -23.622484 -77.690315 -43.950882 74.712708 -45.676987 71.433167 -20.307035 44.921185
15260000000 -23.02178 -78.300636 -45.289677 33.730717 -47.016266 31.495468 -18.5903 7.0372705
15280000000 -22.691565 -85.931572 -45.354149 1.2511051 -47.469555 0.77898365 -17.853502 26.521395
15300000000 -22.987005 -90.997101 -45.375031 -37.578178 -47.44141 -31.355654 -17.78207 2.8881159
15320000000 -23.633436 -93.733406 -46.10487 -82.326897 -47.103065 -75.434227 -17.593056 -1.4701356
15340000000 -23.341555 -90.231461 -46.98534 -121.9671 -47.853069 -113.98614 -17.216494 -6.0581894
15360000000 -22.258162 -91.869507 -47.366825 -161.77829 -47.650894 -150.89392 -16.906843 -24.331751
15380000000 -22.132971 -101.50014 -48.701481 149.57352 -47.85405 159.47954 -14.721591 -36.923882
15400000000 -22.817696 -114.0928 -51.09053 112.13052 -49.697624 120.11933 -15.076154 -41.541557
15420000000 -24.280565 -119.14584 -51.235394 81.892502 -49.523483 86.122231 -15.230194 -54.589298
15440000000 -24.209919 -115.89851 -51.756634 35.087532 -49.241409 33.36079 -15.160875 -51.576054
15460000000 -23.575735 -116.56686 -54.198154 -9.192215 -50.234745 -14.945705 -14.858031 -58.468758
15480000000 -23.532278 -127.18894 -56.343609 -39.59972 -51.303204 -65.204399 -13.862533 -72.605637
15500000000 -24.711035 -144.10826 -57.130234 -75.514572 -52.104706 -113.4101 -13.151637 -78.405136
15520000000 -26.723629 -153.38611 -56.953793 -113.77876 -52.873199 -161.9534 -12.460733 -78.336967
15540000000 -27.778435 -156.4959 -57.083321 -149.73589 -54.21497 152.42706 -13.893087 -101.2402
15560000000 -27.483974 -157.57098 -58.282516 168.09583 -54.231972 105.24263 -13.473902 -96.75531
15580000000 -27.62253 -165.42705 -56.576904 136.80779 -53.858353 59.618149 -13.11919 -105.15147
15600000000 -28.101274 171.23805 -54.452068 87.273697 -53.387024 5.9796553 -12.249168 -113.40503
15620000000 -30.134138 149.85272 -55.131218 46.859093 -53.77776 -50.353745 -11.929176 -119.97102
15640000000 -30.76911 132.24681 -53.326145 0.49655098 -54.762527 -84.504463 -12.355629 -116.22862
15660000000 -29.761641 123.8203 -53.334126 -46.853992 -54.871338 -125.20754 -12.730814 -139.09598
15680000000 -29.832823 112.3409 -51.813931 -88.472 -54.190613 -168.24109 -12.693682 -141.43579
15700000000 -29.639803 104.77514 -51.101398 -141.73097 -53.209194 149.89574 -12.309844 -149.15894
15720000000 -28.38059 90.288567 -50.720806 178.75514 -52.463505 100.10068 -12.222517 -160.04221
15740000000 -27.136051 73.055977 -49.272427 130.83313 -53.414322 60.740868 -12.371151 -162.64619
15760000000 -25.19998 64.395668 -50.467484 86.259995 -53.763458 13.09558 -10.289641 166.80261
15780000000 -25.038919 58.354523 -48.835953 51.044731 -54.161789 -14.331586 -12.901755 175.82469
15800000000 -25.095533 50.793324 -48.371136 1.836944 -52.932392 -52.776966 -13.658981 169.25151
15820000000 -25.253637 51.744514 -48.560944 -36.000671 -54.653385 -101.86225 -13.414981 157.30005
15840000000 -23.845881 47.480526 -47.387218 -81.851624 -55.116367 -126.44707 -13.428634 146.29384
15860000000 -22.272484 41.730549 -48.402222 -128.09442 -53.913277 -174.01231 -15.08443 141.30667
15880000000 -21.235538 37.267113 -48.575897 -164.51401 -55.611347 150.35632 -12.145576 116.8281
15900000000 -21.507925 31.086081 -48.666065 154.73257 -56.018486 120.23696 -16.450186 113.94916
15920000000 -22.036932 30.558821 -48.74284 114.00803 -54.836102 78.074165 -17.228951 104.48094
15940000000 -21.96582 35.144939 -49.105381 71.747101 -55.009071 38.7728 -16.193369 89.693909
15960000000 -20.218031 35.885929 -50.10146 32.511303 -56.195778 3.275089 -16.744375 76.228432
15980000000 -18.985283 30.909092 -50.968269 -3.5542741 -54.606228 -36.892544 -18.535324 52.025181
16000000000 -18.856453 24.374865 -50.558174 -43.685726 -53.964344 -79.731941 -17.842405 35.509739
16020000000 -19.198051 22.682909 -52.568565 -83.260857 -54.421097 -129.77885 -21.875772 20.275246
16040000000 -19.08053 24.649252 -54.179825 -105.25645 -58.05994 -176.14293 -19.144392 13.656898
16060000000 -18.076624 26.929228 -52.833534 -142.25211 -57.465019 143.9399 -16.472626 6.407259
16080000000 -16.736477 23.755966 -54.677204 173.71927 -55.295979 99.942284 -16.189396 -11.00916
16100000000 -16.101961 20.165861 -56.40517 154.91745 -55.091171 32.672195 -15.007665 -27.232006
16120000000 -15.741706 15.692042 -57.925175 134.34418 -54.551968 -21.284353 -13.876211 -34.846485
16140000000 -15.791937 15.40206 -56.684418 112.26633 -55.722004 -76.752579 -17.090147 -64.51918
16160000000 -15.435184 15.085279 -53.903511 91.493332 -53.322548 -126.39589 -14.982123 -48.030182
16180000000 -14.519986 13.847563 -52.146908 46.928268 -52.337418 174.67021 -13.320236 -54.934441
16200000000 -13.647065 11.038267 -52.196976 17.353765 -50.948204 128.39354 -12.408872 -65.723045
16220000000 -13.007227 7.4420819 -50.275806 -17.326204 -49.896259 75.831161 -12.019698 -74.332321
16240000000 -12.689605 3.785114 -49.331867 -64.204613 -49.874298 31.095816 -10.866131 -74.037766
16260000000 -12.781332 1.7726268 -49.290123 -107.86659 -49.988865 -13.874589 -13.138853 -89.871635
16280000000 -12.588041 0.4120298 -49.284904 -142.74347 -48.910564 -56.349293 -11.351515 -86.533264
16300000000 -11.758636 -0.86601955 -48.825764 -177.53403 -47.701912 -99.932846 -10.754354 -94.418884
16320000000 -11.011852 -4.0485086 -48.932442 133.57861 -48.068218 -150.13313 -10.669181 -105.44133
16340000000 -10.54656 -8.6749725 -50.115261 104.27383 -47.87854 175.20207 -10.04632 -108.93549
16360000000 -10.516027 -11.765795 -49.202904 63.47514 -47.42944 129.19328 -9.6792736 -107.97575
16380000000 -10.638822 -12.525523 -50.256863 20.361481 -49.009453 90.645767 -10.734662 -119.19105
16400000000 -10.183776 -13.343541 -51.463211 -8.5356655 -48.429867 52.63995 -9.6795912 -121.26374
16420000000 -9.5095072 -16.304211 -50.461781 -44.839005 -48.415451 9.2351446 -9.413825 -128.62093
16440000000 -9.0893173 -20.388769 -52.064426 -82.895821 -50.151611 -27.691359 -9.7208986 -137.64622
16460000000 -8.9521713 -23.431206 -52.587242 -106.97755 -49.312538 -52.692085 -9.2490921 -138.34035
16480000000 -8.8950548 -24.538908 -51.478848 -141.36369 -48.752167 -92.247292 -9.3709431 -140.66061
16500000000 -8.7125864 -25.913958 -52.200363 -178.4081 -48.44096 -127.16673 -9.221652 -147.28374
16520000000 -8.226263 -27.998104 -51.810268 156.05676 -48.85928 -160.36864 -8.7943544 -151.32394
16540000000 -7.76755 -30.882496 -50.623058 113.9687 -47.499329 162.5625 -8.9339256 -160.51457
16560000000 -7.4814658 -33.381107 -51.462437 81.913208 -47.03857 125.73148 -9.0950623 -166.85023
16580000000 -7.2979207 -34.91835 -50.358932 47.00589 -46.163486 87.412102 -8.9665327 -168.80669
16600000000 -7.1152053 -36.529377 -50.085686 8.9699001 -45.718842 48.128845 -9.3077736 -174.35167
16620000000 -6.8617134 -38.973946 -49.474171 -26.539593 -45.137138 6.1677637 -9.4636173 178.29266
16640000000 -6.3810091 -40.457928 -48.159958 -66.446022 -45.044323 -32.637917 -8.3375311 178.09674
16660000000 -5.9575114 -42.899944 -48.678047 -109.42387 -44.766964 -75.043144 -8.8853559 165.12761
16680000000 -5.6059709 -45.221489 -49.780186 -152.38518 -45.188034 -115.99727 -9.179738 159.56203
16700000000 -5.3599815 -47.587955 -49.55658 167.32478 -45.230392 -156.14389 -9.8232384 154.48653
16720000000 -5.1070261 -49.491268 -50.176212 125.56525 -45.102974 162.98607 -9.8390245 148.84866
16740000000 -4.8375435 -53.052837 -51.280224 85.937622 -46.572956 121.31861 -8.6949291 155.81038
16760000000 -4.2854447 -54.977009 -52.734261 45.574802 -46.734913 83.604149 -9.9464827 138.92398
16780000000 -3.9187224 -58.47942 -53.173965 10.341329 -46.855949 38.578686 -10.343249 124.1132
16800000000 -3.6376195 -61.320633 -54.342453 -32.828999 -47.480637 -2.3798096 -11.204501 115.80459
16820000000 -3.3938661 -63.829189 -57.23711 -57.039917 -49.074814 -35.335323 -11.565991 111.85425
16840000000 -3.0451498 -66.624344 -57.203392 -87.787689 -49.458153 -73.717796 -12.288691 100.89703
16860000000 -2.79333 -71.402588 -57.593037 -114.5798 -50.382195 -107.17649 -13.087214 83.141663
16880000000 -2.4222455 -74.087654 -58.805225 -153.21034 -51.020679 -149.47159 -13.187019 83.579872
16900000000 -2.1480305 -77.25853 -57.909233 -173.52856 -50.937881 177.40657 -13.444057 68.501427
16920000000 -1.9386231 -80.415962 -58.693962 137.33083 -52.86335 129.60605 -14.839133 60.622005
16940000000 -1.6860824 -83.75853 -58.813168 110.02869 -53.900127 103.94233 -15.386894 54.915184
16960000000 -1.4703223 -87.480186 -59.557076 76.388229 -54.115707 69.812714 -15.672946 36.670177
16980000000 -1.2546526 -90.997902 -61.239571 43.709457 -55.255039 33.990337 -14.766488 22.917824
