!Keysight Technologies,P9374A,MY57211810,A.19.30.04
!Date: Friday, May 09, 2025 09:21:11
!Correction: S11(Cdelta 2-Port  ) 
!S21(Cdelta 2-Port  ) 
!S12(Cdelta 2-Port  ) 
!S22(Cdelta 2-Port  ) 
!S2P File: Measurements: S11, S21, S12, S22:
# Hz S  dB   R 50
13000000000 -19.737968 -80.160217 -46.67524 114.21849 -43.847977 87.595642 -16.334934 -63.510288
13020000000 -19.905973 -85.653511 -47.527454 83.207489 -44.20998 53.194748 -15.803349 -64.367844
13040000000 -21.093891 -85.278557 -48.203304 58.878136 -44.73201 13.711714 -14.870148 -69.993324
13060000000 -21.471453 -81.293243 -46.726055 32.017731 -46.40966 -18.126163 -13.402246 -64.689758
13080000000 -20.793474 -77.276382 -46.141201 -1.1309081 -47.166546 -45.653587 -12.760771 -71.437569
13100000000 -19.944769 -84.664215 -46.260658 -37.515068 -47.566376 -77.952759 -11.948372 -73.533257
13120000000 -20.128656 -87.799385 -46.471684 -61.764553 -48.921413 -108.01201 -11.452691 -74.498291
13140000000 -21.041769 -85.500259 -44.823093 -91.389603 -50.221165 -131.3224 -10.464212 -78.664474
13160000000 -20.449219 -80.863518 -44.2528 -129.71797 -48.626213 -141.1945 -9.9323387 -85.138695
13180000000 -19.88847 -85.687874 -43.830238 -160.48737 -47.829792 -169.20009 -8.981473 -86.42202
13200000000 -20.271467 -93.897484 -43.612236 165.64052 -46.279861 163.67978 -8.6566906 -93.527893
13220000000 -20.660238 -95.120178 -42.832306 133.96962 -44.837547 129.19991 -8.3950109 -102.70868
13240000000 -20.465607 -93.235291 -41.735157 106.09827 -43.147083 101.86665 -7.9691381 -99.445595
13260000000 -19.802114 -95.756897 -40.887733 66.392403 -41.882343 61.550838 -7.1971021 -110.84033
13280000000 -20.030132 -102.83831 -40.162003 31.821018 -40.993954 26.500925 -6.9796405 -116.92902
13300000000 -21.253395 -107.95117 -39.509872 -2.0580578 -39.874977 -10.556496 -6.8074784 -123.47474
13320000000 -21.445131 -104.80273 -38.612171 -37.719418 -39.409763 -47.033318 -6.7432127 -129.66304
13340000000 -20.824085 -109.29302 -38.449482 -74.703056 -39.742416 -85.127197 -7.8101597 -137.1575
13360000000 -20.644459 -113.97644 -36.651154 -113.17166 -37.901283 -121.84515 -6.7405477 -141.70673
13380000000 -21.97983 -120.13211 -36.311886 -153.50464 -37.659149 -160.28792 -7.0032878 -149.896
13400000000 -23.069876 -116.00022 -35.804947 168.74037 -36.99511 162.50864 -7.0662589 -155.75259
13420000000 -22.826317 -117.76122 -35.521587 129.15572 -36.897461 125.26942 -7.5133991 -161.1825
13440000000 -22.123014 -125.19975 -35.509071 92.391747 -36.472878 89.954071 -7.968905 -167.35904
13460000000 -23.699722 -134.24118 -35.589317 59.979694 -36.781902 55.277542 -9.2093954 -168.14442
13480000000 -25.588291 -129.19812 -35.024849 16.183718 -35.584961 13.345373 -8.8202572 -177.68335
13500000000 -25.682165 -120.56873 -35.111061 -20.532261 -35.45179 -24.639462 -9.1316843 176.10904
13520000000 -24.739462 -126.20463 -35.017063 -55.644917 -35.369549 -62.481274 -9.7352886 171.14818
13540000000 -25.732332 -141.42365 -34.917393 -93.472961 -35.050644 -99.731171 -10.195868 168.40216
13560000000 -28.145969 -148.62538 -34.796028 -129.29793 -34.788528 -138.47047 -10.976863 160.28027
13580000000 -30.394409 -122.59995 -34.410095 -162.24559 -34.984035 -173.62791 -11.617707 161.31314
13600000000 -27.644436 -119.84835 -34.122574 159.11115 -34.877636 147.0571 -11.954743 153.13626
13620000000 -27.779745 -130.90962 -34.040619 121.18859 -35.02713 108.56824 -12.77461 147.34798
13640000000 -29.686586 -141.87787 -33.671177 85.204422 -34.786549 70.370567 -13.239182 143.12891
13660000000 -32.172749 -122.34457 -33.544159 46.891338 -35.2897 33.496422 -13.83329 144.10901
13680000000 -30.0571 -113.37592 -33.660553 10.764804 -35.934036 1.2713685 -15.348591 135.38478
13700000000 -28.210449 -115.93481 -33.10965 -28.233038 -35.69445 -39.377842 -15.467302 132.75955
13720000000 -29.492138 -126.47437 -33.152912 -67.333679 -36.131996 -74.063194 -16.702963 123.29967
13740000000 -31.021713 -126.06367 -33.465046 -103.63697 -35.972927 -107.06841 -17.642029 116.81911
13760000000 -30.098585 -119.16023 -33.209518 -140.12303 -35.76527 -141.40526 -18.304253 114.97478
13780000000 -28.602007 -126.33274 -33.22118 -179.8898 -35.820267 -178.21632 -19.961464 115.20871
13800000000 -27.898859 -136.82666 -33.523357 142.80788 -35.723541 147.1725 -20.719223 104.61803
13820000000 -29.025164 -137.21541 -33.590408 107.96862 -35.703846 111.56563 -21.955818 95.102562
13840000000 -30.12455 -133.82095 -33.644722 70.323586 -35.739643 73.644394 -24.784206 73.104073
13860000000 -29.259867 -137.26778 -33.630032 32.976276 -35.1595 39.001286 -25.230186 58.231907
13880000000 -29.643579 -155.97105 -33.744507 -4.0086994 -35.071102 1.1797518 -27.907827 43.584572
13900000000 -29.749189 -179.41167 -33.786537 -42.401981 -34.755768 -35.891663 -28.059814 8.8847551
13920000000 -30.909224 176.06287 -34.164688 -79.540848 -34.736042 -73.428627 -26.00795 -20.622236
13940000000 -30.782059 -178.10069 -34.211021 -115.64735 -35.130108 -111.92133 -25.627157 -27.105913
13960000000 -29.683342 176.4809 -34.230267 -152.60945 -34.649548 -150.66711 -21.480215 -44.575062
13980000000 -31.087276 155.80934 -34.426025 169.1312 -34.940483 170.98833 -20.262136 -55.767284
14000000000 -30.974737 127.67416 -34.633659 132.59926 -35.122398 133.37892 -19.070169 -70.06469
14020000000 -31.364103 116.5314 -34.746597 92.90313 -35.134117 93.44178 -17.499315 -79.345947
14040000000 -31.071451 116.31902 -35.378574 55.209286 -35.603912 55.015869 -15.669433 -83.589088
14060000000 -30.237474 107.41534 -35.872074 18.529917 -36.697037 17.546881 -16.360664 -90.925957
14080000000 -30.358778 88.871307 -35.994827 -18.421911 -36.582569 -21.458422 -14.227119 -96.938812
14100000000 -30.432459 66.254082 -36.531292 -55.620163 -37.731136 -59.369236 -13.482802 -106.76106
14120000000 -29.784098 63.991196 -36.930737 -92.789352 -38.022121 -94.952278 -13.08606 -113.88103
14140000000 -28.09193 60.272213 -37.537182 -133.09798 -38.914104 -135.24907 -12.14751 -121.73098
14160000000 -26.67161 45.518623 -38.83284 -170.44412 -40.781879 -169.99265 -11.908482 -126.79912
14180000000 -27.157572 36.487461 -39.490841 158.62138 -40.897511 157.44478 -11.639237 -134.02393
14200000000 -27.633543 22.78265 -39.977631 123.35911 -41.717007 119.43591 -10.627511 -141.35648
14220000000 -27.915842 29.77149 -44.57666 80.630814 -43.072376 85.991722 -10.689846 -149.28026
14240000000 -26.101553 29.671158 -46.378544 44.454239 -44.231361 49.080044 -10.561526 -157.56056
14260000000 -24.412451 16.504807 -49.828571 17.259409 -46.117924 18.111767 -9.9335213 -163.22353
14280000000 -25.281622 4.4020028 -51.533073 6.3839812 -48.761471 -4.5501909 -10.346569 -167.11272
14300000000 -26.714903 0.14043893 -51.659378 -19.162207 -48.718716 -34.841682 -9.752017 -177.09845
14320000000 -26.724541 7.3284121 -51.497475 -22.118332 -50.444336 -53.971592 -9.8410559 174.59283
14340000000 -25.157339 4.1531582 -48.68605 -45.743309 -50.946693 -56.545593 -10.270355 167.47583
14360000000 -24.389688 -4.3221931 -46.878204 -78.183235 -48.341179 -78.381454 -10.189856 160.07196
14380000000 -25.190212 -10.987312 -45.343731 -110.25797 -45.505692 -110.13277 -10.181107 156.63596
14400000000 -26.280991 -5.624959 -44.527439 -151.3744 -44.471115 -148.29382 -10.488515 149.84436
14420000000 -25.113241 -7.9034133 -44.072979 178.79231 -43.84164 -177.27585 -11.547947 143.36844
14440000000 -24.755724 -9.9236012 -42.60133 139.91518 -41.903362 143.50735 -10.995949 133.42636
14460000000 -25.212627 -15.105948 -42.305733 102.47691 -41.261215 106.89634 -11.725704 127.33305
14480000000 -25.260853 -10.139985 -42.403664 62.076054 -40.71912 65.730026 -12.034911 121.7507
14500000000 -24.825109 -5.0949755 -42.822933 26.728212 -40.714943 30.711697 -12.558999 117.69022
14520000000 -23.258732 -11.682777 -42.709419 -5.4724793 -39.847958 -5.6542382 -13.323868 112.7271
14540000000 -24.05933 -17.54422 -43.005318 -42.46991 -40.326172 -45.814674 -14.400738 101.49918
14560000000 -24.490026 -15.743602 -43.500771 -74.934334 -40.318691 -82.291077 -13.849364 95.231155
14580000000 -23.817106 -7.5955215 -43.644844 -105.00692 -39.907448 -117.14074 -14.862469 88.21299
14600000000 -22.071701 -10.414219 -43.873569 -133.39494 -40.501328 -157.55139 -15.716002 83.844627
14620000000 -22.190332 -16.994808 -42.848549 -161.43475 -40.961956 170.21422 -16.038204 77.672867
14640000000 -22.023392 -21.822252 -41.84446 163.50467 -40.768806 136.70558 -18.305599 68.656029
14660000000 -22.307724 -19.46969 -41.358398 127.15642 -41.228485 96.774689 -17.053953 60.276276
14680000000 -21.14967 -19.259848 -41.050884 95.608627 -41.769821 63.798878 -18.499443 50.671799
14700000000 -20.22471 -24.813608 -40.209087 61.634789 -42.412876 33.703594 -20.289103 40.951149
14720000000 -20.649319 -29.686049 -39.260422 22.81827 -42.070854 3.1551046 -20.411482 34.956394
14740000000 -20.972466 -30.951754 -39.21534 -16.090544 -42.115166 -30.793354 -22.117163 25.944338
14760000000 -20.068233 -31.17449 -38.961529 -50.763245 -42.590008 -58.279179 -23.588276 -12.66703
14780000000 -19.35463 -38.102818 -38.593712 -87.499168 -41.863857 -88.767563 -22.99197 -0.31811818
14800000000 -19.35784 -44.649105 -38.715302 -124.63226 -41.412083 -120.95887 -23.785915 -33.136524
14820000000 -19.932991 -46.954903 -38.901485 -161.30099 -40.940895 -152.97667 -24.989401 -42.858593
14840000000 -20.156185 -47.874317 -39.037659 164.59642 -40.27243 175.36723 -24.97699 -48.405952
14860000000 -19.188683 -49.357029 -38.753704 132.1176 -39.18998 141.32166 -24.924988 -77.343811
14880000000 -19.094584 -58.245014 -38.482506 97.624107 -38.568008 103.18259 -20.880184 -96.106125
14900000000 -19.429752 -63.35762 -38.57172 62.732147 -38.20734 67.255013 -21.329048 -106.14017
14920000000 -20.040922 -65.321533 -37.960033 29.521885 -37.917835 32.089966 -19.935757 -135.90694
14940000000 -20.167328 -65.02375 -37.265739 -4.5908489 -36.914364 -2.0131323 -21.732159 -131.274
14960000000 -19.896093 -70.419586 -37.050343 -43.57774 -36.659241 -41.854343 -21.788704 -138.45134
14980000000 -20.284163 -75.034431 -36.947456 -76.300285 -36.55135 -77.043922 -20.086699 -150.56577
15000000000 -21.039501 -78.798546 -35.997849 -113.78431 -35.963272 -115.4073 -18.946056 -155.59637
15020000000 -21.360838 -76.756599 -35.667355 -155.35631 -35.855717 -154.0509 -19.370241 -156.52957
15040000000 -21.437473 -79.752808 -36.158245 167.67978 -35.810421 170.01636 -16.199593 171.04616
15060000000 -21.991261 -84.332764 -35.817844 133.53371 -35.467621 133.98625 -19.42882 167.19009
15080000000 -22.744349 -87.615829 -35.53334 92.166893 -35.246017 93.767403 -20.093433 160.05362
15100000000 -23.758173 -84.14711 -36.070499 55.654705 -35.599014 56.960606 -20.057142 154.5894
15120000000 -23.210634 -80.018196 -36.211342 19.707741 -35.825306 19.973234 -19.862423 146.38058
15140000000 -22.741755 -82.81308 -36.114128 -14.843077 -35.517696 -13.787887 -24.173172 136.86745
15160000000 -23.822929 -86.037682 -36.086739 -53.264709 -35.24799 -52.503448 -18.171326 119.26296
15180000000 -24.062695 -83.674866 -36.014874 -89.828392 -35.443287 -91.147957 -22.205364 99.297279
15200000000 -24.067236 -74.995064 -36.309334 -124.81638 -35.87434 -127.10708 -23.843884 89.76564
15220000000 -23.656033 -79.981613 -36.294216 -160.60197 -36.078522 -161.75812 -22.718691 81.144783
15240000000 -23.434122 -77.316841 -36.173489 159.79486 -35.956673 159.78357 -25.52276 65.724449
15260000000 -22.995693 -80.664108 -36.794598 123.00788 -36.3978 123.84436 -24.074722 -0.2664381
15280000000 -22.980162 -84.536407 -36.877876 89.374748 -36.361515 88.419907 -22.750805 40.022034
15300000000 -22.932659 -89.462952 -37.062717 52.410965 -36.739342 51.713028 -23.799587 -3.5991793
15320000000 -23.350651 -91.32869 -37.351421 17.088451 -37.047943 18.468866 -23.715021 -8.5909891
15340000000 -23.010786 -89.440918 -37.774708 -18.574814 -37.009422 -16.64823 -23.338228 -14.565516
15360000000 -22.252977 -93.15387 -37.861412 -51.34581 -37.115696 -53.054531 -22.123816 -43.617298
15380000000 -22.279131 -102.16991 -38.063854 -90.093102 -37.145515 -89.628296 -18.317165 -54.573814
15400000000 -23.191433 -113.92579 -38.643845 -119.35518 -37.494728 -122.99227 -19.03701 -61.471409
15420000000 -24.208017 -114.67527 -38.171253 -151.77348 -37.420284 -157.39011 -18.774153 -80.070137
15440000000 -24.222002 -115.98151 -37.940193 168.5473 -37.577633 166.60951 -19.072769 -73.50222
15460000000 -23.206249 -118.11687 -38.381958 136.96448 -38.082062 132.1281 -18.639574 -79.876801
15480000000 -23.889206 -129.73549 -37.943344 101.99613 -37.728592 97.252937 -16.660872 -93.052124
15500000000 -24.944647 -143.93234 -38.031601 65.260704 -37.871082 62.841633 -15.716442 -96.872627
15520000000 -26.816706 -150.43849 -37.95554 30.733509 -37.695858 28.121061 -15.064076 -93.770447
15540000000 -27.362394 -154.8528 -37.929115 -4.2328353 -38.38269 -6.8569202 -15.562709 -121.44125
15560000000 -27.224539 -157.94087 -37.481304 -41.337166 -37.640575 -40.584991 -15.552903 -115.96326
15580000000 -27.706623 -165.49626 -37.73978 -78.462212 -37.83168 -77.818001 -14.882677 -122.66315
15600000000 -28.507908 173.64703 -37.560318 -114.50854 -37.486771 -112.06851 -13.731431 -127.99288
15620000000 -29.827694 151.00685 -37.773434 -151.12193 -37.415089 -147.58948 -13.261204 -133.27689
15640000000 -30.813406 131.89891 -37.768692 172.86984 -37.094486 176.6378 -13.865973 -128.88148
15660000000 -29.46019 122.0209 -37.833447 135.60106 -37.616596 140.75293 -13.181589 -151.92706
15680000000 -30.658712 112.97057 -38.390583 96.496208 -37.678371 101.4869 -13.26242 -153.85782
15700000000 -29.736885 103.13059 -38.532955 62.899696 -37.286942 67.155167 -12.731269 -160.07309
15720000000 -28.887831 92.258072 -38.86377 26.280621 -37.33604 29.190384 -12.329929 -169.42542
15740000000 -26.437346 75.185432 -39.411587 -8.8423605 -37.448059 -9.181448 -12.414536 -171.94865
15760000000 -25.016817 62.071232 -39.20615 -43.015495 -37.437706 -44.149929 -9.8423691 160.83043
15780000000 -25.006918 56.114067 -39.452599 -78.887596 -37.788322 -79.169014 -12.360996 168.92342
15800000000 -25.660553 51.470097 -40.122917 -113.16003 -38.01609 -119.08717 -12.927231 162.97643
15820000000 -25.448633 54.928848 -39.996861 -147.84433 -38.283905 -153.03525 -12.670089 152.6474
15840000000 -23.356836 50.146938 -40.564659 178.82974 -38.702793 169.42577 -12.629156 143.6311
15860000000 -22.007961 40.561501 -40.246605 144.93199 -38.74572 132.97566 -13.883749 139.44757
15880000000 -21.543747 34.547237 -40.108128 106.3802 -38.96804 96.026779 -11.287777 118.04733
15900000000 -22.076258 31.48789 -40.920052 70.754822 -39.56794 61.170033 -15.095639 118.25541
15920000000 -22.221947 33.42466 -40.61657 39.468544 -39.766933 22.768581 -15.745443 111.56831
15940000000 -21.659901 36.583889 -40.585049 5.7674403 -40.718155 -9.0975285 -15.261413 99.561638
15960000000 -20.034782 33.374763 -40.694813 -34.199444 -40.596874 -45.423 -16.002981 89.373787
15980000000 -19.173717 27.877966 -40.893684 -67.766838 -40.805565 -79.220604 -18.357952 72.79879
16000000000 -19.143925 24.567394 -41.174545 -103.15569 -41.540211 -116.34924 -18.494093 58.308643
16020000000 -19.316854 23.426006 -41.323586 -138.96846 -41.928402 -148.21895 -23.498655 62.92395
16040000000 -18.823639 26.449139 -41.390205 -173.16702 -42.525105 178.81189 -21.068375 41.394585
16060000000 -17.852913 25.173239 -41.491062 153.21117 -42.183182 145.30734 -18.70612 28.415045
16080000000 -16.791384 22.825785 -41.386353 114.37142 -42.063 109.74411 -19.338018 9.0321951
16100000000 -16.249414 19.748602 -41.912884 80.926598 -41.994293 76.435799 -18.507486 -13.792711
16120000000 -15.785386 16.761818 -41.74268 43.608791 -41.705879 38.865311 -17.266726 -24.877901
16140000000 -15.833624 14.913382 -42.081329 7.4632916 -43.064613 0.96833396 -22.664602 -66.688866
16160000000 -15.520932 16.041519 -42.331741 -26.640514 -42.829998 -29.102751 -19.125307 -42.854454
16180000000 -14.464308 14.177868 -43.089622 -65.94191 -42.553135 -69.513954 -16.994663 -49.058723
16200000000 -13.458893 10.954604 -43.520752 -93.118835 -42.635464 -103.20486 -15.741358 -62.95578
16220000000 -13.024856 5.7150283 -42.807178 -127.55145 -42.35952 -141.39313 -15.257679 -73.731361
16240000000 -12.975554 2.950578 -42.996384 -164.95131 -42.917896 178.25861 -13.742229 -72.305168
16260000000 -13.003352 3.3854475 -43.484901 158.76807 -44.872208 146.00485 -16.260742 -93.675423
16280000000 -12.359779 2.0757887 -43.177261 125.40857 -43.760334 114.76107 -14.385076 -88.447441
16300000000 -11.452944 -1.7098187 -43.520943 92.589233 -44.332695 71.338669 -13.431321 -95.889145
16320000000 -11.015666 -6.217422 -42.617447 56.984367 -44.772118 36.481583 -13.210735 -108.39756
16340000000 -10.836786 -9.0160618 -42.876728 15.184079 -45.132366 0.85115927 -12.40573 -111.84459
16360000000 -10.650197 -10.66707 -43.282127 -18.698837 -45.655064 -37.712257 -11.960176 -109.57649
16380000000 -10.483603 -11.223494 -43.443218 -55.490154 -47.893215 -66.382706 -12.873374 -124.61349
16400000000 -9.9880524 -14.32284 -43.058655 -92.402786 -46.951038 -96.059105 -11.751638 -124.14291
16420000000 -9.5363131 -17.193964 -43.692207 -134.77182 -47.42181 -141.54906 -11.268173 -132.15816
16440000000 -9.1940765 -20.642862 -44.542755 -169.3224 -49.525024 -175.41556 -11.498915 -141.87505
16460000000 -8.9648237 -22.982754 -44.055962 156.57297 -49.060074 161.78261 -10.961719 -142.0605
16480000000 -8.8256245 -24.690577 -44.967239 114.5357 -50.10004 123.59 -11.089332 -143.96059
16500000000 -8.7090816 -25.790262 -45.257114 82.183716 -49.405346 96.409409 -10.795291 -151.03995
16520000000 -8.2092009 -27.898081 -45.090473 38.242516 -50.0159 57.169559 -10.104334 -154.95131
16540000000 -7.7082996 -30.463457 -47.389904 -1.104414 -50.767776 28.372471 -10.18474 -164.31001
16560000000 -7.4249125 -33.975533 -47.781799 -33.737701 -49.121563 -5.5949106 -10.274033 -170.86473
16580000000 -7.3693275 -35.314125 -48.536922 -74.719154 -49.815525 -48.582512 -10.130439 -172.39406
16600000000 -7.2283835 -35.814789 -49.915966 -110.50335 -50.974995 -81.741508 -10.375674 -178.16142
16620000000 -6.7901077 -38.285679 -51.688747 -140.87692 -50.423485 -112.69397 -10.4613 174.25496
16640000000 -6.2445273 -40.691479 -52.831112 -171.82735 -51.198864 -150.24553 -9.1406775 174.92812
16660000000 -5.9763136 -43.963921 -53.769642 150.05032 -52.134186 169.39108 -9.5607967 161.95139
16680000000 -5.7384 -45.437313 -55.379265 122.98137 -52.180645 142.93184 -9.803071 156.20265
16700000000 -5.4288692 -46.773102 -56.624733 90.557518 -53.147804 96.474724 -10.3946 151.20412
16720000000 -4.9844141 -49.045074 -60.173988 72.681488 -54.841919 57.597851 -10.300692 145.53169
16740000000 -4.7511506 -53.768028 -57.590885 60.535099 -59.214031 27.229752 -9.0081892 154.03839
16760000000 -4.3549299 -55.630165 -59.211224 21.665815 -59.917534 20.393093 -10.208792 136.88039
16780000000 -3.9890423 -58.155441 -58.047112 26.741804 -61.469128 -5.4793272 -10.472784 122.39396
16800000000 -3.6209455 -60.866318 -55.578487 -8.3295231 -63.445641 -1.5274992 -11.211537 114.32513
16820000000 -3.3083971 -63.87233 -54.246616 -37.722031 -58.04731 -8.1703157 -11.511996 110.68604
16840000000 -3.0516915 -67.00869 -51.530682 -80.048859 -55.206295 -46.011436 -12.139832 100.30848
16860000000 -2.8319902 -71.369102 -50.440422 -116.35413 -52.160782 -82.523499 -12.856385 83.915085
16880000000 -2.426393 -73.833969 -51.030312 -159.27066 -51.542866 -130.21284 -12.879966 85.420242
16900000000 -2.1070023 -77.343864 -49.765739 172.39212 -49.727848 -160.01041 -13.194715 71.465813
16920000000 -1.9495747 -80.6203 -48.408474 126.70926 -48.135101 154.02637 -14.535561 64.755974
16940000000 -1.7170583 -83.75164 -48.615513 83.553062 -47.705334 112.10158 -15.048747 60.707153
16960000000 -1.4672419 -87.296066 -48.766945 44.915413 -47.029194 71.550217 -15.546121 44.655056
16980000000 -1.2195847 -91.04557 -48.783234 5.4581184 -46.835613 30.717943 -14.942967 31.112114
