!Keysight Technologies,P9374A,MY57211810,A.19.30.04
!Date: Friday, May 09, 2025 09:20:33
!Correction: S11(Cdelta 2-Port  ) 
!S21(Cdelta 2-Port  ) 
!S12(Cdelta 2-Port  ) 
!S22(Cdelta 2-Port  ) 
!S2P File: Measurements: S11, S21, S12, S22:
# Hz S  dB   R 50
13000000000 -21.286587 -96.092522 -41.059608 21.352739 -42.962193 14.496654 -16.900785 -27.496443
13020000000 -22.510828 -76.421379 -41.235996 -20.462427 -42.583305 -22.861574 -16.096342 -33.096821
13040000000 -20.593897 -67.197105 -41.158852 -56.272987 -42.674313 -61.842911 -15.162556 -43.501793
13060000000 -19.1819 -76.174606 -40.845188 -93.298889 -42.004459 -96.462547 -13.346512 -44.080856
13080000000 -19.411022 -89.410324 -40.293232 -132.1011 -41.192425 -138.35089 -12.84116 -53.559887
13100000000 -20.978085 -96.94371 -40.27533 -173.19125 -41.666874 179.99541 -11.953006 -58.488972
13120000000 -22.668871 -85.764084 -40.47459 147.40285 -42.142632 143.5295 -11.413512 -62.701839
13140000000 -21.447433 -71.208168 -39.696121 108.53378 -40.974121 104.60879 -10.422616 -68.649071
13160000000 -19.302559 -74.459282 -39.408104 66.316536 -40.813778 63.037655 -9.9492645 -77.03199
13180000000 -18.414589 -88.952179 -39.322475 24.537487 -40.552544 23.798561 -8.9621248 -80.154671
13200000000 -19.636072 -104.47523 -39.618877 -14.921773 -40.504551 -16.587158 -8.7640181 -88.625412
13220000000 -22.083282 -107.23547 -39.167484 -61.403885 -40.40617 -63.765717 -8.4921322 -99.390442
13240000000 -22.84943 -85.371674 -39.510128 -98.803764 -40.512379 -98.85096 -8.1699343 -97.422798
13260000000 -19.583565 -83.010178 -39.223152 -144.13213 -39.982075 -144.84386 -7.4394178 -109.47416
13280000000 -18.249086 -97.490463 -39.383961 175.49904 -39.922707 176.53436 -7.2710814 -116.6638
13300000000 -19.085308 -116.42267 -39.312099 135.29285 -39.554008 135.86618 -7.1655455 -123.83643
13320000000 -21.833921 -125.68295 -38.83532 91.947388 -38.9352 91.88974 -7.1407533 -130.62569
13340000000 -24.122173 -110.67343 -39.59605 46.886276 -40.124947 45.66584 -8.2367125 -138.67978
13360000000 -21.611139 -95.516823 -38.971298 4.2000122 -39.072788 2.9252353 -7.188674 -143.87759
13380000000 -19.582876 -105.69226 -38.903362 -38.593597 -39.470211 -40.020897 -7.4759483 -152.3788
13400000000 -20.005877 -122.74061 -38.739086 -81.471329 -39.134785 -80.189987 -7.5216007 -158.64915
13420000000 -22.088017 -138.8474 -39.182068 -123.24853 -39.425117 -121.9718 -7.9823222 -164.77164
13440000000 -25.896364 -140.20879 -38.892509 -161.79063 -38.975811 -160.10403 -8.3997087 -171.36211
13460000000 -27.152534 -109.33035 -38.601166 155.42599 -39.360989 157.16719 -9.6140394 -172.94615
13480000000 -23.279894 -104.3317 -39.296711 109.17079 -39.711018 111.1838 -9.227025 177.06429
13500000000 -22.002411 -124.97405 -38.994408 70.739891 -39.396473 74.734093 -9.4582663 170.05809
13520000000 -23.288103 -149.47911 -39.194771 28.250114 -39.494335 34.32655 -10.09838 164.67154
13540000000 -27.458632 -173.6243 -39.501053 -10.888153 -39.309231 -1.7120516 -10.515754 161.26143
13560000000 -37.853939 -134.28142 -39.316025 -50.14439 -38.831875 -42.175022 -11.197415 151.38657
13580000000 -27.488642 -90.716934 -39.351246 -88.592964 -38.9496 -81.18972 -11.853145 151.73241
13600000000 -23.728336 -118.32919 -39.835861 -130.04152 -39.251713 -121.73179 -12.143491 143.10541
13620000000 -24.754908 -150.28853 -40.308422 -166.8701 -39.033257 -157.39885 -12.828506 136.11232
13640000000 -29.802509 -177.75661 -40.255562 159.04042 -38.363316 164.56894 -13.274385 130.62177
13660000000 -43.837791 -108.53682 -39.934437 124.61564 -38.048672 128.62651 -13.977927 130.61842
13680000000 -29.183012 -81.470955 -39.655663 87.722191 -38.034195 90.601334 -15.058538 120.19722
13700000000 -25.100845 -107.42653 -39.548218 47.007107 -37.908173 46.888134 -15.303878 115.59329
13720000000 -25.456743 -133.95004 -39.771969 12.248782 -38.381229 9.7416744 -16.269197 104.22746
13740000000 -28.454941 -157.74976 -38.990948 -23.74378 -37.813965 -25.459822 -16.809515 96.651894
13760000000 -35.368328 -157.4025 -38.906265 -63.508308 -37.57233 -64.958939 -17.514273 92.121223
13780000000 -32.982948 -91.916153 -39.329838 -96.432945 -37.934887 -99.187691 -19.010826 87.60981
13800000000 -26.384338 -103.31929 -38.398975 -132.06129 -37.352379 -136.18785 -19.193783 75.897614
13820000000 -24.280012 -127.23256 -37.982952 -169.60228 -37.332676 -175.58607 -19.856375 65.321404
13840000000 -25.48736 -159.52518 -38.287163 152.10539 -37.815582 146.76436 -20.840765 44.769508
13860000000 -30.309753 168.62881 -38.383244 118.8086 -37.54023 112.95947 -20.467556 33.961502
13880000000 -47.166958 148.18848 -38.043415 84.440758 -37.467358 78.116692 -21.491638 19.515989
13900000000 -33.746544 -116.64701 -37.662247 50.1194 -36.898766 44.881294 -21.079042 3.2105539
13920000000 -26.853733 -146.94579 -37.129635 15.20612 -36.512772 7.9007626 -20.035503 -13.437838
13940000000 -24.723812 177.18221 -36.778969 -21.21417 -36.852451 -31.011528 -20.286745 -22.149265
13960000000 -26.006395 144.26349 -35.900677 -55.561279 -36.031498 -62.738689 -18.028214 -34.66449
13980000000 -30.584297 103.64587 -35.565418 -92.994209 -35.573174 -100.28425 -17.308599 -45.987202
14000000000 -37.483986 89.443497 -35.129642 -128.66634 -35.526413 -135.71367 -16.80677 -59.884499
14020000000 -36.920815 160.3134 -34.361137 -163.47502 -34.914898 -171.03596 -15.793004 -69.57589
14040000000 -28.946651 152.60738 -33.649612 158.23605 -34.413376 153.4334 -14.359318 -75.588547
14060000000 -26.081249 121.34727 -33.232693 118.56078 -34.550369 116.14715 -15.160728 -84.175789
14080000000 -26.402321 85.748871 -32.912792 81.392395 -33.64027 81.42485 -13.334071 -91.40889
14100000000 -26.761448 48.085907 -32.415131 44.140064 -33.256714 43.569786 -12.791435 -101.94958
14120000000 -30.112043 24.527073 -31.928738 5.986866 -32.816776 6.8881841 -12.556917 -109.80521
14140000000 -35.265465 47.29863 -31.665516 -33.057922 -32.367203 -31.115238 -11.742167 -118.47961
14160000000 -29.865999 77.939133 -31.428303 -72.553436 -32.599758 -68.506256 -11.56836 -124.44946
14180000000 -24.918388 65.141762 -31.076952 -106.74885 -31.903593 -102.91023 -11.481901 -132.59064
14200000000 -23.048542 31.059658 -30.687124 -146.37465 -30.953089 -142.4469 -10.541026 -140.34007
14220000000 -23.97892 4.7055068 -30.473537 175.7766 -30.767866 178.29169 -10.59593 -148.96399
14240000000 -27.726866 -8.611289 -30.216442 138.70036 -30.675272 141.01318 -10.610112 -157.87541
14260000000 -31.234623 22.93935 -29.704721 100.40182 -29.995188 103.5651 -10.042721 -163.70047
14280000000 -25.573023 41.3983 -29.64842 59.975483 -30.273479 64.238586 -10.462815 -168.0446
14300000000 -22.789715 19.171297 -29.322908 22.318668 -29.769365 26.003971 -9.9159794 -178.58168
14320000000 -22.564243 -4.4654374 -28.988361 -16.220465 -29.268074 -12.015106 -10.02931 172.53174
14340000000 -24.856567 -24.480495 -29.016512 -56.092373 -29.189526 -51.399132 -10.486199 164.94508
14360000000 -28.968498 -13.825232 -29.084103 -94.74337 -29.204124 -89.766907 -10.408126 157.68071
14380000000 -27.857092 11.866472 -29.004751 -131.21407 -28.904463 -126.14869 -10.409373 154.00865
14400000000 -24.538094 13.258316 -28.82279 -170.93848 -28.749512 -165.67873 -10.712786 146.46333
14420000000 -22.67585 -6.4996762 -28.927122 151.6763 -29.009388 156.16791 -11.75393 139.51341
14440000000 -23.387735 -23.768375 -28.772943 112.94684 -28.665804 117.95344 -11.084608 130.02055
14460000000 -26.094709 -34.549095 -28.915545 75.780609 -28.673035 81.608238 -11.733663 122.78107
14480000000 -28.810715 -8.7563295 -28.824051 37.933578 -28.528334 42.973148 -12.093782 116.97258
14500000000 -25.160805 9.8699913 -28.876598 -0.41955683 -28.475592 5.0197124 -12.491972 113.15045
14520000000 -21.916616 -2.8129025 -29.064325 -37.529533 -28.548264 -31.791023 -13.129781 106.67705
14540000000 -21.568727 -21.133762 -28.925276 -73.572906 -28.581959 -68.401947 -14.036423 94.531227
14560000000 -23.597324 -33.674019 -28.966358 -111.81734 -28.277773 -107.58056 -13.410007 89.311485
14580000000 -26.200907 -19.161987 -28.896414 -148.36458 -28.09823 -144.50784 -14.219378 81.548187
14600000000 -23.940208 4.3214951 -28.73012 174.39378 -27.857845 176.93376 -15.043795 75.837502
14620000000 -21.039692 -2.5115132 -28.631845 136.39757 -27.844046 137.99428 -15.144676 69.877632
14640000000 -19.901354 -19.784475 -28.783257 98.520081 -27.885736 100.81157 -16.834845 59.630817
14660000000 -21.030676 -31.89222 -28.683008 61.999054 -27.786961 62.075882 -15.681699 52.579521
14680000000 -22.527735 -31.940168 -28.556555 25.250175 -27.776737 23.967419 -16.7041 42.730885
14700000000 -22.451212 -20.019064 -28.422598 -12.21652 -27.720228 -13.174485 -17.909695 33.324104
14720000000 -20.758472 -15.188557 -28.154449 -49.408798 -27.425091 -51.729588 -17.944872 27.228466
14740000000 -19.259094 -24.519339 -28.104214 -88.420395 -27.597847 -91.666824 -19.027164 18.16185
14760000000 -18.67762 -38.361656 -28.033638 -125.63501 -27.76796 -127.38003 -19.68401 -8.4285946
14780000000 -19.705326 -49.91608 -27.710421 -163.79366 -27.427975 -165.64021 -19.323408 -1.8730823
14800000000 -21.096363 -48.681431 -27.691742 157.52954 -27.47558 155.12274 -19.960381 -24.104946
14820000000 -21.28236 -38.555527 -27.621489 119.8993 -27.552172 118.1207 -20.573698 -32.002449
14840000000 -19.288477 -38.832592 -27.240854 81.482193 -27.26594 80.127914 -20.775145 -38.079475
14860000000 -17.852358 -51.372665 -27.194677 41.068504 -27.26004 40.910915 -21.502224 -57.184803
14880000000 -18.154118 -65.458847 -27.338276 2.9267144 -27.290136 2.8651462 -19.146433 -78.029427
14900000000 -19.951477 -72.43399 -27.105984 -35.637844 -27.030031 -35.702694 -19.746698 -87.278961
14920000000 -21.473562 -63.601753 -26.985636 -75.062828 -26.853399 -74.642181 -19.829294 -117.79221
14940000000 -20.323978 -56.42572 -27.01211 -114.66631 -26.663654 -114.15476 -21.049145 -111.6803
14960000000 -18.994024 -63.129547 -26.968885 -154.11642 -26.72669 -154.7569 -21.353045 -119.29849
14980000000 -19.002619 -75.775223 -27.062222 166.81329 -26.917191 166.61549 -20.129284 -134.75221
15000000000 -20.526232 -86.760864 -26.97583 128.22923 -26.817938 127.9008 -19.169811 -144.99327
15020000000 -22.35096 -84.799515 -26.881275 88.129784 -26.657866 87.770805 -19.911791 -146.13785
15040000000 -23.360758 -76.098213 -26.938217 47.963165 -26.697268 47.185452 -17.046839 176.83211
15060000000 -22.337545 -71.539001 -26.966253 8.4251614 -26.76511 7.5758677 -20.369867 172.29016
15080000000 -21.268696 -78.715065 -27.061316 -31.426743 -26.941042 -32.306534 -21.319494 162.40959
15100000000 -21.679018 -91.344154 -27.167023 -71.305229 -27.146646 -71.660034 -21.381149 155.92102
15120000000 -23.515673 -98.878761 -27.22233 -110.75412 -27.186165 -111.26908 -21.029211 143.09517
15140000000 -25.965893 -86.352608 -27.362377 -151.67964 -27.288378 -152.37103 -26.33016 123.40981
15160000000 -25.018929 -68.41906 -27.642302 168.4865 -27.622313 168.13393 -19.054749 111.70476
15180000000 -22.419022 -71.428284 -27.769953 128.92984 -27.920853 128.90727 -22.734066 85.396454
15200000000 -21.688946 -84.374153 -28.02129 89.485031 -28.137844 90.171539 -23.602156 69.497932
15220000000 -23.467966 -96.500732 -28.45425 50.348541 -28.469095 51.234863 -22.35317 60.520634
15240000000 -25.861462 -86.763298 -28.543726 12.103568 -28.689623 12.935531 -24.040415 40.010551
15260000000 -24.103964 -67.740295 -28.701462 -26.563965 -28.620729 -25.526815 -20.800009 -6.0646501
15280000000 -21.911285 -74.529144 -28.797377 -66.463516 -28.760569 -65.367157 -20.812788 23.091461
15300000000 -21.056866 -87.148407 -29.082428 -104.80382 -29.027641 -103.90183 -20.587408 -10.192999
15320000000 -22.154289 -100.34222 -29.301033 -143.33333 -29.290924 -143.10246 -20.448814 -14.272882
15340000000 -23.947428 -100.37914 -29.498478 178.65182 -29.432707 179.74989 -19.698988 -18.936779
15360000000 -24.318966 -90.244095 -29.526636 141.57828 -29.477388 141.17313 -18.779144 -40.877934
15380000000 -23.092215 -88.871735 -29.361982 102.96103 -29.221781 102.24477 -16.100863 -51.098537
15400000000 -22.127958 -102.18222 -29.421257 62.873859 -29.467186 62.64978 -16.701847 -56.557957
15420000000 -22.310118 -117.29627 -29.812071 24.031143 -29.53499 23.90094 -16.569832 -71.60817
15440000000 -23.4652 -130.74522 -29.736614 -12.651513 -29.84642 -13.851304 -16.654791 -67.685738
15460000000 -25.607597 -131.0164 -29.646744 -51.597942 -29.806549 -52.294956 -16.259445 -73.975327
15480000000 -26.326418 -121.00878 -29.739742 -90.346718 -29.833776 -91.357231 -14.826324 -86.007462
15500000000 -25.144165 -127.42966 -29.742544 -127.67487 -29.910357 -129.22206 -14.098468 -90.976303
15520000000 -24.261095 -141.27597 -29.595938 -166.29005 -29.782423 -166.97644 -13.521645 -89.870293
15540000000 -24.349745 -164.09726 -29.663815 155.09003 -30.348612 153.00146 -14.411577 -114.34358
15560000000 -26.852369 179.57526 -29.610401 116.19429 -30.141857 116.16534 -14.112617 -109.35771
15580000000 -31.238634 -178.78265 -29.517206 78.380852 -30.105829 79.230186 -13.595297 -116.84438
15600000000 -31.645304 -167.1268 -29.249153 39.366405 -29.768089 40.5522 -12.706443 -123.23843
15620000000 -29.58684 -177.29846 -29.347042 -0.42379925 -29.824814 0.66462743 -12.381805 -128.83653
15640000000 -28.162094 151.46333 -29.334438 -37.352837 -29.693163 -34.996689 -12.955697 -125.67756
15660000000 -26.904364 122.73498 -29.048946 -74.712646 -30.022987 -70.32103 -12.668637 -147.99396
15680000000 -28.412125 95.130775 -28.87529 -116.57538 -29.298973 -112.29692 -12.770966 -149.96085
15700000000 -30.990973 76.06295 -29.081287 -155.08876 -29.305426 -151.88715 -12.404587 -156.47719
15720000000 -32.45507 82.990013 -28.912676 167.32431 -29.239506 170.5434 -12.218181 -166.39719
15740000000 -28.990068 82.042854 -28.653959 128.09052 -28.767443 131.26537 -12.391342 -168.97554
15760000000 -24.68244 75.279877 -28.642881 88.02282 -28.623421 91.551277 -10.028947 162.35985
15780000000 -23.062994 60.483929 -28.537973 49.703495 -28.792141 54.490776 -12.706874 171.12665
15800000000 -23.427328 44.575089 -28.660517 10.432806 -28.683426 12.596436 -13.362513 165.4104
15820000000 -25.323299 37.8139 -28.674419 -28.96493 -28.673431 -25.8608 -13.2901 154.41212
15840000000 -25.630322 49.941116 -28.537584 -68.427956 -28.688145 -66.551697 -13.431192 144.9846
15860000000 -22.727057 50.859013 -28.782793 -108.16793 -28.786381 -105.41563 -14.829341 140.53642
15880000000 -20.857561 44.432495 -28.809502 -147.20012 -28.67193 -144.8788 -12.067198 116.82822
15900000000 -20.662605 32.369644 -28.818645 174.45956 -28.753832 176.56122 -16.538626 117.22143
15920000000 -21.741415 25.153004 -28.903101 134.57953 -29.181753 135.11372 -17.342733 110.19289
15940000000 -22.795586 28.373568 -29.170797 96.481171 -29.229969 99.34861 -16.773306 95.430107
15960000000 -21.445675 36.191277 -29.1824 57.476002 -29.231159 58.504436 -17.702818 82.632393
15980000000 -19.402666 36.123844 -29.35507 17.467495 -29.348742 19.47368 -20.328083 59.226524
16000000000 -18.139402 28.093969 -29.765144 -21.196583 -29.780962 -19.128752 -19.932261 42.115475
16020000000 -18.269564 18.252932 -30.014069 -58.16555 -29.89222 -56.362892 -26.835331 29.414452
16040000000 -19.359514 16.816587 -30.087191 -95.700111 -30.95244 -97.262024 -22.505503 17.338612
16060000000 -19.143686 26.197182 -30.054258 -135.58083 -30.52626 -136.21667 -19.446182 6.4845123
16080000000 -16.919504 28.067701 -30.579842 -173.59633 -31.004278 -174.17256 -19.225639 -14.222435
16100000000 -15.621008 22.590105 -30.729712 149.64345 -30.961538 149.27823 -17.551697 -33.079296
16120000000 -15.067991 14.162872 -30.884037 111.02062 -30.974274 110.87214 -16.260626 -41.501682
16140000000 -15.75423 10.857961 -31.350258 72.076927 -32.558704 69.616806 -19.455406 -81.755554
16160000000 -16.024576 12.747148 -31.573919 37.134613 -32.545189 39.60957 -17.43815 -59.302994
16180000000 -14.930865 16.719276 -31.556238 -1.1074433 -31.870333 -1.4543964 -15.661708 -64.557365
16200000000 -13.388158 14.364938 -31.876451 -39.639835 -32.213516 -39.59898 -14.34756 -75.111549
16220000000 -12.508523 7.8661332 -32.17709 -76.710945 -32.453239 -75.925316 -13.8642 -84.132683
16240000000 -12.417319 1.2236148 -32.446186 -113.04884 -32.398037 -112.73196 -12.744597 -82.128983
16260000000 -13.123652 -0.87793821 -32.786446 -150.91701 -33.792732 -147.8389 -14.752128 -101.77236
16280000000 -13.12606 1.6091683 -32.588619 171.63901 -32.836475 175.6185 -13.081231 -97.344856
16300000000 -11.866496 2.2044547 -33.116703 133.79625 -33.123569 133.77542 -12.359169 -103.85886
16320000000 -10.729899 -2.5088096 -33.320724 97.87384 -33.487595 96.402748 -12.113394 -115.14508
16340000000 -10.244416 -10.083969 -33.252934 60.952431 -33.321644 61.245876 -11.443531 -118.06059
16360000000 -10.561152 -15.165404 -33.563938 21.549965 -33.496387 20.835836 -11.218601 -115.86221
16380000000 -11.068412 -13.814065 -34.032566 -14.144878 -34.460842 -11.120708 -11.946647 -129.21471
16400000000 -10.444406 -11.847398 -34.049801 -52.535862 -34.079712 -52.753254 -10.983192 -129.55728
16420000000 -9.3872166 -14.199478 -34.46455 -91.072792 -34.435814 -90.378563 -10.543406 -136.51237
16440000000 -8.7114239 -20.321075 -34.823875 -126.67786 -34.863567 -128.43117 -10.807971 -145.40099
16460000000 -8.6940975 -25.773251 -34.70195 -163.86432 -34.735802 -163.62701 -10.357818 -145.68852
16480000000 -9.0868721 -27.034147 -34.934155 158.18675 -34.72604 155.68277 -10.502672 -147.74052
16500000000 -9.079875 -25.056513 -35.218281 119.50388 -34.883102 117.47542 -10.237382 -154.2963
16520000000 -8.215559 -25.532408 -35.607456 82.982124 -35.657677 78.225761 -9.6467009 -157.49757
16540000000 -7.4541373 -29.685932 -36.069553 45.841465 -36.016472 40.805447 -9.695137 -166.48863
16560000000 -7.16887 -34.552441 -36.337002 10.257998 -36.322948 3.3633575 -9.7830362 -172.60355
16580000000 -7.3174348 -37.082565 -36.137394 -28.301495 -36.332817 -33.754086 -9.6991329 -174.39566
16600000000 -7.4682136 -36.798328 -36.353073 -66.237068 -36.721561 -73.464928 -9.9768047 179.70685
16620000000 -7.049799 -36.694298 -36.547062 -105.35986 -36.937557 -112.43369 -10.047235 172.48878
16640000000 -6.1815867 -38.792362 -36.550114 -143.28105 -37.698757 -147.72565 -8.7893705 173.71771
16660000000 -5.6941123 -43.413364 -37.421917 179.05316 -38.024162 173.07146 -9.2320023 160.88419
16680000000 -5.5856867 -47.193382 -37.469711 142.41074 -38.058193 138.49318 -9.4655495 155.23117
16700000000 -5.6363702 -48.513462 -37.533043 102.61311 -38.229149 100.5532 -10.07617 150.30481
16720000000 -5.313736 -48.300182 -37.82457 63.069878 -38.163002 59.95948 -10.019313 144.61147
16740000000 -4.7391567 -51.738892 -38.377506 25.502821 -39.676434 21.421616 -8.8343544 153.03197
16760000000 -4.0941753 -55.216736 -38.416183 -17.480682 -39.573711 -16.434116 -9.9603872 136.0672
16780000000 -3.8317418 -59.618843 -39.205627 -54.034637 -39.738796 -57.167614 -10.274466 121.77515
16800000000 -3.7495317 -62.300457 -39.553825 -92.807495 -40.208141 -95.448418 -11.07862 113.40303
16820000000 -3.5182302 -63.524292 -40.032257 -132.51605 -40.474995 -134.29832 -11.402452 109.80048
16840000000 -3.0309589 -65.863716 -40.456081 -173.85849 -41.079399 -177.15398 -12.016613 99.654221
16860000000 -2.6758471 -71.112862 -40.82925 147.89246 -42.056976 146.21555 -12.774521 82.892517
16880000000 -2.3359909 -74.520271 -42.05637 104.24792 -42.742123 103.07013 -12.901735 84.294609
16900000000 -2.1590722 -77.870003 -42.847115 68.435555 -43.331642 65.397842 -13.225828 70.417122
16920000000 -2.0191996 -80.543251 -43.155247 29.51613 -43.768936 25.596859 -14.652476 63.140018
16940000000 -1.7283595 -83.356949 -43.903339 -11.708516 -44.645908 -12.402049 -15.179162 58.590061
16960000000 -1.4355358 -87.037552 -45.070335 -51.683857 -45.271893 -53.597118 -15.591126 42.199303
16980000000 -1.1825484 -91.048264 -45.716778 -87.173965 -46.035103 -89.629776 -14.985868 28.585194
