!Keysight Technologies,P9374A,MY57211810,A.19.30.04
!Date: Friday, May 09, 2025 09:12:50
!Correction: S11(Cdelta 2-Port  ) 
!S21(Cdelta 2-Port  ) 
!S12(Cdelta 2-Port  ) 
!S22(Cdelta 2-Port  ) 
!S2P File: Measurements: S11, S21, S12, S22:
# Hz S  dB   R 50
13000000000 -20.778551 -104.37058 -40.584892 3.1428366 -41.266922 5.1433411 -16.152012 -31.070776
13020000000 -24.545244 -80.464859 -40.609161 -39.455376 -40.995182 -37.81464 -15.417193 -36.39373
13040000000 -20.895187 -57.98214 -40.777081 -75.007568 -41.177868 -78.531548 -14.517509 -46.414906
13060000000 -18.428553 -71.383774 -40.536648 -112.39607 -41.422852 -112.91912 -12.812166 -46.372154
13080000000 -18.178961 -90.944824 -39.787506 -151.42409 -40.84584 -151.36488 -12.319219 -55.378387
13100000000 -20.615326 -108.22607 -39.529732 166.9986 -40.371143 169.04858 -11.497198 -60.459694
13120000000 -24.316895 -89.650452 -40.129154 127.64651 -40.850685 129.147 -11.024293 -64.500832
13140000000 -21.735611 -62.089008 -39.23082 88.847946 -39.753769 91.401482 -10.024746 -70.382019
13160000000 -18.300217 -70.924225 -39.407681 45.615738 -39.793839 46.746498 -9.6071177 -78.623947
13180000000 -17.635696 -91.607254 -39.253429 5.7449765 -39.939682 8.1384106 -8.6827955 -81.415306
13200000000 -19.257391 -109.07959 -39.433521 -33.935886 -40.338219 -29.869152 -8.4902668 -89.672165
13220000000 -22.849436 -112.52631 -38.811729 -77.138756 -39.659245 -74.029945 -8.2837658 -100.38535
13240000000 -23.269991 -81.278969 -38.849365 -113.55084 -40.002762 -110.76929 -7.9675956 -98.316444
13260000000 -19.673018 -78.433609 -38.830284 -162.62378 -39.605362 -155.32547 -7.2458177 -110.24148
13280000000 -17.798527 -93.306946 -39.446117 162.12869 -39.912933 169.0435 -7.0965281 -117.16535
13300000000 -18.316666 -116.50569 -39.011635 124.52184 -39.337898 132.45497 -7.0375423 -124.27633
13320000000 -21.085363 -133.00113 -38.363869 82.967979 -38.221638 90.634949 -7.0380211 -131.05522
13340000000 -25.862921 -120.33714 -39.177177 38.611965 -39.476822 42.582973 -8.1527519 -138.98112
13360000000 -22.703018 -87.357903 -38.705849 -0.35520321 -38.877983 4.0840926 -7.1316547 -144.36096
13380000000 -19.254011 -97.042282 -38.161282 -41.096138 -38.346077 -34.931438 -7.4440889 -152.84938
13400000000 -18.502043 -120.57434 -38.061279 -85.063713 -37.739319 -78.568657 -7.5158114 -158.90898
13420000000 -20.586296 -147.13641 -38.592739 -124.85933 -38.180382 -118.55822 -8.0616274 -164.98119
13440000000 -26.265289 -161.99358 -38.137897 -160.22879 -37.662708 -155.73415 -8.513586 -171.53201
13460000000 -30.074837 -88.33799 -37.892902 156.98637 -37.979359 162.27013 -9.7349606 -173.10251
13480000000 -22.373611 -93.871399 -38.600777 113.82165 -37.866261 115.85477 -9.4063425 177.31381
13500000000 -20.618196 -121.25394 -38.408562 77.899139 -37.964222 79.050781 -9.6658077 170.38341
13520000000 -21.336012 -152.60567 -37.96867 37.861607 -37.764545 39.404335 -10.353958 165.32219
13540000000 -26.030651 170.46121 -37.871529 -1.4899007 -37.452309 1.1073041 -10.835517 161.98341
13560000000 -60.96648 -9.4056177 -38.02195 -41.591614 -37.387093 -42.251984 -11.60672 152.14288
13580000000 -26.184103 -73.746132 -37.735664 -76.722214 -37.713421 -77.726685 -12.297627 152.7106
13600000000 -22.201712 -111.40833 -37.959164 -117.9446 -37.701431 -119.20083 -12.603965 144.45674
13620000000 -23.093798 -149.46902 -37.955585 -154.71498 -37.927361 -156.78952 -13.374519 137.79294
13640000000 -27.184261 169.6268 -37.787979 166.76021 -37.883636 166.81734 -13.945911 132.28151
13660000000 -39.910065 66.850716 -37.819447 131.32733 -37.619339 131.20943 -14.69358 132.75926
13680000000 -27.593433 -57.674904 -37.332348 93.471397 -37.834843 93.862534 -15.883226 121.73983
13700000000 -23.206333 -99.873611 -37.497463 52.745899 -37.690598 51.108288 -16.233839 117.91912
13720000000 -23.328985 -137.73964 -37.502796 17.827726 -38.044224 17.122425 -17.296988 106.19389
13740000000 -26.710085 -175.67462 -37.304867 -17.531544 -37.663925 -16.237211 -17.923355 98.290848
13760000000 -38.181274 138.41589 -37.092209 -55.845284 -37.236153 -56.160881 -18.837202 93.589531
13780000000 -30.600756 -62.506039 -37.138016 -88.836357 -37.402294 -90.321068 -20.638863 88.375671
13800000000 -24.378637 -100.47994 -36.290394 -124.61848 -36.817013 -125.1145 -20.837484 75.600769
13820000000 -22.912432 -132.03018 -35.622063 -164.35286 -36.516476 -164.50645 -21.539511 64.528252
13840000000 -24.93618 -169.98238 -36.072037 157.65585 -37.084778 158.52342 -22.580269 39.969563
13860000000 -31.506248 157.3165 -35.870365 121.44787 -36.417755 126.10118 -22.084318 26.483925
13880000000 -80.580849 129.93494 -35.683826 87.726715 -35.812016 90.135139 -23.274809 8.3354225
13900000000 -31.914764 -107.77303 -34.958828 52.004269 -35.233566 53.655441 -22.409985 -7.7535915
13920000000 -25.938936 -146.41861 -34.683136 11.194267 -35.047356 15.10154 -20.767885 -23.208593
13940000000 -24.48904 179.90143 -34.717106 -26.251358 -35.305134 -21.968651 -21.008121 -31.72056
13960000000 -25.579367 145.85474 -34.224674 -59.30434 -34.152534 -55.181976 -18.463221 -42.517525
13980000000 -29.242838 100.95937 -33.803219 -97.80394 -33.773129 -94.020813 -17.560474 -53.182526
14000000000 -35.774101 66.880486 -33.863445 -134.45964 -33.586212 -131.32254 -16.767965 -66.15892
14020000000 -43.736065 -164.01149 -33.549603 -168.98111 -33.22411 -166.71909 -15.756541 -74.846779
14040000000 -28.529934 169.08524 -32.83979 154.78688 -32.469112 157.75224 -14.358358 -79.859383
14060000000 -24.825956 128.64029 -32.639359 114.10078 -32.65699 116.88578 -15.154258 -87.693802
14080000000 -24.284641 89.06073 -32.492203 79.648254 -32.040649 81.375252 -13.264458 -94.180138
14100000000 -24.728329 42.628307 -31.9013 43.436291 -31.674402 44.540005 -12.661971 -104.43475
14120000000 -27.969297 5.9176688 -31.474136 5.0550852 -31.175011 6.3546028 -12.430704 -111.65155
14140000000 -46.625698 -20.632175 -31.403738 -33.319378 -30.973562 -32.815674 -11.61313 -119.47618
14160000000 -29.224991 101.7302 -31.268913 -71.141937 -31.55854 -69.594566 -11.425668 -125.37141
14180000000 -23.302103 71.817223 -30.622126 -104.11544 -30.61747 -104.49294 -11.351515 -133.24809
14200000000 -21.203724 31.772795 -29.936487 -144.48784 -29.815233 -144.82431 -10.377099 -140.45592
14220000000 -22.609802 -2.9513154 -29.829006 176.5658 -29.878868 176.752 -10.388839 -148.98242
14240000000 -27.74478 -29.299839 -29.71982 139.88306 -29.721399 139.9064 -10.435622 -157.67232
14260000000 -38.079323 49.505745 -29.164331 103.23121 -29.112553 103.15136 -9.8934193 -163.22437
14280000000 -24.595446 55.518921 -29.031183 61.92305 -29.382366 63.391602 -10.311613 -167.83722
14300000000 -21.357805 23.671408 -28.805786 24.822714 -28.882462 24.897421 -9.8141994 -178.32806
14320000000 -20.693798 -8.2952414 -28.259731 -13.003381 -28.353657 -12.95607 -9.9308529 173.11719
14340000000 -23.495876 -39.842594 -28.265154 -54.015099 -28.289621 -52.925411 -10.379743 165.43793
14360000000 -33.382351 -40.974621 -28.319851 -92.625954 -28.370245 -91.965401 -10.398088 158.33029
14380000000 -28.256315 40.457001 -28.371492 -129.46306 -28.269451 -128.40068 -10.448318 154.63309
14400000000 -22.125095 21.504494 -28.020401 -167.83543 -28.077961 -166.96817 -10.775736 146.90419
14420000000 -20.502893 -10.89677 -27.947062 153.82054 -28.180178 154.64992 -11.931381 140.08363
14440000000 -22.235231 -38.16238 -27.949295 114.49889 -27.944431 115.37295 -11.285101 131.00885
14460000000 -28.544565 -54.595966 -27.948441 77.6884 -27.982824 79.739403 -11.982371 123.66085
14480000000 -30.438803 23.039911 -27.770964 38.978489 -27.777729 40.125919 -12.522144 118.23844
14500000000 -22.899715 18.854715 -27.97415 0.35532185 -27.981243 1.6881186 -12.938739 114.72822
14520000000 -20.62122 -7.7739773 -27.999508 -36.271587 -28.025482 -34.236118 -13.674157 108.00643
14540000000 -21.397907 -29.340372 -27.794712 -73.787315 -28.008568 -71.725388 -14.771981 96.001717
14560000000 -24.771994 -42.409897 -27.816629 -113.0483 -27.782541 -111.80955 -14.088943 91.340027
14580000000 -27.750534 -7.0290375 -27.892839 -150.91518 -27.799633 -149.43965 -15.06092 83.657181
14600000000 -23.04229 6.9014454 -27.83477 171.96375 -27.863741 173.0519 -16.072781 77.862793
14620000000 -20.484505 -3.7208207 -27.773365 134.10364 -27.794048 135.84946 -16.231745 72.168991
14640000000 -19.53756 -23.221855 -27.798241 95.47271 -27.721378 97.441582 -18.122217 61.285881
14660000000 -21.018255 -34.411934 -27.866829 57.671741 -27.918318 59.468224 -16.900389 53.8517
14680000000 -22.781485 -34.101883 -28.024546 20.913666 -27.769554 22.520405 -18.2061 44.140236
14700000000 -22.80584 -18.046486 -27.905203 -15.243618 -27.795355 -15.100925 -19.698803 34.224709
14720000000 -20.531334 -13.949965 -27.656303 -53.881741 -27.57045 -53.039501 -19.722523 27.453268
14740000000 -18.917768 -23.326452 -27.990316 -92.326286 -27.864677 -92.153725 -20.963741 17.460085
14760000000 -18.200478 -38.183792 -27.93869 -127.6935 -27.909708 -127.02808 -21.48008 -14.579353
14780000000 -19.316648 -51.210583 -27.443335 -165.3297 -27.418766 -165.40385 -21.215006 -4.9653902
14800000000 -21.447052 -52.665672 -27.545717 154.83522 -27.473095 154.90779 -21.763802 -31.494181
14820000000 -21.998394 -35.787563 -27.565439 118.29434 -27.683079 118.51809 -22.490149 -40.918312
14840000000 -19.31473 -33.122261 -27.280361 80.144417 -27.390024 80.80114 -22.434345 -47.203548
14860000000 -17.479897 -47.742355 -27.1325 41.174099 -27.251989 42.268475 -22.686451 -68.987312
14880000000 -17.373205 -65.720596 -27.174526 3.2809739 -27.223743 3.1677051 -19.670631 -87.471863
14900000000 -19.451916 -80.869774 -26.992483 -35.139801 -27.115166 -34.807735 -20.281988 -97.518776
14920000000 -22.998068 -69.028763 -26.785769 -73.964539 -26.902899 -72.863121 -19.706636 -127.40129
14940000000 -21.29817 -47.786766 -26.634872 -113.96989 -26.608112 -113.13527 -21.034794 -122.63636
14960000000 -18.274414 -55.215191 -26.701588 -154.49838 -26.776882 -153.45694 -21.2173 -129.83952
14980000000 -17.45405 -74.873611 -26.989273 167.8595 -26.991215 169.00681 -19.919579 -142.46484
15000000000 -19.2862 -96.406593 -26.515278 129.67688 -26.54488 130.10767 -18.943918 -150.37187
15020000000 -23.762463 -101.65099 -26.348234 87.975304 -26.434959 89.057121 -19.659527 -151.77094
15040000000 -26.304609 -58.971062 -26.648115 47.097313 -26.513971 48.53833 -16.549002 174.35378
15060000000 -20.805977 -56.940842 -26.693718 8.3830557 -26.567261 9.0965385 -19.696949 170.12828
15080000000 -19.016521 -78.865753 -26.813297 -31.83441 -26.720881 -31.12369 -20.600512 162.35944
15100000000 -20.023302 -102.8988 -27.045286 -71.750145 -26.978188 -71.544281 -20.638409 157.05383
15120000000 -24.81386 -118.18758 -27.03017 -109.70556 -27.080702 -109.76977 -20.372465 144.77831
15140000000 -29.77788 -61.510288 -26.937178 -150.64749 -26.920319 -150.20117 -25.404137 129.43895
15160000000 -22.881298 -50.21693 -27.184208 167.70822 -27.093225 168.13835 -18.708218 116.11263
15180000000 -20.149632 -72.794601 -27.617878 127.88519 -27.699398 127.94786 -22.662569 94.559105
15200000000 -20.855131 -95.804977 -27.887091 89.317894 -27.896404 89.923767 -24.025887 79.901405
15220000000 -24.806072 -109.63281 -28.076094 50.30695 -28.202061 50.356163 -22.85354 68.470329
15240000000 -28.590914 -77.130257 -28.256037 11.691172 -28.509789 12.320023 -25.084433 48.726639
15260000000 -23.46369 -55.183464 -28.198275 -27.370584 -28.268299 -26.409168 -22.024143 -6.1394773
15280000000 -20.803036 -72.7034 -28.403231 -69.178444 -28.486616 -67.854561 -21.97662 28.253078
15300000000 -20.157824 -91.638107 -28.876499 -107.52518 -28.959307 -106.63884 -21.967806 -10.935386
15320000000 -22.085175 -109.13311 -29.079973 -145.26366 -29.242319 -145.21767 -21.815754 -16.276424
15340000000 -24.953253 -106.08131 -29.258717 175.38071 -29.534107 176.63159 -21.018055 -22.192122
15360000000 -25.446793 -86.376656 -29.524244 137.51314 -29.824089 138.69559 -19.867064 -45.700245
15380000000 -22.756933 -80.391121 -29.604139 99.049896 -29.597073 101.03329 -16.854313 -55.122345
15400000000 -20.976067 -98.643883 -29.677261 60.559101 -29.66247 61.61813 -17.578449 -61.954762
15420000000 -20.945557 -118.2051 -29.849291 21.086975 -29.876158 22.417824 -17.250908 -78.267853
15440000000 -22.594372 -138.35098 -30.072477 -16.583717 -30.306625 -14.97683 -17.427063 -73.900162
15460000000 -26.691586 -142.98492 -30.103313 -53.967537 -30.142769 -52.02496 -16.947268 -80.068909
15480000000 -29.12491 -110.4784 -30.150948 -92.782875 -30.168446 -91.297096 -15.324018 -91.860168
15500000000 -24.82272 -109.1374 -30.249836 -129.77866 -30.180599 -128.58873 -14.626576 -96.347557
15520000000 -22.381441 -131.57903 -30.09008 -167.04974 -29.921743 -166.07224 -14.137383 -94.948112
15540000000 -22.152611 -165.49567 -29.971703 153.21841 -30.482904 153.1037 -14.709406 -120.4617
15560000000 -24.9286 163.41385 -30.21892 113.1243 -30.400734 115.48234 -14.496957 -115.4577
15580000000 -32.753033 135.32938 -30.30822 77.969414 -30.380985 79.644951 -13.931285 -122.55503
15600000000 -38.934696 -104.58035 -29.855871 40.163235 -29.806215 41.092949 -13.038987 -128.01443
15620000000 -28.225008 -145.18465 -29.723568 -0.86569327 -29.841284 -0.28261745 -12.665202 -133.51164
15640000000 -25.300154 168.2047 -29.982243 -37.547855 -29.930346 -36.452106 -13.345247 -130.47441
15660000000 -23.312511 127.17213 -29.444075 -73.590515 -30.085712 -71.149895 -12.732886 -152.33679
15680000000 -24.439405 84.739922 -29.280792 -116.87339 -29.487274 -114.49703 -12.828126 -154.26628
15700000000 -28.801794 42.35907 -29.591248 -155.44389 -29.713203 -153.7025 -12.403572 -160.2256
15720000000 -40.623997 23.884403 -29.463902 168.78961 -29.681892 170.2137 -12.170204 -169.63963
15740000000 -31.750137 121.52499 -28.890182 128.8421 -29.033323 130.78207 -12.32817 -172.5883
15760000000 -23.381866 93.516991 -28.930044 88.08754 -29.040579 90.558823 -9.7766314 160.08249
15780000000 -21.066507 64.08905 -28.879797 49.691109 -29.169025 54.020729 -12.420828 168.41081
15800000000 -21.664288 36.421127 -28.967073 10.287663 -28.948736 12.611567 -13.025959 163.05066
15820000000 -25.249317 16.208256 -28.939053 -29.303249 -28.945715 -26.860388 -12.857819 152.57047
15840000000 -30.088522 45.008728 -28.854918 -69.313538 -29.072027 -67.849564 -12.983505 143.47693
15860000000 -23.363312 63.747147 -29.068024 -108.16269 -29.126505 -106.02038 -14.302896 138.96346
15880000000 -19.709055 51.002281 -29.024101 -147.66177 -28.976604 -145.17088 -11.59304 117.15474
15900000000 -18.905054 31.090458 -28.98686 172.705 -29.019064 174.73262 -15.698086 118.47778
15920000000 -20.808088 12.765488 -29.333048 132.26814 -29.617403 132.66594 -16.424112 112.4035
15940000000 -24.454689 19.77231 -29.624781 95.737549 -29.870047 97.667252 -16.011272 98.868996
15960000000 -22.450613 44.151157 -29.48826 56.584358 -29.819468 58.536682 -16.94989 88.064911
15980000000 -18.692497 43.63126 -29.699928 15.891945 -29.768839 18.694393 -19.612926 69.995209
16000000000 -17.214724 28.074884 -30.164278 -22.554689 -30.371353 -20.451982 -19.678215 54.842342
16020000000 -17.783901 15.194091 -30.315306 -59.16441 -30.534613 -56.798294 -26.319759 61.006866
16040000000 -19.447533 11.905588 -30.336813 -97.813942 -31.266413 -95.138863 -22.989298 37.549274
16060000000 -19.948462 26.200047 -30.535877 -137.8755 -30.928886 -134.57732 -20.28517 22.766769
16080000000 -17.306999 31.97674 -31.121723 -175.92252 -31.463213 -172.5392 -20.734905 0.6103453
16100000000 -15.364439 26.795721 -31.237322 147.70569 -31.525019 151.44252 -19.438747 -22.013727
16120000000 -14.539538 15.090054 -31.419502 109.25716 -31.536364 114.3911 -18.189112 -32.428902
16140000000 -15.417112 7.4262862 -31.724342 70.643501 -32.751492 73.569489 -22.854561 -82.719551
16160000000 -16.484283 8.3374739 -31.951891 33.109352 -32.697605 41.76371 -19.954893 -52.780834
16180000000 -15.681158 17.818937 -32.377514 -4.8434319 -32.345528 1.0429014 -17.793602 -57.48954
16200000000 -13.524085 18.136126 -32.662495 -42.097935 -32.537075 -36.241112 -16.336515 -70.386139
16220000000 -12.047479 9.5781136 -33.116646 -79.506798 -32.80286 -74.058876 -15.79626 -80.253975
16240000000 -11.906675 -0.99365741 -33.590027 -115.14705 -32.913525 -108.92463 -14.43892 -77.218102
16260000000 -13.072248 -5.9183259 -33.779831 -151.26012 -33.914726 -143.34232 -16.740217 -100.76701
16280000000 -13.821662 0.77925169 -33.527557 170.95729 -33.031673 178.17316 -14.961564 -94.691185
16300000000 -12.016801 5.4212456 -34.207561 135.30452 -33.572987 137.18282 -13.994843 -100.34029
16320000000 -10.392533 -0.2959615 -34.297955 100.45444 -33.687065 101.56509 -13.711237 -112.49303
16340000000 -9.7790451 -10.476857 -34.338772 64.154373 -33.417843 65.810341 -12.916185 -115.80578
16360000000 -10.415472 -17.959885 -34.432186 26.909582 -33.5219 24.492985 -12.553463 -112.35848
16380000000 -11.47503 -15.767376 -34.568172 -9.2483482 -34.414894 -7.4110899 -13.331783 -127.95974
16400000000 -10.776045 -9.43326 -34.752541 -47.656033 -34.189846 -49.249775 -12.229083 -126.84944
16420000000 -9.219553 -11.677754 -34.866703 -84.87571 -34.564167 -87.056183 -11.644502 -134.26552
16440000000 -8.3491449 -19.804512 -35.210575 -120.27488 -35.089737 -124.98448 -11.85393 -143.4575
16460000000 -8.514266 -27.616436 -35.01273 -155.66037 -34.999138 -157.61046 -11.364483 -143.58752
16480000000 -9.3101931 -29.116745 -34.66251 166.27034 -34.470406 161.66983 -11.453657 -145.487
16500000000 -9.5264149 -24.397924 -34.706902 124.07628 -34.727985 120.15722 -11.09094 -152.56538
16520000000 -8.2381039 -23.07913 -35.423405 86.582542 -36.052769 81.876671 -10.369331 -155.90297
16540000000 -7.182466 -29.054287 -35.90797 51.709862 -36.336178 48.223335 -10.380721 -165.21555
16560000000 -6.94171 -35.879341 -35.569447 15.567842 -36.074451 11.490642 -10.425671 -171.66841
16580000000 -7.4231467 -39.747284 -35.455853 -25.524277 -35.997639 -27.081249 -10.312445 -173.48651
16600000000 -7.8190641 -36.901569 -35.879345 -63.621456 -36.358379 -66.048111 -10.563218 -179.55595
16620000000 -7.1101246 -34.962849 -35.761017 -104.16023 -36.210289 -106.89086 -10.570002 172.82449
16640000000 -5.9559021 -37.957386 -36.011921 -143.77841 -37.245831 -144.78741 -9.1759825 173.92485
16660000000 -5.4730673 -44.349281 -37.050571 178.16615 -37.885815 178.71916 -9.5983582 160.85312
16680000000 -5.5835233 -48.502422 -37.028481 142.10809 -37.654217 144.80461 -9.8336306 154.91933
16700000000 -5.8063331 -49.061657 -37.062862 102.12943 -37.635506 105.62207 -10.407896 149.52959
16720000000 -5.4126911 -47.257153 -37.277893 59.956318 -37.689079 63.969776 -10.274487 143.87535
16740000000 -4.6499028 -50.860924 -38.531452 20.663002 -39.568501 24.74542 -9.0232925 152.51892
16760000000 -3.9588625 -55.06353 -38.858654 -18.598434 -39.462223 -10.315931 -10.149381 135.0909
16780000000 -3.7626164 -60.315624 -39.455132 -53.10347 -39.453297 -50.026031 -10.369816 120.78996
16800000000 -3.8160441 -63.019157 -39.7085 -95.787468 -39.698559 -90.730202 -11.146401 112.1552
16820000000 -3.6575 -63.44355 -40.775028 -132.67494 -40.525791 -127.86768 -11.481834 108.23151
16840000000 -3.080549 -65.052368 -40.8036 -169.50931 -40.544327 -168.74304 -11.952307 98.413872
16860000000 -2.6027198 -70.600151 -41.137329 148.78247 -41.885803 151.28035 -12.585591 81.939354
16880000000 -2.2220473 -74.913254 -43.066116 109.02933 -42.707737 112.42322 -12.763213 83.305061
16900000000 -2.1651635 -78.783409 -43.06348 79.674538 -42.781284 78.280258 -13.005832 69.949921
16920000000 -2.1398811 -80.884209 -42.843231 35.35223 -43.034664 34.533112 -14.302645 62.615028
16940000000 -1.7982426 -82.82119 -43.95359 -6.3617082 -43.921913 -3.8816674 -14.822944 58.552814
16960000000 -1.3693635 -86.589531 -44.917809 -42.395714 -44.797852 -46.255375 -15.169903 43.256561
16980000000 -1.1020279 -91.276176 -45.067104 -82.418137 -45.834187 -79.476967 -14.552845 30.805368
