!Keysight Technologies,P9374A,MY57211810,A.19.30.04
!Date: Friday, May 09, 2025 09:21:03
!Correction: S11(Cdelta 2-Port  ) 
!S21(Cdelta 2-Port  ) 
!S12(Cdelta 2-Port  ) 
!S22(Cdelta 2-Port  ) 
!S2P File: Measurements: S11, S21, S12, S22:
# Hz S  dB   R 50
13000000000 -19.740639 -84.630493 -45.655132 92.148582 -49.469643 86.573845 -16.492289 -62.316196
13020000000 -20.494099 -84.437943 -46.667938 56.189686 -49.656822 63.686398 -15.916823 -63.095978
13040000000 -20.820183 -78.639664 -46.900593 28.77566 -50.121387 42.995293 -14.945244 -68.78537
13060000000 -20.450657 -80.4832 -46.992039 -2.2141457 -49.966553 19.646009 -13.425856 -63.814808
13080000000 -20.675543 -83.196251 -47.052311 -36.019676 -47.699913 -12.096508 -12.811985 -70.496742
13100000000 -21.072765 -85.603241 -47.535507 -72.712524 -47.915344 -48.95961 -11.972433 -72.700203
13120000000 -20.713364 -78.982071 -49.314983 -92.845215 -47.589249 -74.224503 -11.449426 -73.705963
13140000000 -19.997892 -81.046204 -49.402245 -121.64691 -47.385323 -105.28023 -10.45131 -78.053329
13160000000 -19.761091 -87.583961 -48.948456 -139.89417 -45.449497 -132.95438 -9.9316902 -84.543137
13180000000 -20.80876 -93.472366 -47.272209 -173.45934 -44.13879 -169.50761 -8.9549255 -85.912338
13200000000 -21.398336 -89.69928 -46.533863 163.78519 -43.596855 154.31024 -8.6360197 -93.029297
13220000000 -20.298212 -88.274704 -44.749065 133.13165 -43.188316 120.66553 -8.33253 -102.38408
13240000000 -19.430956 -95.017204 -42.94862 104.397 -42.193413 89.311264 -7.924675 -99.32029
13260000000 -19.893099 -103.66661 -42.192116 63.602184 -41.802132 51.256832 -7.149302 -110.74223
13280000000 -21.320112 -104.4729 -40.855251 27.581362 -41.18708 17.67976 -6.9267187 -117.01328
13300000000 -21.381702 -99.538055 -39.638855 -10.909786 -40.291122 -17.775038 -6.7755899 -123.63377
13320000000 -20.337055 -104.34116 -39.116932 -48.827251 -39.621441 -54.141125 -6.7019863 -129.92059
13340000000 -20.353462 -115.88767 -38.944756 -85.342369 -40.674564 -92.019753 -7.7830787 -137.6597
13360000000 -21.498075 -118.2904 -37.49144 -127.21523 -38.743763 -126.5299 -6.738739 -142.39024
13380000000 -22.369551 -113.23241 -37.289959 -165.75655 -38.62944 -164.98418 -7.0369153 -150.65128
13400000000 -21.582767 -111.29339 -37.082176 157.28543 -37.984848 159.67537 -7.1188445 -156.55728
13420000000 -21.724945 -123.36716 -36.648716 117.53601 -37.969009 120.6167 -7.5989437 -161.99921
13440000000 -22.90584 -131.48589 -36.75584 78.348175 -37.685642 85.545227 -8.0704203 -168.23524
13460000000 -25.668468 -125.40599 -37.176411 47.0709 -37.967022 54.449795 -9.3568068 -169.16331
13480000000 -24.308456 -117.30109 -36.667557 4.8960657 -37.055092 12.281739 -9.0061836 -178.32373
13500000000 -24.248135 -127.46981 -36.713093 -31.732748 -36.866402 -24.217247 -9.3245773 175.36079
13520000000 -25.293827 -141.59683 -36.649197 -68.005424 -36.531033 -61.079662 -9.9761276 170.50717
13540000000 -29.151625 -146.50508 -36.885948 -106.28705 -36.43808 -98.068573 -10.447742 167.98354
13560000000 -29.07811 -125.55573 -36.856415 -140.68181 -35.985664 -134.28235 -11.26573 159.82597
13580000000 -26.75687 -124.00179 -36.489506 -174.92607 -35.944725 -170.66833 -11.944288 161.16342
13600000000 -26.680899 -139.77109 -36.703812 144.65228 -35.766548 149.3707 -12.282779 153.36891
13620000000 -30.750698 -147.68967 -37.22998 110.60876 -35.875576 110.97333 -13.09304 147.66219
13640000000 -33.294945 -119.25539 -36.534328 77.540756 -35.632793 74.220169 -13.549957 143.79854
13660000000 -28.652552 -105.25758 -36.818241 40.940971 -35.752293 37.947708 -14.124641 144.86452
13680000000 -27.231539 -127.85403 -36.793545 6.8997359 -36.266308 2.4621062 -15.664668 136.11937
13700000000 -29.190273 -138.94562 -36.433914 -31.058567 -35.841679 -37.557934 -15.752954 133.47621
13720000000 -33.505978 -129.64864 -36.236 -65.657349 -36.219574 -75.655968 -17.01366 124.23929
13740000000 -30.246555 -102.4638 -36.117256 -102.60134 -36.39872 -109.01334 -17.981737 117.37257
13760000000 -27.17683 -118.6196 -35.850471 -136.95691 -36.413254 -146.02837 -18.668085 115.96011
13780000000 -26.980085 -135.23912 -35.433155 -177.17422 -36.875549 177.67313 -20.306114 116.26834
13800000000 -29.071709 -148.35971 -35.814407 145.82014 -36.655212 142.70822 -21.096333 104.84474
13820000000 -30.436142 -121.14022 -35.363544 111.24031 -37.208298 107.60979 -22.524605 95.64595
13840000000 -29.400358 -122.92014 -35.433167 69.717415 -37.537178 71.760437 -25.497114 73.367096
13860000000 -28.174582 -138.33539 -35.612438 33.371555 -36.964584 38.714516 -25.865932 57.398335
13880000000 -30.463768 -163.68253 -35.721844 -2.7519293 -36.922585 3.0393548 -29.005175 40.028919
13900000000 -31.309975 178.93962 -35.679661 -41.895432 -36.588501 -32.908943 -28.973928 5.4318018
13920000000 -31.334002 -174.50891 -36.23035 -79.438644 -36.569977 -68.591698 -26.117062 -22.763315
13940000000 -29.297663 179.38092 -35.996574 -115.93819 -36.722229 -106.96375 -25.683956 -30.999264
13960000000 -29.602272 165.09471 -36.325638 -153.75447 -36.150814 -142.07266 -21.631519 -46.962681
13980000000 -32.664066 143.19711 -37.244308 168.25255 -35.954685 179.89813 -20.346403 -57.542187
14000000000 -32.862823 136.49664 -37.082077 134.51454 -35.868568 140.02231 -19.116383 -71.686371
14020000000 -30.525219 131.58682 -36.887032 93.103432 -35.807842 98.406891 -17.655159 -80.157707
14040000000 -28.261608 117.77223 -38.204884 54.648777 -36.345631 59.989483 -15.779202 -83.734711
14060000000 -29.030256 96.273605 -38.69603 21.845806 -37.238651 21.144394 -16.455658 -90.990532
14080000000 -32.187111 74.675407 -38.714371 -15.4117 -37.145248 -19.080965 -14.296015 -96.437859
14100000000 -34.210419 76.466698 -39.388184 -52.378918 -38.129257 -57.298485 -13.492012 -106.40237
14120000000 -29.469662 79.922318 -39.651016 -89.386414 -38.424393 -95.727684 -13.120858 -113.41701
14140000000 -26.491993 60.329472 -40.532707 -127.94733 -39.66647 -137.73489 -12.172467 -120.95187
14160000000 -26.038675 33.746708 -41.491459 -163.00304 -41.258621 -171.99625 -11.822218 -126.03431
14180000000 -28.571781 26.445992 -41.960384 160.22427 -41.894859 143.58336 -11.585678 -133.57581
14200000000 -28.856546 28.255743 -43.092121 121.53709 -44.210896 112.43938 -10.535624 -140.72238
14220000000 -26.599476 36.77021 -44.975502 86.826599 -45.43644 71.402466 -10.550147 -149.09912
14240000000 -24.871988 23.466579 -46.474117 52.481155 -48.738144 35.431343 -10.466268 -157.56114
14260000000 -24.480082 9.4252758 -48.88287 20.585148 -52.513554 8.7165031 -9.8455629 -163.11014
14280000000 -26.515934 4.4207091 -51.728806 6.4477143 -55.327465 5.1708913 -10.231918 -167.39578
14300000000 -26.673559 8.3411036 -52.757011 -12.591248 -59.135448 -10.226003 -9.6841326 -177.65939
14320000000 -25.201063 8.6250687 -51.757984 -25.095984 -53.405853 12.104952 -9.783247 174.08658
14340000000 -24.624289 -2.4284241 -51.00647 -39.417862 -49.667885 -18.246792 -10.226637 166.35226
14360000000 -25.168421 -5.0222082 -48.418728 -66.956062 -48.284431 -59.423153 -10.238516 159.12004
14380000000 -25.602943 -5.0716763 -46.204769 -99.044968 -45.204933 -83.349297 -10.255051 156.02928
14400000000 -25.541065 -1.6486232 -46.011665 -132.81857 -44.547424 -125.78022 -10.556195 148.71828
14420000000 -24.75518 -11.823585 -44.591259 -164.65828 -43.654629 -155.9371 -11.725368 142.2636
14440000000 -25.8386 -14.034872 -43.801598 159.90495 -41.8755 164.05885 -11.174376 132.78185
14460000000 -26.050676 -10.914757 -42.833309 122.09764 -41.36594 126.24822 -11.914964 126.2921
14480000000 -24.387072 -6.7608242 -42.629276 85.714737 -40.846874 87.658035 -12.327751 121.01907
14500000000 -24.343124 -11.198087 -41.992603 52.935814 -40.359524 50.865685 -12.870033 117.53255
14520000000 -23.913937 -18.942467 -41.161644 20.696714 -39.681259 15.566545 -13.647678 112.38707
14540000000 -25.206587 -15.192585 -40.218643 -19.003857 -39.686691 -25.041254 -14.81534 101.29814
14560000000 -24.049559 -9.4578676 -40.175613 -55.821434 -39.696152 -61.167862 -14.230491 95.391479
14580000000 -22.526445 -10.812915 -39.831345 -89.901909 -39.176689 -95.549034 -15.276285 88.7612
14600000000 -21.973843 -17.765806 -39.283348 -125.09892 -39.331566 -135.29207 -16.199577 84.593147
14620000000 -22.90535 -18.024542 -38.921539 -164.85689 -39.305492 -168.42677 -16.456593 79.158127
14640000000 -22.235338 -17.19594 -38.577339 161.91086 -38.568752 155.58437 -18.727131 69.99765
14660000000 -21.617121 -15.877954 -38.200798 122.07017 -39.213573 115.24466 -17.526239 61.485397
14680000000 -20.435961 -21.605661 -38.556732 86.727821 -39.592136 84.844124 -18.957739 52.800636
14700000000 -20.44804 -27.783741 -38.264725 53.000507 -38.971081 49.889778 -20.677975 43.387371
14720000000 -21.164221 -29.091307 -37.400665 13.043837 -38.521511 10.701516 -20.827814 36.878578
14740000000 -20.81777 -27.786535 -38.080139 -23.418781 -39.41695 -23.220877 -22.582462 28.718569
14760000000 -19.830343 -31.537876 -38.094196 -56.903316 -39.127899 -53.041691 -24.112389 -10.943846
14780000000 -19.2279 -38.229881 -37.786152 -94.487564 -38.688183 -89.082176 -23.227135 1.8062767
14800000000 -19.58441 -44.948982 -37.982716 -130.53055 -38.328827 -124.05759 -24.115347 -31.636023
14820000000 -20.024414 -46.48975 -38.091923 -164.34329 -38.371738 -160.65712 -25.155519 -40.425068
14840000000 -20.236851 -47.325871 -37.95779 159.87077 -38.392338 166.12466 -24.87184 -46.989891
14860000000 -19.196857 -51.242893 -38.292767 124.00483 -38.516125 130.38974 -24.888762 -76.274376
14880000000 -19.147793 -58.820457 -37.520576 90.691673 -37.913239 98.30426 -20.773396 -95.023041
14900000000 -19.205868 -63.560047 -37.953156 56.995316 -37.682705 63.208797 -21.128515 -105.33515
14920000000 -19.822313 -65.38324 -37.773685 22.73197 -37.345379 25.834486 -19.857319 -135.04774
14940000000 -19.948 -66.122574 -37.146328 -11.220142 -36.983429 -8.9008865 -21.478182 -129.72966
14960000000 -19.826447 -69.764267 -37.396835 -49.356777 -37.1772 -45.511391 -21.455727 -137.42879
14980000000 -20.258821 -72.774086 -37.369408 -80.757278 -37.111408 -78.787903 -19.892914 -149.39523
15000000000 -20.951458 -77.021446 -36.600945 -116.66958 -36.184746 -114.37397 -18.704283 -154.44411
15020000000 -21.243235 -76.941956 -36.536682 -157.08524 -36.223022 -153.9305 -19.093414 -155.75241
15040000000 -21.503313 -80.998177 -37.016415 172.22656 -36.546219 171.2865 -16.046576 171.97427
15060000000 -22.265694 -85.025299 -35.988155 136.52821 -35.863689 139.03831 -19.250204 168.86938
15080000000 -22.81325 -85.048737 -35.740822 96.297134 -35.471889 97.462708 -19.805914 162.27248
15100000000 -23.467785 -82.74942 -36.175449 60.560276 -36.011902 61.007721 -19.680607 156.50943
15120000000 -22.992401 -80.01329 -35.959763 25.42576 -35.77903 26.028238 -19.539236 147.4146
15140000000 -22.906591 -84.145477 -35.60812 -10.806003 -35.442562 -9.7565746 -23.761383 139.51674
15160000000 -24.082895 -86.182556 -35.460331 -48.104294 -35.199543 -48.386051 -17.933952 120.77668
15180000000 -24.398623 -81.558479 -35.367695 -86.94239 -35.317337 -85.45948 -21.915205 101.46724
15200000000 -23.970823 -73.906387 -35.918285 -123.82473 -35.688461 -121.65329 -23.608919 92.367828
15220000000 -23.471563 -80.519882 -35.800583 -158.36459 -35.422195 -157.37671 -22.583494 83.269142
15240000000 -23.004728 -81.036987 -35.738358 161.81281 -35.520119 161.75647 -25.321194 68.859879
15260000000 -23.104715 -83.315079 -36.516682 125.80437 -36.273384 126.72884 -24.249432 1.3756853
15280000000 -23.230246 -84.464523 -36.482315 92.545135 -35.990242 91.251076 -22.826059 41.337204
15300000000 -22.699966 -85.060417 -36.522888 55.301369 -36.089432 53.64426 -24.190922 -2.1456988
15320000000 -22.616201 -90.462952 -36.834183 20.530102 -36.810547 16.754259 -23.991039 -6.3070741
15340000000 -22.706839 -92.685944 -37.003498 -15.051068 -37.120171 -17.3536 -23.531235 -12.652409
15360000000 -22.700674 -94.194351 -37.207783 -49.952522 -37.412357 -51.391659 -22.361835 -42.630611
15380000000 -22.661369 -97.575638 -37.150887 -85.552971 -37.410767 -87.776978 -18.425812 -54.186718
15400000000 -22.967707 -108.05574 -37.33572 -119.81522 -37.800289 -120.87472 -19.200392 -61.104095
15420000000 -23.51083 -115.04392 -37.62463 -155.17285 -37.925785 -156.46085 -18.916668 -79.929939
15440000000 -24.425697 -121.24902 -37.475872 171.11391 -38.267391 169.49922 -19.181959 -72.873489
15460000000 -24.111561 -117.19231 -37.35759 135.59097 -38.224163 136.93294 -18.677952 -79.663124
15480000000 -24.32708 -125.65485 -37.217468 100.18712 -38.071079 100.89 -16.745829 -93.072159
15500000000 -24.414549 -140.10838 -37.530365 63.480583 -38.332027 65.599548 -15.77035 -96.67733
15520000000 -25.767262 -154.0844 -37.485916 29.38591 -38.167923 32.280586 -15.094485 -93.772667
15540000000 -27.485867 -162.98709 -37.65345 -5.9462776 -38.842449 -1.1465034 -15.607768 -121.71732
15560000000 -28.680634 -158.66531 -37.345081 -43.209034 -37.790443 -36.157764 -15.582213 -115.87693
15580000000 -27.879164 -157.76718 -37.774189 -78.648895 -38.094055 -72.793785 -14.893266 -122.6413
15600000000 -27.480946 -178.6799 -37.544086 -114.62785 -37.93985 -107.21655 -13.741964 -128.23218
15620000000 -28.271629 151.58295 -37.894138 -151.395 -37.707695 -143.7113 -13.288274 -133.32745
15640000000 -30.286207 123.42473 -38.065025 174.53413 -37.460709 -179.2722 -13.883295 -129.1331
15660000000 -31.000561 114.51498 -38.067307 140.93782 -38.08659 148.05695 -13.202399 -152.28177
15680000000 -32.377316 121.87557 -38.240025 101.11938 -37.923927 106.93512 -13.307401 -154.00522
15700000000 -29.537495 112.50204 -38.564938 66.810646 -37.774494 71.604736 -12.7435 -160.24911
15720000000 -27.752718 91.476151 -38.601254 33.073753 -37.975723 35.196949 -12.37476 -169.8824
15740000000 -26.257196 67.81263 -38.670399 -3.2431183 -38.169083 -0.8239423 -12.476254 -171.8519
15760000000 -25.771818 58.00362 -38.881748 -39.126217 -37.946701 -37.20612 -9.8513708 160.64709
15780000000 -25.5959 57.422485 -39.138123 -71.609489 -38.692455 -70.738831 -12.396363 168.51457
15800000000 -25.323263 53.244389 -39.192287 -106.29002 -38.498035 -107.16207 -13.021158 162.95526
15820000000 -24.820475 52.079067 -38.83942 -141.32402 -38.489422 -143.36087 -12.703433 152.56647
15840000000 -23.361614 47.454502 -39.344429 -177.42999 -39.317841 -179.42767 -12.667729 143.22467
15860000000 -22.057756 41.009476 -39.276695 147.50764 -39.104774 146.29982 -14.009346 139.29041
15880000000 -21.440521 35.611916 -39.500305 111.90031 -39.055374 109.75422 -11.330488 117.87219
15900000000 -22.053549 31.383316 -39.628784 78.755882 -39.400986 72.953255 -15.184869 117.85956
15920000000 -22.305216 34.578831 -39.145679 41.499336 -39.999531 35.825603 -15.896769 111.08859
15940000000 -21.741512 37.195965 -39.687798 7.136342 -40.132282 6.3345537 -15.396428 99.220474
15960000000 -19.903013 33.250832 -39.359119 -27.25841 -40.376591 -32.574249 -16.149738 88.832848
15980000000 -19.224762 27.105564 -39.274467 -63.578262 -40.084576 -63.503841 -18.597765 71.601402
16000000000 -19.242723 23.508329 -39.167908 -99.369278 -40.320541 -101.11767 -18.709312 56.810478
16020000000 -19.513775 23.841486 -39.193501 -139.20564 -40.657925 -134.95041 -24.115416 61.779274
16040000000 -18.813334 26.823614 -39.683743 -175.90108 -41.289856 -170.95279 -21.456354 40.109764
16060000000 -17.690809 25.140295 -39.944374 149.23866 -41.063595 155.51743 -19.020773 27.189741
16080000000 -16.735956 21.494669 -39.900513 111.75433 -40.793484 120.60378 -19.642294 7.060565
16100000000 -16.345758 19.172447 -40.415115 74.200165 -40.767048 84.800545 -18.811348 -15.884011
16120000000 -15.886692 17.243387 -40.861652 37.407162 -40.970787 48.892147 -17.496569 -26.360971
16140000000 -15.676367 16.132727 -40.978798 0.85081452 -41.498829 14.334136 -22.775976 -70.203606
16160000000 -15.358742 15.123607 -41.655472 -34.137299 -41.358479 -20.48193 -19.311142 -44.432419
16180000000 -14.50596 13.01007 -42.558056 -67.502861 -41.188812 -57.579037 -17.177691 -50.719696
16200000000 -13.636409 11.310719 -42.539032 -99.326637 -40.736656 -91.845505 -15.918704 -64.334663
16220000000 -12.972561 7.0071788 -42.265491 -135.61586 -40.558277 -131.30043 -15.386469 -74.908356
16240000000 -12.738017 3.1035452 -43.295246 -168.63876 -40.641842 -167.82121 -13.897812 -73.249489
16260000000 -12.909622 2.0416811 -42.987297 160.341 -41.997643 157.54079 -16.372753 -94.722519
16280000000 -12.576982 1.9222556 -42.236996 123.1467 -40.719124 120.57508 -14.51001 -89.419395
16300000000 -11.556472 -0.35303441 -43.003769 86.751068 -41.536289 76.38176 -13.547768 -96.522621
16320000000 -10.912857 -5.0965858 -43.002193 54.581142 -42.119354 41.5079 -13.324283 -109.22301
16340000000 -10.691942 -9.7983084 -42.846672 21.159264 -42.209126 4.6547194 -12.517702 -112.34075
16360000000 -10.794084 -11.848207 -42.138039 -17.742918 -42.544872 -33.21545 -12.065248 -109.79986
16380000000 -10.682488 -10.989881 -42.478939 -57.936104 -43.557961 -65.863106 -12.941836 -124.99853
16400000000 -9.9507313 -13.091125 -42.107094 -89.421165 -43.672722 -104.57667 -11.82269 -124.39613
16420000000 -9.3304815 -17.314734 -41.765385 -134.68646 -44.432777 -141.33142 -11.30792 -132.37418
16440000000 -9.1392183 -21.733768 -42.684666 -174.31436 -45.35947 -176.62297 -11.525464 -142.18521
16460000000 -9.1050558 -23.42762 -42.366943 150.37772 -45.012848 150.27951 -10.998454 -142.33727
16480000000 -8.8989601 -23.366444 -43.199829 106.64348 -45.715961 109.92514 -11.13263 -144.18987
16500000000 -8.5615501 -24.961626 -43.83387 70.809875 -45.975147 79.854004 -10.787264 -151.32846
16520000000 -8.0769424 -28.476238 -44.238743 25.105055 -46.942551 36.79063 -10.135186 -155.31483
16540000000 -7.8002939 -31.488056 -46.113884 -11.874854 -47.143147 6.9460139 -10.205813 -164.50958
16560000000 -7.5691547 -33.682144 -46.111866 -43.940563 -46.866859 -32.852768 -10.256897 -171.17064
16580000000 -7.318584 -34.41214 -46.966835 -91.222267 -47.382206 -74.019234 -10.15828 -172.92326
16600000000 -7.0657487 -35.993687 -49.078953 -127.36004 -48.448723 -110.72411 -10.421712 -178.56439
16620000000 -6.7911615 -39.080059 -49.913788 -160.83612 -48.962261 -147.51088 -10.471747 173.89291
16640000000 -6.3626261 -40.55851 -51.957947 157.48439 -50.37215 177.15033 -9.1860323 174.58089
16660000000 -5.9977059 -43.013527 -53.762756 136.16331 -51.287643 136.02689 -9.6060791 161.60222
16680000000 -5.6173143 -45.289852 -54.553757 87.633995 -53.334988 98.531036 -9.8422022 155.89153
16700000000 -5.4048471 -47.500046 -58.490696 53.254463 -54.780285 33.828262 -10.45324 150.91292
16720000000 -5.0989323 -49.335651 -59.860867 31.797197 -56.47641 36.270073 -10.362193 145.37505
16740000000 -4.8108306 -53.047142 -63.265011 40.107105 -60.630756 15.195508 -9.0378866 153.91048
16760000000 -4.2476058 -55.211487 -64.10022 -0.96611619 -63.528641 5.358665 -10.271449 136.70021
16780000000 -3.9134657 -58.676216 -64.598518 -5.402029 -59.711342 -22.901953 -10.51851 122.26368
16800000000 -3.6848574 -61.477215 -63.435768 -38.269848 -51.055542 -60.334183 -11.261313 114.02805
16820000000 -3.3944571 -63.533218 -60.169888 -35.982964 -61.996666 -57.434338 -11.611733 110.47998
16840000000 -3.0077131 -66.466354 -57.24757 -80.182388 -57.395897 -92.984421 -12.211856 100.42211
16860000000 -2.7407541 -71.544037 -55.443684 -110.98641 -57.493877 -129.93112 -12.872425 83.833313
16880000000 -2.4303055 -74.361107 -55.437366 -146.16399 -58.747913 -158.30882 -12.962003 85.0868
16900000000 -2.1666045 -77.36261 -53.273159 -175.0562 -54.95528 175.69032 -13.270195 71.564163
16920000000 -1.9533665 -80.1492 -52.248848 136.6852 -55.305382 128.72354 -14.577314 64.54451
16940000000 -1.6552619 -83.613113 -52.442516 100.94702 -56.119953 101.53342 -15.129281 60.438583
16960000000 -1.442926 -87.544899 -51.150608 59.27689 -54.207935 65.968506 -15.614774 44.400513
16980000000 -1.2565147 -91.188393 -51.209663 19.016857 -53.073994 29.790789 -14.979215 30.809851
