!Keysight Technologies,P9374A,MY57211810,A.19.30.04
!Date: Friday, May 09, 2025 09:22:28
!Correction: S11(Cdelta 2-Port  ) 
!S21(Cdelta 2-Port  ) 
!S12(Cdelta 2-Port  ) 
!S22(Cdelta 2-Port  ) 
!S2P File: Measurements: S11, S21, S12, S22:
# Hz S  dB   R 50
13000000000 -19.695602 -86.508606 -50.685402 -1.6821097 -49.901772 43.028519 -15.251548 8.1753712
13020000000 -20.960123 -85.059814 -54.622448 -46.455791 -51.668266 4.6963096 -14.92902 -0.49623775
13040000000 -21.130217 -78.502228 -60.891113 -58.124386 -51.692692 -19.729811 -14.622872 -14.012178
13060000000 -20.681509 -79.488426 -62.919174 -50.982338 -50.559116 -55.096066 -13.006411 -21.109442
13080000000 -20.445095 -84.140038 -58.939949 -48.810238 -51.558266 -92.141022 -12.746614 -32.369911
13100000000 -20.47506 -86.272865 -56.141075 -86.425514 -51.340603 -124.67961 -11.908624 -40.460445
13120000000 -20.312468 -84.203758 -54.0909 -115.37556 -51.073662 -166.86125 -11.368609 -47.884678
13140000000 -20.213554 -83.543297 -51.828644 -148.43832 -52.355549 157.19647 -10.479748 -54.949688
13160000000 -20.214613 -85.000053 -49.199318 171.30435 -53.275627 131.57463 -10.174478 -65.503632
13180000000 -20.294456 -87.414993 -47.922676 123.39518 -53.560444 100.99201 -9.1304264 -70.92009
13200000000 -20.44375 -89.15641 -47.954926 78.182899 -54.853985 66.16391 -8.9839621 -80.807205
13220000000 -20.01667 -93.618027 -47.432102 24.976656 -54.010571 29.902557 -8.6352959 -92.939064
13240000000 -20.038151 -96.584511 -48.86084 -11.580544 -54.372543 5.5506992 -8.3995266 -92.074081
13260000000 -20.291607 -97.899376 -49.620365 -56.972942 -54.819962 -21.007784 -7.6554418 -105.04066
13280000000 -20.447657 -99.04187 -50.873386 -94.753395 -51.815716 -51.28606 -7.4848857 -113.50356
13300000000 -20.699774 -103.88368 -53.02142 -147.46504 -52.727337 -92.436211 -7.3433704 -121.58501
13320000000 -20.923393 -107.13488 -57.437828 175.01352 -53.251099 -117.79733 -7.2521639 -129.12157
13340000000 -20.836456 -110.89464 -65.135941 151.99512 -52.601257 -157.59937 -8.2846451 -137.6944
13360000000 -21.134193 -114.58827 -63.669098 -178.687 -51.88501 163.73328 -7.2068281 -143.40056
13380000000 -21.913086 -117.69415 -57.448818 169.14185 -52.333164 136.07132 -7.4296689 -152.75104
13400000000 -22.574709 -115.87177 -53.84819 145.1946 -51.536011 100.26414 -7.4272566 -159.80167
13420000000 -22.503271 -119.81142 -53.305805 96.368858 -50.854172 68.833199 -7.7615056 -166.39172
13440000000 -22.449766 -126.16279 -53.401474 53.554832 -50.411037 24.925371 -8.0801229 -173.76208
13460000000 -23.313063 -130.35553 -53.414539 31.06477 -52.243923 -8.0764627 -9.2157249 -175.3999
13480000000 -24.603418 -130.95291 -51.954021 -14.132145 -50.644665 -42.995705 -8.7276068 173.41922
13500000000 -25.883234 -124.29464 -51.393188 -46.720791 -51.088879 -87.020187 -8.9108925 165.69481
13520000000 -25.529907 -123.10625 -50.357971 -82.231598 -52.44009 -113.76267 -9.378088 159.52707
13540000000 -25.553747 -132.19153 -50.635662 -119.30795 -52.037682 -153.44867 -9.7201643 155.41318
13560000000 -26.911768 -140.43773 -49.704681 -150.74876 -53.532722 169.69576 -10.19309 145.51106
13580000000 -28.834364 -135.27203 -49.125839 169.96991 -53.594971 155.49677 -10.777238 144.99983
13600000000 -29.240005 -124.11309 -48.681717 133.24844 -53.747467 106.64187 -10.941894 135.92828
13620000000 -29.471342 -118.77319 -48.054813 96.773956 -54.400356 88.379402 -11.459563 128.11967
13640000000 -28.918554 -121.2636 -46.937992 56.295132 -51.566032 55.411564 -11.690115 122.51644
13660000000 -29.119509 -127.65803 -47.324554 15.662797 -52.654049 24.477423 -12.247326 120.99717
13680000000 -30.011599 -130.08144 -47.111389 -24.25544 -52.254028 -7.8178926 -13.089218 111.93622
13700000000 -30.555592 -121.45831 -47.227997 -68.597038 -51.188236 -52.212704 -13.234595 105.79526
13720000000 -30.089548 -112.73994 -48.218143 -116.73212 -52.2896 -94.004097 -13.835492 94.370842
13740000000 -29.037987 -116.94452 -49.430031 -146.95493 -51.987408 -118.90918 -14.114698 88.007149
13760000000 -28.567539 -127.44843 -50.802101 172.07455 -51.665352 -152.11569 -14.495705 82.942459
13780000000 -28.837769 -134.91321 -53.679577 132.96782 -53.239853 170.65793 -15.530649 77.972473
13800000000 -28.812117 -138.07959 -55.050903 115.29365 -52.786423 145.95644 -15.601236 68.543022
13820000000 -28.76408 -130.48334 -55.476025 85.286705 -52.352428 121.18143 -16.020144 59.285484
13840000000 -28.793692 -134.17632 -56.410294 53.642735 -51.788418 77.204033 -16.710789 43.641781
13860000000 -28.904408 -138.04428 -57.19788 42.876125 -52.141663 44.903801 -16.314983 36.675552
13880000000 -29.767887 -150.29732 -58.570488 13.362019 -52.476204 18.313223 -17.012207 26.668289
13900000000 -29.043751 -170.60893 -55.464256 6.8913193 -50.423412 -5.9905953 -17.020269 14.174077
13920000000 -29.649212 175.61787 -53.944225 -39.545353 -49.32745 -45.259277 -16.886686 0.92769223
13940000000 -30.586203 173.79938 -53.576717 -49.316433 -48.999863 -78.076447 -17.163771 -7.2185574
13960000000 -31.690594 178.69252 -50.451416 -88.221199 -47.725132 -112.91055 -15.773255 -19.939077
13980000000 -31.385929 169.2775 -49.390396 -124.84866 -46.811569 -146.95776 -15.481978 -29.790857
14000000000 -29.610378 139.45277 -48.434841 -160.59885 -46.467991 170.11336 -15.556682 -42.799698
14020000000 -28.917147 116.09598 -46.622345 156.0961 -46.595505 130.95262 -14.952389 -54.898323
14040000000 -30.798178 99.658516 -46.895897 117.08591 -46.173927 97.684059 -13.663499 -63.164421
14060000000 -32.615788 107.03962 -46.155399 81.435257 -46.623791 59.330727 -14.565892 -71.912735
14080000000 -31.89426 108.01279 -44.957706 40.446327 -46.317814 20.301041 -12.979142 -80.706444
14100000000 -28.68153 81.566757 -45.125027 -2.7982516 -46.548038 -13.059125 -12.574286 -92.275795
14120000000 -27.743584 59.251221 -45.44381 -42.13192 -46.483337 -48.150097 -12.47812 -101.21132
14140000000 -28.29446 47.642693 -46.596382 -76.548424 -47.599918 -73.930962 -11.77433 -111.77984
14160000000 -29.295137 45.299053 -46.567596 -115.34851 -46.012527 -102.26698 -11.526954 -118.91592
14180000000 -27.901917 50.529469 -47.067493 -144.62355 -45.653446 -143.0309 -11.481816 -126.92605
14200000000 -26.314316 31.502384 -46.852962 -174.64755 -44.833885 -175.74879 -10.574116 -136.00266
14220000000 -26.89856 19.472178 -45.924656 148.38109 -43.546028 146.71744 -10.749161 -145.42172
14240000000 -27.434525 23.129637 -46.106564 120.65551 -43.300671 108.92391 -10.692439 -154.85852
14260000000 -25.578503 21.559679 -45.444817 83.34726 -42.593769 70.617973 -10.050519 -162.01524
14280000000 -24.829086 10.833796 -45.20153 51.416901 -43.023895 30.987934 -10.51944 -166.79338
14300000000 -25.700254 -2.4400148 -44.123009 14.087187 -42.639336 -8.9080057 -9.9344568 -177.29951
14320000000 -26.716347 -0.42681763 -43.066185 -17.664068 -42.737877 -45.072479 -10.008681 173.6796
14340000000 -26.372604 4.970705 -42.319271 -60.293808 -42.752468 -80.259575 -10.45674 165.07417
14360000000 -24.515568 4.9452071 -41.555305 -96.270195 -42.207478 -112.39457 -10.312984 157.08594
14380000000 -23.871151 -8.4229975 -40.679695 -136.48062 -41.893879 -150.86407 -10.225498 153.68617
14400000000 -25.492746 -16.910284 -40.088337 179.50961 -41.610043 170.13629 -10.486721 146.28316
14420000000 -26.801025 -14.129181 -40.726688 137.78008 -41.914368 131.49954 -11.447639 139.12373
14440000000 -26.528557 0.16069213 -40.09441 98.036476 -41.578693 94.494667 -10.789046 129.01898
14460000000 -24.156628 -2.5271127 -40.563435 52.891178 -41.53788 59.701885 -11.392588 122.28771
14480000000 -23.573956 -14.952086 -41.55233 13.740775 -41.678928 23.047636 -11.549583 116.13457
14500000000 -25.240444 -20.850851 -42.189114 -23.184883 -41.230495 -15.283949 -11.91328 112.09563
14520000000 -25.898712 -11.465055 -42.769955 -63.973785 -41.378025 -55.717171 -12.498147 106.98927
14540000000 -24.513237 -5.8805513 -43.945915 -101.79944 -42.445251 -90.856987 -13.300165 95.65007
14560000000 -23.408663 -10.445084 -45.124783 -137.6134 -41.967045 -131.19235 -12.678006 89.446945
14580000000 -22.469191 -16.606352 -46.282478 -166.69266 -42.586342 -163.99211 -13.249681 82.618484
14600000000 -23.126535 -18.641441 -47.292622 165.38736 -42.641716 163.63287 -13.803656 77.920219
14620000000 -23.384024 -14.730347 -46.926468 145.72682 -42.336399 125.26192 -13.85299 72.233078
14640000000 -21.913666 -13.79946 -44.401596 115.02364 -42.225815 90.4422 -15.34258 63.431812
14660000000 -21.301321 -20.938406 -44.204842 69.99678 -42.265709 48.900211 -14.30021 56.8522
14680000000 -21.368538 -22.786549 -44.017639 38.635132 -42.471836 16.713865 -15.12772 48.083214
14700000000 -20.662701 -24.962019 -42.875458 1.5155996 -42.350647 -22.017254 -15.92521 39.83046
14720000000 -20.547649 -26.890106 -42.152695 -38.694721 -42.15567 -60.262924 -15.822373 35.551243
14740000000 -20.624296 -32.725807 -42.403744 -82.910126 -42.489513 -97.166664 -16.757669 28.112986
14760000000 -20.397537 -33.961075 -42.782978 -118.25201 -43.368244 -135.18135 -18.104237 5.8139229
14780000000 -20.001673 -35.832672 -42.192204 -157.28998 -43.301159 -167.78366 -17.204964 10.487138
14800000000 -19.148548 -40.212467 -42.733387 158.17531 -43.417225 152.15004 -18.015823 -7.4597549
14820000000 -19.288933 -47.709835 -43.396816 124.12688 -44.157719 115.68003 -18.673336 -13.665762
14840000000 -19.925974 -52.894459 -43.373028 83.498192 -44.476883 84.06617 -18.880749 -18.658857
14860000000 -20.134716 -52.325478 -44.384068 40.592972 -43.940331 45.621616 -20.244553 -33.812843
14880000000 -19.461809 -52.82679 -45.842785 3.0100577 -44.99197 5.9887161 -19.013969 -60.311943
14900000000 -18.965908 -59.413658 -47.094513 -20.62948 -45.682903 -21.677261 -19.759041 -69.82296
14920000000 -19.168352 -67.415001 -46.456982 -58.086311 -45.226051 -57.010662 -21.153212 -99.177238
14940000000 -20.34243 -72.40947 -47.435242 -90.308929 -45.727116 -93.649597 -22.003344 -89.898552
14960000000 -20.832218 -69.296089 -47.374908 -120.27678 -45.993137 -127.86886 -22.5889 -100.7
14980000000 -20.451736 -70.14109 -46.666943 -152.22948 -45.587467 -160.51184 -21.720051 -124.43584
15000000000 -20.319408 -75.799286 -46.443695 172.80205 -45.182308 162.25185 -20.812731 -135.91579
15020000000 -20.768175 -81.328568 -45.4482 136.54512 -45.310696 130.0791 -20.997425 -136.45886
15040000000 -22.002981 -85.34832 -45.26107 94.554916 -44.171234 89.531769 -18.068195 175.81665
15060000000 -22.977184 -81.991562 -45.553295 57.967911 -44.467999 47.634689 -22.314394 170.32202
15080000000 -22.532171 -80.38163 -44.678646 18.924232 -44.435619 10.755557 -22.936604 157.28029
15100000000 -22.647722 -85.323708 -45.210236 -20.594875 -44.552467 -30.304037 -22.017075 148.26985
15120000000 -23.369118 -87.419533 -45.008862 -65.578354 -45.239796 -73.799316 -21.259394 134.88091
15140000000 -23.805235 -81.444786 -46.153572 -103.45492 -45.97612 -112.89426 -26.01741 108.01723
15160000000 -23.705114 -82.080116 -45.413288 -144.32959 -45.940483 -146.23209 -18.411995 103.9804
15180000000 -23.568243 -82.220116 -46.850086 168.12433 -47.020176 160.4561 -20.717073 76.402817
15200000000 -23.94722 -80.943733 -47.497234 129.7495 -48.945042 127.32668 -20.972635 63.212582
15220000000 -24.395195 -78.999809 -49.088074 91.27948 -50.249519 92.169243 -19.705805 58.576408
15240000000 -23.508089 -74.441963 -48.4659 51.852516 -50.181606 54.821312 -20.413319 44.194782
15260000000 -22.432938 -79.07679 -50.606651 1.5102347 -52.010868 17.877983 -18.617832 6.8159218
15280000000 -22.876806 -90.78923 -51.304295 -34.695435 -52.812622 -19.2265 -17.751143 26.42794
15300000000 -23.746727 -90.566124 -53.330944 -77.902626 -55.070179 -44.949471 -17.663736 2.3626201
15320000000 -23.734098 -87.767143 -54.646923 -118.0469 -54.50774 -93.437645 -17.521627 -1.8025602
15340000000 -22.403294 -88.916595 -54.959351 -164.11613 -58.941971 -127.05786 -17.149298 -6.5024986
15360000000 -21.908354 -96.688957 -59.290874 157.59093 -59.264412 -148.16219 -16.874989 -24.412287
15380000000 -22.669647 -106.28765 -58.443546 110.84368 -60.398415 168.62387 -14.685478 -36.861332
15400000000 -23.835167 -111.92788 -61.605198 45.557804 -64.381691 154.72086 -15.017808 -41.55204
15420000000 -23.947643 -111.85177 -66.281639 43.127209 -65.836121 142.13161 -15.168983 -54.157047
15440000000 -23.331766 -116.53562 -62.382912 -16.77107 -60.518723 88.583488 -15.07306 -51.460243
15460000000 -23.460754 -123.5714 -61.763752 -95.270538 -68.997101 28.151119 -14.819957 -58.557331
15480000000 -24.507793 -129.67242 -60.612453 -144.66927 -67.34214 74.813553 -13.844313 -72.595993
15500000000 -25.192617 -139.7916 -58.409618 -170.50078 -68.669914 -22.186539 -13.140485 -78.133858
15520000000 -26.111687 -146.31184 -56.747017 130.24493 -65.417557 -60.757786 -12.422386 -78.106415
15540000000 -26.391665 -159.78851 -56.357925 79.213608 -67.314438 111.78417 -13.859429 -100.76358
15560000000 -27.84148 -165.95042 -56.322426 33.041698 -66.223969 5.3978014 -13.407015 -96.392403
15580000000 -28.915829 -166.9511 -56.64492 7.2078023 -64.969986 40.988785 -13.074311 -104.99355
15600000000 -28.822235 -177.03575 -53.873512 -35.275826 -58.594467 -27.669945 -12.202797 -113.17754
15620000000 -28.863775 159.92709 -54.161606 -81.106438 -58.277294 -80.156662 -11.879415 -119.78465
15640000000 -29.184372 128.57495 -52.657852 -116.0225 -55.957115 -108.16903 -12.291084 -115.88744
15660000000 -29.325319 113.72186 -51.544155 -160.70802 -55.313335 -149.86661 -12.658854 -138.85622
15680000000 -31.500452 106.51114 -51.160065 154.48427 -53.754173 171.02118 -12.639822 -141.41479
15700000000 -30.625143 112.31245 -51.254509 112.55532 -51.808769 126.55109 -12.246612 -149.10391
15720000000 -27.787067 96.896599 -50.505512 76.196434 -50.606884 82.351631 -12.174193 -160.25909
15740000000 -25.966597 72.032127 -50.022926 20.449923 -49.721416 26.06558 -12.366746 -162.84494
15760000000 -25.00989 59.064999 -52.513721 -20.619543 -51.961937 -8.3681755 -10.285149 166.91319
15780000000 -25.750298 56.153564 -52.364605 -43.032658 -51.474255 -36.106468 -12.879358 175.57292
15800000000 -25.848783 56.156761 -51.04837 -88.347908 -50.676125 -75.684853 -13.688085 168.79733
15820000000 -24.615189 56.401443 -51.838306 -128.16888 -50.422459 -112.44297 -13.437799 157.0923
15840000000 -23.089369 44.729904 -50.807426 -170.94411 -48.969727 -158.92293 -13.454903 145.9207
15860000000 -22.527668 36.668282 -52.112652 139.20863 -49.530964 154.89662 -15.152703 140.86414
15880000000 -22.103415 37.871246 -52.977413 101.75783 -49.827755 113.50141 -12.217653 116.35996
15900000000 -21.553211 36.296192 -52.969364 56.400822 -49.561481 70.282097 -16.604853 113.60514
15920000000 -21.473665 31.227844 -56.627083 15.760442 -51.806992 28.997711 -17.338104 104.29409
15940000000 -21.567408 31.935345 -54.354652 -8.3264866 -51.275135 -8.4602184 -16.260786 89.256989
15960000000 -20.559813 32.822582 -56.408806 -60.808517 -51.588173 -44.167217 -16.8319 75.683243
15980000000 -19.334667 32.157616 -57.765316 -98.909012 -50.766937 -94.33606 -18.595478 51.295593
16000000000 -18.780083 27.276659 -57.110031 -121.46173 -50.771122 -137.24606 -17.843861 34.369564
16020000000 -18.837427 22.38619 -55.423069 -173.31519 -51.383465 174.69101 -21.876205 18.085625
16040000000 -19.151363 23.406551 -57.007759 126.23181 -53.139904 116.24503 -19.161982 12.283025
16060000000 -18.113506 27.13946 -56.273472 99.748108 -53.373371 68.759758 -16.487717 5.3538723
16080000000 -16.680885 24.343084 -55.074249 41.7743 -55.296909 23.273674 -16.2055 -11.940976
16100000000 -16.151968 19.395004 -55.436527 -8.1245642 -54.827301 -20.310612 -14.987103 -27.995775
16120000000 -15.998448 16.073236 -55.062386 -45.958492 -53.865395 -82.8591 -13.840269 -35.594856
16140000000 -15.843508 17.021929 -53.297264 -101.89948 -58.192692 -149.2162 -16.994429 -65.084305
16160000000 -15.208568 15.492233 -53.220478 -144.12498 -56.728699 -165.20441 -14.922881 -48.789421
16180000000 -14.450665 12.552161 -52.671124 158.80197 -53.978531 124.20929 -13.280962 -55.598019
16200000000 -13.808488 10.259997 -51.381409 124.34274 -55.853947 80.32766 -12.363737 -66.304619
16220000000 -13.17761 7.6671419 -51.026554 70.32769 -54.488224 42.250534 -11.984971 -74.937073
16240000000 -12.718455 4.4306207 -51.388237 33.534767 -55.218128 -3.3147266 -10.842452 -74.624878
16260000000 -12.682545 2.144989 -50.70269 -7.7749939 -56.518192 -39.088642 -13.104875 -90.475769
16280000000 -12.459126 -0.022220859 -49.964947 -47.838497 -55.432022 -71.638573 -11.357311 -87.064636
16300000000 -11.776092 -1.7482779 -48.97942 -86.350952 -53.491055 -108.32934 -10.76189 -94.793526
16320000000 -11.113002 -4.350338 -48.81147 -130.52338 -53.210644 -148.68607 -10.674451 -105.8333
16340000000 -10.610848 -8.4647474 -47.705429 -169.53157 -51.466724 173.2502 -10.058996 -109.19211
16360000000 -10.534726 -11.1682 -47.886257 145.82114 -50.635231 129.38428 -9.6895952 -108.12441
16380000000 -10.517916 -11.880686 -48.578854 110.83032 -52.109768 96.916496 -10.733145 -119.26703
16400000000 -10.072062 -14.098603 -47.032501 71.214111 -50.656059 59.295967 -9.6551399 -121.31436
16420000000 -9.6021137 -17.042784 -47.393459 23.566719 -49.132782 16.113367 -9.397233 -128.76758
16440000000 -9.2174253 -19.887472 -47.888657 -9.7725515 -50.51297 -19.448746 -9.7046242 -137.77068
16460000000 -8.9009342 -22.664909 -46.97871 -44.701679 -49.132332 -49.878639 -9.2222166 -138.52051
16480000000 -8.8000708 -24.710957 -47.325359 -84.190521 -47.862988 -94.364891 -9.3509731 -140.84425
16500000000 -8.7305861 -26.384911 -46.673149 -120.98934 -47.304958 -135.96808 -9.2025805 -147.50372
16520000000 -8.2974453 -27.892466 -46.39085 -157.33482 -47.734867 -171.51216 -8.7719193 -151.54697
16540000000 -7.7925 -30.608831 -45.949062 163.25038 -46.535686 148.51567 -8.9281263 -160.80389
16560000000 -7.436264 -33.382114 -45.306683 124.61672 -45.930092 105.77105 -9.0858555 -167.09085
16580000000 -7.3037977 -35.328499 -45.174454 84.365196 -46.137161 65.76387 -8.9738941 -169.05133
16600000000 -7.1592288 -36.414707 -44.759434 43.253979 -45.865231 24.776537 -9.326746 -174.54568
16620000000 -6.8586679 -38.754322 -44.416595 5.9662704 -45.766098 -14.465799 -9.4875383 178.19598
16640000000 -6.3453708 -40.648083 -43.673241 -37.485577 -45.468975 -53.529964 -8.3604603 177.95148
16660000000 -5.970902 -43.32317 -44.489769 -79.6614 -46.299622 -97.890938 -8.9383764 164.98248
16680000000 -5.6577554 -45.139565 -44.530598 -117.96902 -46.538223 -130.49023 -9.2240381 159.61121
16700000000 -5.3333116 -47.144169 -44.628819 -160.81253 -46.847954 -172.94672 -9.8865061 154.59123
16720000000 -5.0399337 -49.632301 -44.842278 158.18922 -46.894875 149.57309 -9.9109468 149.07936
16740000000 -4.8469801 -53.652 -45.639694 117.06988 -48.766743 111.42898 -8.7416878 156.1879
16760000000 -4.3704557 -54.987316 -46.139256 76.626747 -48.382759 78.00502 -10.003366 139.44153
16780000000 -3.9152932 -58.003407 -47.153381 37.608578 -48.350288 37.951981 -10.414898 124.65371
16800000000 -3.5707829 -61.12064 -47.841766 -0.57323492 -48.491196 -0.8362782 -11.274394 116.57114
16820000000 -3.3623254 -64.162376 -48.490192 -37.477257 -48.971561 -39.143059 -11.616279 112.74416
16840000000 -3.0962067 -66.851906 -49.370419 -75.810303 -49.408428 -73.840256 -12.353484 101.86622
16860000000 -2.8344262 -71.2145 -49.331337 -104.40828 -49.284 -107.9971 -13.201839 84.279488
16880000000 -2.3976552 -73.940735 -50.085602 -143.83252 -50.239819 -149.59579 -13.213853 84.843468
16900000000 -2.1296883 -77.416336 -49.901112 -176.56279 -49.258232 176.77721 -13.493182 69.856934
16920000000 -1.9535621 -80.458504 -49.896637 141.90135 -49.916126 127.68626 -14.859388 62.151997
16940000000 -1.6882023 -83.684105 -49.760578 101.04118 -51.189613 94.015228 -15.418153 56.282673
16960000000 -1.4551853 -87.499466 -50.31662 62.612053 -50.838856 58.645489 -15.737107 38.100952
16980000000 -1.2569869 -91.173714 -50.392452 20.466038 -50.889496 17.913408 -14.864106 24.056761
