!Keysight Technologies,P9374A,MY57211810,A.19.30.04
!Date: Friday, May 09, 2025 09:14:06
!Correction: S11(Cdelta 2-Port  ) 
!S21(Cdelta 2-Port  ) 
!S12(Cdelta 2-Port  ) 
!S22(Cdelta 2-Port  ) 
!S2P File: Measurements: S11, S21, S12, S22:
# Hz S  dB   R 50
13000000000 -20.629845 -81.468025 -50.51886 50.551025 -46.69141 16.636105 -16.845089 -24.541103
13020000000 -20.233833 -78.5494 -51.586506 16.423119 -48.602325 -26.566761 -16.021301 -30.604101
13040000000 -20.359764 -81.329437 -51.422276 -18.972029 -49.111797 -58.443722 -15.110632 -41.756161
13060000000 -21.025742 -84.395378 -51.150127 -55.258846 -49.159897 -96.069862 -13.210608 -42.56953
13080000000 -21.443623 -81.597214 -51.969009 -108.4426 -50.498974 -140.58165 -12.737359 -52.348293
13100000000 -20.848217 -80.24453 -54.233936 -157.34653 -50.696632 171.54402 -11.885253 -57.873722
13120000000 -19.978792 -83.820564 -55.484447 162.05226 -54.583233 130.32394 -11.327024 -62.514084
13140000000 -20.599737 -86.540695 -61.172478 112.50759 -55.216213 96.386971 -10.343392 -68.646606
13160000000 -20.892286 -84.008148 -65.978317 25.893438 -56.379425 50.916283 -9.8844948 -77.248276
13180000000 -20.421398 -85.801323 -68.867119 -1.6031785 -55.816402 5.1047821 -8.9075546 -80.435127
13200000000 -19.968407 -90.611656 -59.153576 -101.12951 -57.170609 -46.815598 -8.7208576 -89.009056
13220000000 -20.364126 -98.351944 -55.61982 -167.1362 -53.755527 -97.094925 -8.5078011 -99.985313
13240000000 -20.873556 -96.407722 -53.774734 142.23459 -53.008358 -165.17613 -8.1702719 -98.017349
13260000000 -20.369064 -93.841301 -51.043144 94.855751 -50.709351 137.60333 -7.4358234 -110.15163
13280000000 -19.828672 -97.2612 -50.691891 53.756454 -51.238327 84.644142 -7.2721143 -117.112
13300000000 -20.122934 -109.03573 -50.432182 5.9328589 -50.679661 41.899361 -7.176096 -124.41468
13320000000 -21.278538 -114.02194 -49.293278 -17.767447 -49.465134 7.8896165 -7.1739945 -131.38716
13340000000 -22.098484 -110.56938 -47.47839 -61.536304 -47.012428 -36.279804 -8.2525225 -139.39807
13360000000 -21.132757 -106.78261 -46.364964 -102.56551 -45.464718 -87.024521 -7.218401 -144.85043
13380000000 -20.744425 -112.87076 -45.584869 -144.85388 -45.542271 -131.9323 -7.4811449 -153.43861
13400000000 -21.655769 -121.67843 -45.531303 177.28299 -45.63166 -172.53317 -7.5485249 -159.6414
13420000000 -23.469439 -127.84367 -44.642544 145.96013 -44.80587 153.18161 -8.017168 -165.76216
13440000000 -23.93029 -122.6868 -43.620087 104.86467 -44.445202 112.29961 -8.4388199 -172.85542
13460000000 -24.035843 -121.14857 -43.026268 67.831268 -44.539898 79.171577 -9.6452932 -174.38666
13480000000 -23.969227 -126.24551 -42.92168 23.972452 -43.404518 30.525145 -9.2600384 175.5271
13500000000 -25.192562 -132.93454 -42.067684 -14.03676 -43.697201 -6.7033868 -9.5181475 168.57544
13520000000 -26.489058 -135.27211 -42.115494 -58.114441 -43.3564 -48.104652 -10.134721 163.09436
13540000000 -27.409548 -138.92665 -42.834484 -98.865326 -44.399517 -82.545074 -10.619609 159.22522
13560000000 -27.546766 -137.66527 -42.741547 -133.64235 -43.610249 -120.11175 -11.312135 149.15001
13580000000 -28.401644 -131.16783 -42.54726 -170.03539 -44.33083 -153.29518 -11.973763 149.37564
13600000000 -28.342337 -127.86079 -42.929829 145.74049 -43.965767 166.93086 -12.25353 140.67526
13620000000 -29.015711 -131.2274 -43.596237 110.76828 -43.872372 128.59821 -12.999335 133.57036
13640000000 -29.778021 -132.50204 -43.902325 74.393738 -44.282078 94.224045 -13.512778 127.87511
13660000000 -31.042648 -125.88448 -45.010315 38.404232 -44.387157 61.451023 -14.27307 127.28592
13680000000 -30.178066 -121.83036 -45.685436 8.7478333 -44.534679 28.296988 -15.302596 116.15052
13700000000 -28.913862 -117.10907 -45.402557 -27.091917 -44.198696 -10.797572 -15.706574 111.88914
13720000000 -29.431219 -122.57278 -45.835949 -61.419281 -44.156963 -46.871765 -16.607903 99.605164
13740000000 -29.683891 -124.54074 -45.410015 -93.498085 -43.9203 -80.981712 -17.179928 91.903763
13760000000 -29.879435 -126.56693 -45.661869 -128.84831 -44.098087 -116.43574 -17.996737 86.970619
13780000000 -29.577023 -125.41102 -46.390961 -156.06639 -44.090324 -149.28593 -19.586988 80.681313
13800000000 -28.686104 -131.0513 -45.437054 174.50093 -43.843872 175.93631 -19.614519 68.816185
13820000000 -28.82151 -129.05203 -44.240959 133.002 -43.298695 138.86465 -20.23683 58.27449
13840000000 -29.002098 -137.21814 -45.08123 96.846466 -43.759014 99.923988 -20.959673 36.558147
13860000000 -30.085264 -147.24454 -44.434624 65.099754 -43.713261 63.980228 -20.430723 24.961613
13880000000 -31.435526 -162.23466 -43.843513 26.003996 -43.555004 30.526545 -21.462473 9.1473064
13900000000 -31.534269 -178.57884 -44.00135 -10.559901 -43.426086 -4.558682 -20.719088 -5.9970903
13920000000 -30.127148 179.39671 -43.678967 -49.897224 -42.724503 -52.688152 -19.666489 -21.033325
13940000000 -29.717806 173.30865 -44.138321 -89.775375 -43.656799 -97.358437 -19.983891 -28.884811
13960000000 -30.411678 165.70894 -44.59745 -120.31153 -43.957207 -130.10037 -17.749861 -40.03746
13980000000 -31.708712 150.2861 -44.092834 -162.9077 -43.335941 -164.56984 -17.016853 -50.628353
14000000000 -30.674345 132.77637 -46.521435 154.69479 -44.50079 151.14873 -16.405865 -63.492844
14020000000 -30.435505 119.29597 -46.732094 128.0934 -45.379799 117.58572 -15.462425 -72.469391
14040000000 -30.125418 114.38298 -47.164825 89.011757 -45.619934 84.376129 -14.062887 -78.026917
14060000000 -30.632957 107.27357 -49.495373 47.402664 -47.202469 41.533234 -14.934908 -86.766937
14080000000 -31.164076 94.522484 -52.766796 34.061905 -49.669689 12.560874 -13.163132 -93.555542
14100000000 -29.513359 74.637611 -53.148308 2.0420592 -50.219021 -17.737379 -12.631083 -103.69585
14120000000 -28.239067 61.723637 -54.010723 18.407907 -54.934711 -38.827671 -12.397417 -111.35854
14140000000 -28.049852 43.841915 -48.314911 -19.388348 -51.274677 -38.064003 -11.629581 -119.52721
14160000000 -28.484955 38.057659 -50.026981 -64.575134 -51.968296 -81.49308 -11.505207 -125.43929
14180000000 -28.604092 45.828987 -48.028408 -69.369316 -52.287682 -88.240433 -11.437438 -133.59413
14200000000 -26.188995 37.738731 -44.349365 -112.42009 -46.906525 -117.42707 -10.503549 -140.94026
14220000000 -25.219446 25.124924 -43.922096 -150.01297 -45.862541 -156.99159 -10.532184 -149.37611
14240000000 -25.288118 14.638226 -42.573429 177.12524 -45.095718 170.78903 -10.577322 -158.26471
14260000000 -26.335278 8.5154047 -41.208412 137.1239 -43.491676 134.82587 -10.037965 -164.10451
14280000000 -26.834017 17.074459 -41.034008 94.141319 -42.968742 96.292213 -10.490589 -168.35147
14300000000 -25.560091 13.926621 -40.143314 62.623962 -41.317535 58.461586 -9.957263 -178.66371
14320000000 -24.315403 6.2969232 -39.386665 22.333179 -41.017288 17.504644 -10.011244 172.51198
14340000000 -24.697895 -7.2000313 -39.145527 -17.253334 -40.924648 -16.364105 -10.4736 164.4884
14360000000 -25.644417 -9.0855665 -38.703209 -53.927208 -39.860485 -54.694443 -10.486157 157.5676
14380000000 -26.27002 -3.954128 -38.146801 -90.1548 -39.384495 -94.20491 -10.449642 153.98039
14400000000 -25.652107 1.4469662 -37.750214 -132.84802 -39.621021 -131.34288 -10.739456 145.77499
14420000000 -24.509314 -9.6247282 -37.89819 -171.5592 -39.344177 -167.70642 -11.895434 138.66904
14440000000 -25.001478 -12.690846 -37.858513 152.68269 -38.737453 152.74629 -11.226328 129.62228
14460000000 -25.555267 -15.563153 -37.622139 116.15532 -39.041451 116.7466 -11.879427 122.50615
14480000000 -25.049789 -12.451097 -37.355465 77.498131 -38.740139 79.613853 -12.279497 116.76058
14500000000 -25.218559 -10.812724 -37.69384 39.134983 -38.56995 43.287586 -12.709722 112.28905
14520000000 -24.424805 -12.710303 -37.769642 2.6418722 -38.684074 4.7832437 -13.485634 105.54743
14540000000 -24.012062 -12.087087 -37.766609 -31.816261 -38.923756 -30.18804 -14.452332 94.009918
14560000000 -23.127617 -13.269738 -37.590271 -67.605865 -38.685028 -67.152306 -13.709617 89.202698
14580000000 -22.639624 -17.513456 -37.390228 -105.83398 -38.408058 -100.87301 -14.577582 80.943405
14600000000 -23.171427 -17.942472 -37.558643 -139.884 -38.139671 -138.33981 -15.532933 74.892441
14620000000 -23.5019 -11.921343 -36.993599 -175.25783 -38.079704 -177.6586 -15.675746 68.697334
14640000000 -21.824116 -11.069366 -36.517654 144.91411 -38.282066 148.9543 -17.491423 58.182442
14660000000 -20.638607 -17.451767 -36.824181 107.02226 -37.79668 112.51144 -16.226791 51.85405
14680000000 -20.371256 -27.71249 -36.599884 70.771027 -37.423393 71.633774 -17.308805 41.533756
14700000000 -21.174068 -32.436569 -36.409008 32.347855 -37.985481 33.549831 -18.713484 31.643225
14720000000 -21.985142 -25.330921 -36.533821 -6.0480375 -37.920319 0.13637708 -18.679043 25.855232
14740000000 -20.794653 -21.630827 -36.405441 -42.489853 -37.56353 -38.54417 -19.644518 15.5287
14760000000 -19.021713 -29.909451 -36.395359 -82.367783 -37.765808 -77.004097 -20.181973 -13.488138
14780000000 -18.778427 -42.207218 -36.777317 -122.14029 -38.186878 -114.45337 -20.122791 -5.3887024
14800000000 -19.852148 -50.308697 -37.500973 -158.4702 -38.393501 -151.43494 -20.714077 -28.481518
14820000000 -21.143307 -47.223488 -37.426426 168.09366 -38.47699 173.41576 -21.287653 -35.942196
14840000000 -20.317457 -42.713787 -37.25079 127.39137 -38.820816 135.46016 -21.157133 -42.862236
14860000000 -18.8528 -47.953297 -38.267544 88.713036 -39.317463 100.02185 -21.67683 -64.571358
14880000000 -18.326508 -59.612862 -38.651062 56.179768 -39.105061 64.607513 -19.394962 -83.388535
14900000000 -19.115189 -68.216499 -38.596771 19.208416 -39.263912 25.607218 -20.049648 -91.496185
14920000000 -20.306036 -67.904335 -39.010231 -19.523342 -39.60664 -10.443658 -19.753603 -121.94661
14940000000 -20.606203 -63.872761 -39.829235 -54.542168 -40.06736 -45.723209 -20.970154 -117.14719
14960000000 -19.822807 -65.140572 -40.15136 -88.035133 -40.151196 -80.76506 -21.253542 -125.76617
14980000000 -19.886715 -71.300896 -40.215958 -120.50403 -40.575191 -116.64625 -20.204796 -138.97815
15000000000 -20.355516 -79.738449 -39.845272 -158.46492 -40.638287 -151.41257 -19.199154 -147.0365
15020000000 -21.072819 -81.89109 -40.80217 163.41714 -40.925613 168.79799 -19.770144 -149.72705
15040000000 -22.449125 -83.642952 -40.864876 135.03323 -41.873207 135.1145 -16.851515 173.67464
15060000000 -23.031277 -80.346947 -40.159935 95.765991 -41.349007 103.93581 -20.319624 169.6026
15080000000 -22.620823 -78.415604 -40.973228 59.336662 -41.348553 66.055992 -21.150187 161.77827
15100000000 -22.318752 -82.61998 -40.999996 24.462589 -42.382702 30.687637 -21.13641 154.72081
15120000000 -22.546318 -88.51123 -40.6987 -10.414557 -42.495472 -2.890676 -21.009781 141.53778
15140000000 -23.786953 -90.595856 -40.635387 -50.45866 -42.147911 -36.992748 -26.343199 123.7472
15160000000 -25.489975 -81.412407 -41.108673 -89.251312 -42.284096 -74.507446 -18.885294 112.82542
15180000000 -24.158432 -72.505028 -41.28759 -126.7938 -42.723099 -113.66299 -22.648251 87.702942
15200000000 -22.647827 -76.402908 -42.051739 -166.64003 -43.707108 -149.99634 -23.833992 71.442703
15220000000 -22.724442 -85.210083 -42.664036 160.78604 -44.213825 -176.8994 -22.529182 62.548618
15240000000 -23.661463 -88.842575 -42.484703 120.2463 -43.038727 145.22679 -24.147768 41.543175
15260000000 -24.170517 -79.610588 -43.374302 74.344589 -44.073803 97.39798 -21.071293 -6.2656922
15280000000 -23.335428 -78.909714 -45.00901 40.772083 -45.86702 66.1633 -21.085552 24.708115
15300000000 -22.021927 -81.574532 -45.636028 13.788962 -45.947765 42.315247 -20.885103 -10.044631
15320000000 -21.884676 -93.760925 -45.227272 -28.360367 -45.094933 1.5435356 -20.592089 -15.528647
15340000000 -22.695459 -98.611069 -46.666599 -76.370033 -46.652199 -39.656784 -19.98774 -21.414528
15360000000 -23.518366 -97.528137 -50.461628 -111.19451 -49.439793 -74.996872 -19.020027 -42.62109
15380000000 -23.373394 -95.510414 -53.306023 -119.65559 -49.009022 -83.149818 -16.212933 -52.081493
15400000000 -22.826982 -103.56904 -50.502552 -157.21442 -47.320946 -126.9791 -16.852604 -58.621315
15420000000 -22.804184 -113.61975 -52.459263 154.24557 -49.689442 -168.96072 -16.693832 -74.124367
15440000000 -23.541727 -122.25922 -58.500771 120.15239 -50.700928 173.29865 -16.76973 -70.131905
15460000000 -24.327282 -126.12643 -57.934273 143.57182 -50.202522 153.69749 -16.316338 -76.507484
15480000000 -25.032093 -127.9724 -54.193787 102.24252 -48.6661 113.20967 -14.873257 -88.323875
15500000000 -25.111122 -137.43007 -54.39415 60.436771 -48.50779 81.672737 -14.203469 -92.931549
15520000000 -25.88485 -147.85092 -59.102875 20.750706 -48.503063 41.886368 -13.658731 -91.931389
15540000000 -26.213324 -158.07222 -60.618706 56.812134 -50.933224 13.780918 -14.400664 -116.85058
15560000000 -27.069218 -163.43965 -53.688931 6.8839293 -48.566277 -10.077625 -14.122166 -112.23639
15580000000 -27.756807 -167.07144 -54.659714 -29.746458 -47.922585 -50.316387 -13.635368 -119.36748
15600000000 -28.56181 175.77458 -54.276939 -63.49897 -47.7174 -93.158478 -12.750912 -124.95849
15620000000 -30.383396 154.91061 -53.843037 -81.072655 -48.496578 -125.94791 -12.384696 -130.88058
15640000000 -31.014086 136.33421 -51.154037 -115.31312 -48.417515 -152.93286 -13.041495 -128.06656
15660000000 -30.144632 126.75258 -51.296654 -147.72725 -48.977776 171.77444 -12.632988 -150.04735
15680000000 -29.969744 118.38258 -49.834446 173.39217 -49.335361 129.45969 -12.730441 -151.83667
15700000000 -29.214743 103.76592 -49.308273 136.32851 -50.190331 103.02559 -12.301699 -157.89661
15720000000 -28.431404 86.943108 -49.360226 104.77197 -49.265976 74.983139 -12.13355 -167.83301
15740000000 -27.158453 66.091644 -48.706581 71.549706 -49.196354 37.043858 -12.353715 -170.7798
15760000000 -25.97105 61.692558 -47.907112 36.034176 -50.252293 1.9485096 -9.8882208 161.35605
15780000000 -25.682682 60.437222 -46.833389 -0.34780365 -50.265228 -7.7398381 -12.522958 169.92613
15800000000 -25.014957 55.342846 -47.034885 -36.890793 -48.225594 -48.044674 -13.175786 164.28539
15820000000 -24.378172 52.596127 -46.779701 -71.196663 -47.665909 -89.653946 -13.057555 153.41933
15840000000 -23.343874 44.640903 -45.804535 -108.12736 -49.00618 -120.29615 -13.214241 144.00937
15860000000 -22.479292 37.953594 -46.673321 -144.01172 -47.160549 -143.15205 -14.676567 139.29652
15880000000 -22.021307 36.915585 -45.596405 -172.27089 -45.574371 -178.85614 -11.871347 116.84682
15900000000 -22.151463 36.233322 -44.347519 144.56287 -45.060776 134.76431 -16.15204 117.51418
15920000000 -21.64551 35.530281 -44.490028 106.43964 -45.58559 98.230324 -17.059145 110.54052
15940000000 -21.355785 32.060349 -45.433735 71.330872 -46.056656 66.715294 -16.657129 96.643127
15960000000 -20.553192 30.181141 -44.667656 43.861263 -44.548923 36.525906 -17.57378 84.826302
15980000000 -19.832678 28.437157 -43.316372 2.3752129 -43.362705 -7.6650519 -20.226044 62.594318
16000000000 -19.305084 27.408766 -43.464062 -38.33374 -43.818104 -49.527992 -20.217436 45.09343
16020000000 -18.833733 24.712721 -43.848267 -75.576706 -44.198433 -86.35099 -28.258797 39.60553
16040000000 -18.621283 22.559221 -43.267902 -104.85271 -44.621571 -119.36821 -23.551956 23.404987
16060000000 -18.164854 23.31884 -42.463696 -145.67714 -43.660664 -159.50845 -20.350641 10.762985
16080000000 -17.120056 22.728279 -42.712196 172.17903 -44.212906 162.80298 -20.276226 -12.638939
16100000000 -16.216665 21.571642 -43.039825 134.38615 -44.169926 122.51603 -18.618092 -32.797512
16120000000 -15.605232 16.489355 -43.724556 99.73671 -45.103661 87.142303 -17.36334 -41.676865
16140000000 -15.724947 14.868586 -43.306656 63.226761 -45.960152 49.241589 -20.705986 -87.996056
16160000000 -15.521397 14.213873 -43.299145 26.238008 -45.791756 16.435961 -18.616474 -61.570374
16180000000 -14.611407 13.854322 -43.94783 -9.6101122 -45.725899 -22.446135 -16.760632 -66.254227
16200000000 -13.629081 11.167413 -43.549622 -46.328766 -45.965839 -60.78867 -15.355294 -77.36554
16220000000 -12.952199 6.9794822 -43.828278 -85.190163 -46.626965 -94.585785 -14.826799 -86.410004
16240000000 -12.749665 2.9214358 -44.387638 -119.00523 -46.100994 -125.89236 -13.67882 -83.496834
16260000000 -12.945855 2.1605704 -44.483059 -152.63055 -47.762886 -162.18105 -15.642591 -105.62071
16280000000 -12.558222 1.3674362 -43.572033 167.10471 -46.652164 162.37672 -14.019704 -100.26193
16300000000 -11.625278 -1.0573022 -44.579201 129.4068 -47.663189 121.23312 -13.205229 -106.03983
16320000000 -11.010082 -5.239625 -44.966972 96.683998 -47.957977 89.833328 -12.920567 -117.46699
16340000000 -10.705226 -9.5033779 -44.075642 61.472515 -47.565033 56.362553 -12.195409 -120.46499
16360000000 -10.696434 -11.711435 -44.641544 20.856888 -47.803535 15.220069 -12.003557 -117.60848
16380000000 -10.595679 -11.764579 -45.293873 -14.446034 -49.152325 -15.293048 -12.609796 -131.99591
16400000000 -10.016081 -13.870864 -44.875813 -53.115505 -48.861362 -54.98365 -11.669264 -131.60449
16420000000 -9.4718838 -17.245609 -45.482166 -91.171577 -49.176029 -96.450394 -11.12631 -138.4772
16440000000 -9.1542835 -21.130884 -45.889828 -134.93671 -51.727512 -138.39308 -11.339441 -147.60152
16460000000 -9.0264454 -23.41255 -46.965492 -166.87762 -53.257034 -157.62646 -10.936051 -147.82674
16480000000 -8.8668003 -24.081818 -47.299034 157.85715 -52.123615 169.52428 -11.110104 -149.70432
16500000000 -8.6088381 -25.919456 -47.642185 120.76105 -52.115482 136.47269 -10.730041 -156.29979
16520000000 -8.1829233 -28.503569 -48.458225 86.547676 -54.671871 101.02853 -10.062183 -159.31697
16540000000 -7.8004265 -31.264164 -49.805328 53.057575 -54.624077 84.723785 -10.089064 -168.47507
16560000000 -7.496356 -33.195717 -49.685009 22.088768 -52.86739 41.627548 -10.146288 -174.78279
16580000000 -7.2641573 -34.933403 -49.082508 -18.883677 -54.22163 5.7019148 -10.078856 -176.4666
16600000000 -7.1038141 -36.56813 -50.097454 -57.572159 -54.19865 -11.600367 -10.320486 177.58833
16620000000 -6.8921151 -39.141926 -50.592876 -88.425728 -52.317318 -56.04007 -10.346013 169.91486
16640000000 -6.4136205 -40.369148 -50.873905 -129.76767 -53.514729 -89.874603 -9.0434704 171.66191
16660000000 -5.923985 -42.941025 -51.326012 -160.0378 -52.62711 -121.88902 -9.4282761 158.9025
16680000000 -5.5803471 -45.710438 -52.288731 161.62935 -53.213474 -165.71434 -9.6597033 153.06465
16700000000 -5.4072738 -47.949993 -52.624249 122.51798 -53.734955 153.59265 -10.256224 147.8278
16720000000 -5.1466241 -49.451477 -54.897701 90.776566 -56.468513 123.6848 -10.13717 142.42378
16740000000 -4.825357 -52.856907 -56.375702 50.411388 -57.958046 95.607208 -8.9451113 151.51872
16760000000 -4.2286811 -55.120056 -56.851772 23.1327 -57.056751 77.920799 -10.037834 134.15569
16780000000 -3.8869371 -58.901669 -57.736385 -1.0115712 -56.120808 35.137104 -10.25033 120.06001
16800000000 -3.6765213 -61.719353 -57.082222 -37.306934 -59.88945 -8.4817142 -11.044641 112.00491
16820000000 -3.4313908 -63.718636 -57.486626 -64.95179 -56.796272 0.1826445 -11.324181 108.37994
16840000000 -3.018343 -66.48587 -58.406776 -108.81833 -56.54697 -54.103256 -11.798883 98.453262
16860000000 -2.7503424 -71.537285 -58.165089 -142.51781 -57.258274 -72.686905 -12.489864 82.676384
16880000000 -2.3982892 -74.447403 -58.802937 -175.62509 -54.402 -113.89417 -12.648423 84.098755
16900000000 -2.1716895 -77.528206 -59.88525 149.64658 -53.839687 -155.63185 -12.910123 70.966133
16920000000 -1.9577652 -80.316277 -62.899857 104.55878 -54.245987 167.67006 -14.27787 64.671143
16940000000 -1.6714249 -83.677109 -65.392441 88.788651 -54.34341 134.05975 -14.724727 60.773746
16960000000 -1.4441792 -87.543777 -64.157875 64.421959 -53.333229 86.42865 -15.110485 45.521645
16980000000 -1.2521795 -91.23304 -64.153267 38.984081 -53.887581 48.294258 -14.661373 33.154243
