!Keysight Technologies,P9374A,MY57211810,A.19.30.04
!Date: Friday, May 09, 2025 09:15:36
!Correction: S11(Cdelta 2-Port  ) 
!S21(Cdelta 2-Port  ) 
!S12(Cdelta 2-Port  ) 
!S22(Cdelta 2-Port  ) 
!S2P File: Measurements: S11, S21, S12, S22:
# Hz S  dB   R 50
13000000000 -20.358789 -83.850029 -48.555725 73.893936 -48.676483 89.385078 -18.209641 -46.493656
13020000000 -20.134975 -80.097763 -47.887074 44.627987 -47.684483 56.607685 -17.254688 -49.591171
13040000000 -20.388191 -80.763588 -48.651451 7.2984109 -47.391949 15.378413 -16.018726 -57.958897
13060000000 -20.975788 -80.657814 -48.288025 -24.355944 -46.714779 -23.662613 -14.126686 -54.746708
13080000000 -21.18535 -80.371346 -47.911903 -64.605965 -46.857811 -64.128647 -13.509375 -63.113907
13100000000 -20.687927 -82.780067 -48.551277 -104.19724 -47.871346 -106.79898 -12.559496 -66.957657
13120000000 -20.484749 -83.99823 -48.883648 -136.58342 -49.156078 -140.4214 -11.898685 -69.563705
13140000000 -20.383314 -82.328957 -48.201111 -176.56918 -48.734013 -176.31798 -10.863406 -74.731201
13160000000 -20.274553 -84.692314 -50.532242 140.48457 -49.695221 146.48099 -10.271615 -82.11261
13180000000 -20.561348 -86.653183 -50.683636 116.29116 -49.199863 114.11928 -9.219121 -84.022255
13200000000 -20.678947 -91.259163 -51.863674 80.88575 -50.399685 75.574539 -8.8957148 -91.928467
13220000000 -20.521694 -94.490898 -51.441837 49.594772 -52.009525 37.65456 -8.5834265 -102.17266
13240000000 -20.308001 -95.534027 -53.525181 20.656845 -53.73148 14.375336 -8.1212015 -99.844475
13260000000 -20.065023 -97.706413 -52.429092 -2.0346618 -55.07066 -0.051256549 -7.3099103 -111.70982
13280000000 -20.480671 -100.8068 -52.696972 -32.533405 -53.231586 -30.504021 -7.0692439 -118.32635
13300000000 -21.060839 -106.15045 -52.813313 -64.616112 -53.17384 -67.084175 -6.8990917 -125.50698
13320000000 -21.061357 -109.23441 -50.87122 -83.47963 -51.270523 -80.347992 -6.8304038 -132.37045
13340000000 -20.819427 -113.06263 -50.155331 -125.16769 -51.565506 -120.1841 -7.8981137 -140.31639
13360000000 -21.135273 -113.75199 -49.608028 -159.02808 -49.447861 -153.2135 -6.8178253 -145.76717
13380000000 -21.54784 -113.31349 -49.424511 163.45157 -49.525745 164.56186 -7.0583949 -154.40282
13400000000 -22.149046 -116.03172 -48.671535 133.50584 -49.927593 136.51723 -7.1249065 -160.50279
13420000000 -22.614763 -122.16416 -48.033646 97.860336 -47.850822 106.83666 -7.5767002 -166.60518
13440000000 -23.160194 -126.41699 -46.584869 56.37318 -46.761944 67.228928 -8.0383797 -173.54358
13460000000 -24.070744 -126.40283 -47.811489 22.796679 -47.230473 29.992331 -9.2254887 -174.49112
13480000000 -24.919357 -125.16012 -47.364101 -17.332617 -46.390434 -10.903469 -8.8389778 175.21935
13500000000 -25.360842 -124.63817 -47.050549 -49.796612 -46.100945 -48.82737 -9.1153078 168.73199
13520000000 -26.070967 -132.72943 -47.02684 -86.773705 -46.377831 -90.121803 -9.7259989 163.49373
13540000000 -26.822424 -140.28149 -46.759933 -122.16846 -46.498497 -124.78548 -10.214228 159.98012
13560000000 -28.050583 -140.73576 -45.852734 -162.23306 -46.127365 -160.3811 -10.878669 150.47173
13580000000 -28.734665 -131.82452 -46.610691 158.81969 -46.795219 159.84462 -11.546219 150.88599
13600000000 -29.070837 -127.27644 -47.009399 122.39482 -47.501839 122.50086 -11.809469 142.73395
13620000000 -29.310555 -128.91666 -47.015324 82.199631 -47.366291 89.077774 -12.54551 136.38472
13640000000 -29.988657 -133.75211 -48.102928 47.106148 -47.170238 50.294495 -12.974829 131.19128
13660000000 -30.252211 -133.63206 -49.094727 13.687809 -48.489841 6.2225285 -13.675743 130.50288
13680000000 -30.386641 -121.38271 -50.067665 -22.027613 -50.067654 -22.254066 -14.791204 120.95234
13700000000 -28.743288 -117.72041 -49.435524 -52.803036 -49.715267 -57.523525 -15.010366 116.97652
13720000000 -29.317947 -122.71358 -49.996914 -86.333839 -52.211979 -92.137497 -15.948202 105.64919
13740000000 -30.024231 -125.67174 -51.683575 -121.44999 -52.785625 -113.58896 -16.551348 98.797768
13760000000 -29.910072 -124.53772 -51.956654 -152.22562 -52.630882 -142.01057 -17.307625 94.564789
13780000000 -28.552519 -126.03445 -54.709415 -169.20598 -52.771271 -165.2166 -18.813334 89.767899
13800000000 -27.907938 -133.54338 -52.626297 166.93469 -52.256634 176.57524 -19.051514 78.763596
13820000000 -28.847406 -133.39923 -51.401051 139.68298 -52.241714 135.47197 -19.779171 68.969635
13840000000 -30.194288 -132.74696 -53.353336 110.8405 -52.840202 117.33855 -21.043446 48.316128
13860000000 -30.274305 -138.47639 -50.520096 81.713516 -49.743839 88.354622 -20.876165 37.400253
13880000000 -31.28422 -154.41064 -49.534233 51.091873 -48.890488 51.353367 -22.066446 23.188257
13900000000 -29.951355 -174.17722 -48.913509 22.396912 -48.41317 19.717611 -21.705233 5.3205743
13920000000 -30.166245 178.11717 -47.100159 -12.702626 -46.273254 -14.50431 -20.780754 -12.042141
13940000000 -30.261412 168.07544 -46.139076 -48.49493 -46.293892 -56.64439 -20.967476 -20.361195
13960000000 -30.923891 165.99022 -44.807701 -85.432381 -45.181484 -89.304642 -18.650391 -34.662609
13980000000 -31.537054 150.61868 -44.522015 -125.07655 -44.655739 -127.76453 -18.006735 -45.948578
14000000000 -31.034788 140.58824 -44.239899 -160.41252 -44.550804 -164.67728 -17.315229 -59.825512
14020000000 -29.690968 125.52832 -43.626076 160.20438 -44.34594 158.54286 -16.191563 -69.778175
14040000000 -29.953037 113.50132 -43.280819 122.59722 -43.605831 123.31966 -14.754001 -75.695259
14060000000 -29.782444 99.607208 -42.968449 85.113441 -44.109364 81.827682 -15.495796 -84.145737
14080000000 -32.094646 87.603386 -42.649902 49.451794 -43.71191 54.431324 -13.62005 -91.519157
14100000000 -31.368994 78.269371 -42.35799 10.590183 -42.857521 17.082735 -13.064609 -102.06098
14120000000 -29.724068 73.681488 -42.262947 -28.149353 -42.483433 -21.733767 -12.738409 -109.58124
14140000000 -27.235931 56.903278 -42.787926 -61.849728 -42.179527 -56.143517 -11.886933 -118.45182
14160000000 -26.882185 39.478676 -42.346058 -99.108253 -42.494591 -97.05172 -11.747496 -124.08365
14180000000 -27.913347 32.925636 -42.129765 -133.97253 -42.28241 -132.78812 -11.580485 -132.07881
14200000000 -28.560539 27.885843 -42.393726 -171.79904 -42.235714 -169.58194 -10.560245 -140.32126
14220000000 -27.252916 31.025524 -41.750706 152.46606 -42.024197 155.14507 -10.663742 -148.77376
14240000000 -25.450802 24.453167 -42.420803 114.36881 -42.360554 117.89244 -10.586731 -157.55481
14260000000 -24.411821 12.421262 -42.502739 81.476585 -42.146866 85.752068 -10.021068 -164.01553
14280000000 -25.15889 5.4472795 -42.819408 46.231617 -42.20536 48.234306 -10.502141 -168.26129
14300000000 -26.502777 3.0006595 -42.575172 11.506065 -42.254959 9.3335085 -9.9169827 -178.80881
14320000000 -26.178177 10.591908 -42.497658 -20.767113 -42.884174 -21.858036 -9.9506941 171.82681
14340000000 -24.916887 5.3281531 -42.109676 -55.367607 -41.876694 -53.774933 -10.451266 163.68054
14360000000 -24.641602 -1.5527562 -41.879768 -91.860352 -41.843494 -92.6381 -10.459951 156.28543
14380000000 -25.099911 -8.2360268 -42.309929 -128.17151 -42.029537 -127.93029 -10.497504 152.40042
14400000000 -26.366261 -8.4487448 -41.911232 -159.74348 -41.67017 -161.92406 -10.832566 144.62553
14420000000 -25.999832 -9.6524534 -41.468212 164.14975 -41.817272 163.92911 -11.887007 137.32159
14440000000 -25.933439 -4.9746962 -41.118698 127.95625 -41.103745 125.87349 -11.276876 127.24323
14460000000 -24.893993 -9.9429922 -40.889961 93.153847 -40.974255 91.486603 -12.029624 120.09341
14480000000 -24.516123 -14.506653 -40.473633 56.97261 -40.904453 53.429153 -12.474905 114.15519
14500000000 -25.011827 -16.115595 -40.16386 17.321518 -41.040562 14.749373 -13.001685 109.80092
14520000000 -24.562145 -14.040769 -40.372231 -20.747505 -41.376026 -17.332764 -13.770314 103.24528
14540000000 -24.54158 -12.239104 -40.610035 -55.882675 -41.465862 -50.705051 -14.648311 90.640495
14560000000 -23.762325 -10.264675 -41.039391 -91.852104 -41.093941 -86.980331 -14.13595 85.571938
14580000000 -22.451752 -13.405816 -40.79155 -127.71809 -40.890076 -122.38287 -15.130722 77.859352
14600000000 -22.406183 -17.521437 -40.633305 -162.33501 -40.913147 -160.92688 -16.072729 71.977913
14620000000 -22.965427 -16.90518 -41.033062 162.29297 -41.167545 165.56291 -16.204477 65.842209
14640000000 -22.063986 -15.667541 -40.583244 126.49564 -40.891705 130.30026 -18.083452 53.660755
14660000000 -21.600517 -16.7085 -40.699417 89.76873 -41.051689 96.754807 -16.882442 47.465523
14680000000 -20.707489 -21.046124 -40.809856 55.784042 -40.757931 62.245125 -18.080269 37.40905
14700000000 -20.248713 -25.874897 -40.354004 20.258184 -40.055336 26.55419 -19.419292 26.401926
14720000000 -20.733114 -28.442289 -40.570965 -17.869408 -39.927639 -11.95977 -19.5812 19.955015
14740000000 -21.118135 -29.52055 -40.902279 -50.60445 -40.175522 -49.74081 -20.67444 9.8646498
14760000000 -20.340677 -30.214373 -40.609997 -84.003983 -40.028179 -83.691757 -20.764824 -20.583994
14780000000 -19.593967 -35.908741 -40.10392 -121.4605 -39.651348 -121.39774 -20.774321 -11.249368
14800000000 -19.342682 -43.138035 -40.274719 -161.1945 -39.877708 -160.94826 -21.080755 -36.300465
14820000000 -19.608067 -47.97842 -40.86681 164.71948 -40.363407 164.05603 -21.730677 -44.298767
14840000000 -20.096609 -52.113159 -40.413513 130.42856 -40.213547 128.91289 -21.589413 -50.834049
14860000000 -20.074114 -52.822544 -40.351784 94.911743 -40.404804 95.556389 -21.776215 -71.565765
14880000000 -19.398596 -55.086937 -40.369583 57.493042 -40.257626 57.418224 -19.163158 -88.458832
14900000000 -19.022446 -61.013752 -40.517685 20.273878 -40.131752 19.236036 -19.767355 -97.170647
14920000000 -19.003099 -65.715981 -40.548096 -11.497198 -40.32933 -14.365527 -19.267977 -125.97963
14940000000 -19.752165 -71.479286 -40.126293 -48.185753 -40.160091 -51.100708 -20.648777 -121.35374
14960000000 -20.664257 -72.669998 -39.822769 -86.322075 -40.078465 -87.061127 -20.831718 -128.18394
14980000000 -20.954508 -69.002014 -40.207684 -124.06335 -40.655083 -124.29931 -19.633621 -140.48193
15000000000 -20.424253 -71.187897 -39.961815 -161.52982 -40.167358 -161.23526 -18.676718 -148.81648
15020000000 -20.114227 -78.547188 -40.168846 160.57349 -40.386528 159.54355 -19.303825 -150.85008
15040000000 -21.443031 -86.596947 -40.307076 125.70576 -40.795227 123.41593 -16.487492 174.18962
15060000000 -23.127024 -87.242706 -40.16143 88.529274 -40.931393 91.16539 -19.901505 171.33093
15080000000 -23.695618 -79.325989 -40.263725 51.548161 -40.335476 55.399979 -20.653988 164.3902
15100000000 -23.029741 -77.280899 -40.437023 10.496554 -40.40197 12.810251 -20.577864 158.20917
15120000000 -22.276009 -81.716988 -41.142979 -26.618328 -40.903072 -26.183701 -20.496943 145.50174
15140000000 -22.918247 -89.674698 -41.097263 -59.388809 -41.218678 -62.412445 -25.507559 131.12744
15160000000 -25.027367 -88.712837 -41.342148 -99.475845 -42.213356 -99.232086 -18.663322 115.41771
15180000000 -24.827383 -78.092133 -41.947254 -136.27553 -42.200871 -130.51323 -22.778063 91.774178
15200000000 -23.879126 -75.011497 -42.163437 -174.77013 -42.107166 -171.0722 -24.357941 78.452873
15220000000 -23.394577 -78.097504 -42.568039 148.8046 -42.788967 150.12903 -22.869225 69.245773
15240000000 -22.806656 -83.364326 -43.474537 111.77902 -43.447243 113.30483 -24.637564 47.760872
15260000000 -23.10527 -86.498642 -43.415031 76.091949 -43.844055 79.454689 -21.631023 -5.6120849
15280000000 -23.653799 -89.038391 -44.355721 37.229774 -44.383923 42.212357 -21.584789 27.19385
15300000000 -23.252768 -83.547752 -44.563057 5.4511781 -44.261395 3.8959191 -21.516941 -10.167099
15320000000 -22.408688 -86.321236 -44.644909 -31.806355 -45.214287 -32.44173 -21.32412 -15.286298
15340000000 -21.947317 -91.740326 -45.418007 -73.766731 -46.436287 -72.659348 -20.620239 -20.654076
15360000000 -22.102362 -98.279922 -47.095928 -109.11493 -47.778294 -103.99977 -19.451103 -42.974949
15380000000 -23.267952 -105.0001 -47.254234 -131.75522 -46.947136 -128.26303 -16.464159 -52.789928
15400000000 -24.168303 -106.79915 -46.959091 -178.38345 -46.977661 -176.73645 -17.119541 -59.628513
15420000000 -23.92742 -107.20721 -48.807709 143.28088 -48.646015 143.95135 -16.872578 -75.555527
15440000000 -23.25334 -116.05193 -49.182499 107.68327 -49.730297 113.32878 -16.9603 -71.348579
15460000000 -23.437218 -124.30548 -50.763889 74.476204 -51.985363 81.686882 -16.445896 -77.89212
15480000000 -24.442297 -132.96187 -52.214584 38.480957 -52.037777 53.740578 -14.987064 -89.307098
15500000000 -25.603802 -144.41251 -54.024837 2.678514 -52.217331 23.082298 -14.197492 -93.590446
15520000000 -27.005352 -146.97214 -54.348427 -34.355057 -52.798729 -12.899354 -13.648347 -92.943634
15540000000 -26.780657 -154.04085 -58.776886 -61.316029 -54.88678 -44.188396 -14.335143 -117.91745
15560000000 -27.04776 -159.09982 -62.786835 -66.558907 -55.139374 -81.42382 -14.078804 -113.0816
15580000000 -27.19735 -166.18547 -59.543068 -78.458588 -56.540119 -112.37939 -13.545483 -120.02496
15600000000 -27.708416 170.7878 -59.729916 -108.39423 -59.133942 -150.47551 -12.615536 -125.84618
15620000000 -29.752163 148.83575 -56.939091 -125.49253 -60.776039 -134.61125 -12.305218 -131.64984
15640000000 -31.082392 128.26691 -56.500244 -164.18736 -57.341202 -169.93404 -12.930844 -128.71405
15660000000 -31.494305 127.88059 -56.74416 173.02043 -58.470085 163.38127 -12.475972 -150.09222
15680000000 -30.167551 128.2697 -55.785805 137.04152 -59.164131 108.54054 -12.493525 -152.13113
15700000000 -28.783241 108.60729 -54.884712 112.48559 -61.408012 126.60947 -12.086691 -158.56236
15720000000 -27.862631 86.761505 -53.936363 80.30677 -55.049591 93.129341 -11.940964 -168.00998
15740000000 -26.693041 63.462349 -51.701138 43.889629 -52.665474 50.820393 -12.09829 -170.99219
15760000000 -26.226311 54.502209 -52.479683 -1.2919697 -54.503246 2.1152508 -9.6932096 161.63205
15780000000 -25.820051 60.36565 -52.81538 -27.046236 -53.998886 -0.9949671 -12.272326 169.99794
15800000000 -24.792286 57.543217 -52.00716 -62.107677 -51.157028 -53.550793 -12.918984 164.36064
15820000000 -23.948353 53.290051 -52.887173 -88.570236 -52.448719 -77.927261 -12.814769 153.76089
15840000000 -23.0721 44.03495 -50.674603 -118.96114 -49.789593 -116.59522 -12.958326 144.40681
15860000000 -22.403406 38.490955 -50.677521 -164.02417 -50.104832 -163.50783 -14.412812 139.57813
15880000000 -22.000309 37.420448 -50.337845 168.58051 -51.019482 170.84996 -11.731106 117.39606
15900000000 -22.052601 36.906399 -50.387794 129.74113 -50.552376 141.507 -15.962695 118.22565
15920000000 -21.698832 35.3657 -49.723534 97.860931 -49.282635 99.832611 -16.946709 111.62984
15940000000 -21.445148 33.020725 -49.405235 60.792072 -49.263596 64.401749 -16.644842 97.723114
15960000000 -20.436321 31.199697 -48.448242 33.329624 -48.70142 36.233265 -17.673607 86.144363
15980000000 -19.491302 29.088533 -47.614304 -9.8447657 -47.560154 -7.0494432 -20.541634 63.712914
16000000000 -19.166996 26.046057 -48.709084 -46.071312 -48.555759 -41.921387 -20.698128 45.678787
16020000000 -19.194746 23.752871 -47.275326 -72.600151 -46.857399 -72.823891 -29.820772 40.594067
16040000000 -18.928345 24.656549 -46.308636 -119.53203 -47.576633 -118.67863 -24.462511 20.966539
16060000000 -17.938644 24.984047 -46.512913 -153.56892 -47.051872 -145.58229 -21.172274 7.8131499
16080000000 -16.785894 21.967371 -46.030331 171.21643 -45.82737 173.66229 -21.047012 -16.943411
16100000000 -16.276386 19.404875 -46.102077 129.46997 -45.907734 134.00841 -19.07184 -37.696056
16120000000 -15.963603 15.61322 -46.447258 93.925568 -46.039299 99.267105 -17.695526 -46.818115
16140000000 -15.880082 16.549 -46.178688 55.042492 -46.638523 58.412189 -20.313459 -95.469307
16160000000 -15.174619 14.776394 -46.148613 19.4179 -46.123894 22.912552 -18.854277 -69.135735
16180000000 -14.364924 12.54932 -46.325645 -20.237862 -45.829159 -19.17001 -17.126091 -72.475822
16200000000 -13.650393 9.7343168 -46.460445 -58.432507 -46.315495 -58.352989 -15.536681 -82.630547
16220000000 -13.181492 7.1898065 -46.829857 -95.768288 -46.538601 -94.099251 -14.864765 -92.11705
16240000000 -12.776206 4.3387303 -47.211418 -129.31693 -46.947315 -125.31914 -13.883682 -89.032295
16260000000 -12.707944 2.8456466 -46.794559 -149.89891 -47.727943 -162.03993 -15.577946 -111.5038
16280000000 -12.382813 1.0209608 -46.245003 169.9328 -46.735588 160.91219 -14.081414 -106.30077
16300000000 -11.728096 -1.6758146 -46.805809 131.22289 -48.0611 118.90197 -13.351162 -111.53992
16320000000 -11.188069 -4.8672457 -47.012535 95.807617 -48.798824 83.359375 -12.960316 -122.89122
16340000000 -10.735218 -8.8384905 -47.183884 56.03318 -48.743492 54.310287 -12.244831 -125.76415
16360000000 -10.580674 -11.21258 -47.981911 23.393978 -48.920536 15.176921 -12.191095 -122.8315
16380000000 -10.515985 -12.218406 -47.67165 -11.147231 -49.302624 -13.673543 -12.587387 -137.30353
16400000000 -10.075689 -14.278112 -47.32856 -47.800789 -49.227894 -54.538406 -11.808306 -136.67033
16420000000 -9.5848856 -17.341892 -46.812794 -86.432152 -49.814934 -91.673798 -11.248542 -143.29933
16440000000 -9.1620808 -20.62219 -47.651508 -130.15701 -50.942268 -129.70068 -11.432876 -152.12262
16460000000 -8.9343357 -23.391424 -48.824532 -167.76651 -52.17815 -159.63783 -11.040034 -152.34592
16480000000 -8.8167009 -24.382473 -49.478859 157.16235 -51.863674 174.57428 -11.277243 -154.50826
16500000000 -8.6371431 -25.882689 -49.989891 124.28498 -52.043861 135.7207 -10.911758 -160.72949
16520000000 -8.2363472 -28.184036 -51.772861 90.02655 -53.315792 106.53426 -10.222822 -163.06709
16540000000 -7.7761598 -30.943974 -52.730553 63.922428 -53.424549 80.67617 -10.245902 -172.19075
16560000000 -7.4253988 -33.619122 -51.941193 31.451395 -53.335987 50.258335 -10.299937 -178.14134
16580000000 -7.2600479 -35.113659 -52.565052 -10.503581 -52.685406 19.965357 -10.225524 -179.68964
16600000000 -7.1464663 -36.394955 -52.899929 -39.317902 -51.167259 -10.806681 -10.475732 174.44879
16620000000 -6.8466835 -38.417686 -53.600872 -65.448631 -50.214264 -48.518078 -10.502965 167.11452
16640000000 -6.3148141 -40.564262 -52.965187 -90.583824 -49.659405 -83.73703 -9.1839371 169.43456
16660000000 -5.9426212 -43.258991 -51.175888 -125.64268 -49.078686 -121.61529 -9.5537395 156.84538
16680000000 -5.6539044 -45.540215 -51.809299 -170.32932 -49.289349 -165.05054 -9.765317 151.39687
16700000000 -5.4338956 -47.29047 -52.663532 157.72476 -49.651859 162.13599 -10.321124 146.38618
16720000000 -5.0935616 -49.096237 -51.341663 131.43329 -48.17305 129.95032 -10.178647 140.98141
16740000000 -4.7865834 -53.330399 -50.87096 88.911957 -48.604794 82.464561 -8.990037 150.78467
16760000000 -4.3068733 -55.594002 -53.554649 55.918495 -50.120743 48.685856 -10.042949 133.26501
16780000000 -3.968842 -58.651688 -50.725342 34.232422 -49.188629 12.964533 -10.232933 119.4097
16800000000 -3.6477258 -61.179031 -49.86158 -14.289588 -49.021366 -30.267822 -11.012575 111.62472
16820000000 -3.3487043 -63.832546 -50.743126 -48.346321 -49.726574 -63.892143 -11.250326 107.96345
16840000000 -3.018894 -66.947746 -49.724983 -89.771965 -49.488071 -105.2485 -11.783113 98.10199
16860000000 -2.8084471 -71.647079 -49.816044 -126.33169 -51.106422 -139.95027 -12.488295 82.877182
16880000000 -2.4405713 -74.095734 -50.017174 -167.4359 -51.154858 175.76089 -12.596299 84.50563
16900000000 -2.1322515 -77.240372 -50.364452 155.68703 -51.206573 141.33014 -12.909376 71.587265
16920000000 -1.9158363 -80.540489 -50.589809 115.58258 -52.205715 101.11808 -14.299551 65.624336
16940000000 -1.6868312 -83.965965 -50.775234 78.207214 -52.123886 68.964806 -14.790886 62.140659
16960000000 -1.4843588 -87.501236 -50.569283 39.024273 -52.641834 26.341024 -15.282241 47.342976
16980000000 -1.2441757 -91.003204 -51.061954 -10.342718 -53.815445 -18.272339 -14.859599 34.848389
