!Keysight Technologies,P9374A,MY57211810,A.19.30.04
!Date: Friday, May 09, 2025 09:15:07
!Correction: S11(Cdelta 2-Port  ) 
!S21(Cdelta 2-Port  ) 
!S12(Cdelta 2-Port  ) 
!S22(Cdelta 2-Port  ) 
!S2P File: Measurements: S11, S21, S12, S22:
# Hz S  dB   R 50
13000000000 -20.442736 -82.397057 -45.010017 77.348778 -46.310596 77.407623 -18.393175 -22.23267
13020000000 -20.192795 -80.983299 -44.762981 38.346199 -46.86319 40.856819 -17.382814 -28.829815
13040000000 -20.136036 -81.256729 -45.657921 -5.9145403 -47.762741 1.8952832 -16.268539 -40.740421
13060000000 -20.817135 -82.240158 -46.514519 -38.610661 -47.237839 -25.784578 -14.134766 -41.540573
13080000000 -21.317091 -82.359787 -47.381924 -74.733597 -47.348095 -66.647453 -13.594395 -51.656464
13100000000 -21.348368 -83.327171 -49.230213 -106.26494 -48.092216 -103.84466 -12.629488 -57.115845
13120000000 -20.559572 -82.829117 -49.803574 -134.47269 -50.513306 -142.26062 -11.906281 -61.92947
13140000000 -20.240171 -82.537781 -50.270077 -167.62315 -51.66811 -164.30646 -10.844126 -68.079079
13160000000 -19.955019 -85.036781 -52.059601 164.7348 -52.726475 177.20714 -10.296251 -76.920181
13180000000 -20.337122 -89.968628 -51.76334 151.67957 -52.047806 158.53738 -9.2358332 -80.070068
13200000000 -20.84284 -94.330811 -51.31002 127.02252 -50.520027 130.07855 -8.9625387 -88.866859
13220000000 -20.785902 -93.34716 -49.093014 101.12346 -49.425037 100.11859 -8.6717405 -99.85656
13240000000 -20.245724 -91.814522 -47.649258 72.665375 -48.173141 71.401756 -8.2584438 -98.145554
13260000000 -19.761372 -96.003609 -46.031685 30.034431 -46.796139 32.719769 -7.4665303 -110.51632
13280000000 -20.209049 -102.88905 -45.141708 -6.6083889 -45.624466 -1.922748 -7.2573748 -117.52173
13300000000 -21.076977 -108.81154 -44.730328 -42.969551 -45.129169 -39.785164 -7.1000643 -124.99966
13320000000 -21.445824 -109.48058 -44.09354 -79.663864 -44.601868 -73.927681 -7.0430908 -132.08855
13340000000 -21.195238 -109.17795 -44.63081 -118.60472 -45.174881 -115.67424 -8.0967884 -140.17606
13360000000 -21.101849 -110.84531 -43.611885 -152.36458 -43.661198 -146.72562 -7.0014434 -145.73308
13380000000 -21.423716 -115.53238 -43.115017 167.6532 -43.348621 173.14006 -7.2065158 -154.51027
13400000000 -22.214121 -120.15633 -43.258087 130.68642 -43.348454 135.6131 -7.2305093 -160.83894
13420000000 -22.843931 -123.39738 -43.146492 94.730652 -43.10099 101.35683 -7.6349258 -167.12788
13440000000 -23.350704 -125.887 -42.832222 59.589603 -42.638233 65.228447 -8.0230827 -174.3558
13460000000 -24.408249 -125.40784 -43.324169 26.247246 -43.337486 31.308081 -9.1394358 -175.76653
13480000000 -25.050934 -124.37958 -43.488548 -13.900183 -42.841621 -9.5172138 -8.6993456 173.40778
13500000000 -24.962158 -125.23272 -43.36533 -46.160152 -42.720726 -43.757404 -8.9274244 166.47063
13520000000 -25.070171 -135.12389 -42.775711 -81.422028 -42.278694 -80.757813 -9.4872799 160.66983
13540000000 -26.654413 -145.73897 -42.627499 -120.4134 -42.079662 -119.95711 -9.9244118 156.49818
13560000000 -29.311735 -141.95074 -42.736542 -158.87299 -42.404617 -157.89473 -10.494189 146.53268
13580000000 -29.168665 -122.60829 -43.100933 165.7213 -43.006107 169.32924 -11.087491 146.2077
13600000000 -27.347452 -123.55537 -43.374199 133.51576 -42.989746 132.14656 -11.306113 137.38098
13620000000 -27.56259 -134.91089 -43.220314 97.21508 -42.812824 98.094963 -11.965769 130.27798
13640000000 -30.139009 -141.25096 -43.157803 61.923111 -42.801987 62.129066 -12.304358 124.2325
13660000000 -32.100903 -119.29745 -43.39666 24.900055 -42.564896 24.213495 -13.001649 122.27253
13680000000 -30.633472 -109.29884 -43.399815 -8.2113075 -43.0714 -9.531498 -13.884038 112.72822
13700000000 -28.321045 -117.22766 -43.360222 -47.347042 -43.045422 -48.288231 -14.074275 107.33337
13720000000 -29.295864 -129.86209 -43.506805 -85.010246 -43.626183 -87.246208 -14.689645 95.119705
13740000000 -30.208323 -127.93471 -44.557518 -120.61766 -44.119518 -121.52647 -15.083009 88.159157
13760000000 -29.930164 -124.25175 -45.037758 -158.89371 -44.162735 -156.49579 -15.655963 82.802368
13780000000 -29.238701 -128.48212 -46.378822 170.30585 -44.824207 168.30887 -16.824148 76.138206
13800000000 -28.829258 -135.59486 -46.862801 139.23064 -45.231201 131.79213 -16.851778 66.291122
13820000000 -28.841688 -129.33199 -47.288063 109.08335 -46.626537 94.387299 -17.319225 57.094425
13840000000 -28.786293 -134.1662 -48.197285 77.745117 -48.271717 63.078915 -18.084845 39.5481
13860000000 -29.447269 -147.40791 -48.086388 50.374065 -48.182728 41.153885 -17.796383 31.380829
13880000000 -31.108522 -166.91885 -48.504593 26.778759 -48.02388 12.937961 -18.551283 19.837061
13900000000 -31.03908 176.95264 -48.225552 6.7187696 -47.533066 -17.699451 -18.307547 5.7671685
13920000000 -31.327423 -171.28874 -46.112488 -29.0341 -47.325146 -50.650196 -17.876192 -8.0756264
13940000000 -29.198074 -177.53882 -45.232067 -63.391014 -47.748047 -84.641212 -18.171541 -16.075954
13960000000 -29.108292 169.81476 -44.235039 -92.628983 -47.188477 -109.73713 -16.534533 -28.938774
13980000000 -30.229544 142.33769 -43.592617 -132.71051 -47.147606 -145.78226 -16.181627 -40.07832
14000000000 -31.326435 121.24717 -43.265381 -167.23314 -46.530109 -173.84561 -15.880612 -53.233025
14020000000 -31.814882 120.97961 -42.729328 156.50549 -45.690758 152.75795 -15.099011 -63.874237
14040000000 -31.171083 123.46074 -42.523109 123.31225 -45.256363 120.61607 -13.922679 -71.056648
14060000000 -29.750671 109.3383 -41.959656 89.555428 -45.467731 86.712753 -14.829366 -79.683022
14080000000 -30.366865 87.798569 -41.142448 53.328846 -44.24295 54.621479 -13.132456 -87.812912
14100000000 -29.736959 68.067169 -40.673698 16.558893 -43.532639 19.802147 -12.719649 -98.924019
14120000000 -28.94523 64.614113 -40.334126 -20.644516 -43.240952 -15.915328 -12.51838 -107.1481
14140000000 -27.938131 54.021061 -40.398579 -56.588272 -43.094856 -47.496208 -11.804555 -116.39286
14160000000 -27.51572 41.705418 -39.736156 -94.778824 -42.974403 -82.472771 -11.689899 -122.64391
14180000000 -28.014271 40.443432 -39.489548 -128.86122 -41.806931 -117.54553 -11.638781 -131.13617
14200000000 -27.481085 33.82093 -39.149933 -165.93047 -40.721115 -154.75302 -10.661137 -139.68651
14220000000 -26.378265 31.004465 -38.852337 155.29419 -40.485371 166.25488 -10.80952 -148.42699
14240000000 -25.38114 21.563435 -38.839924 117.50984 -40.225853 129.34546 -10.781387 -157.39113
14260000000 -25.062456 11.177881 -38.754108 80.466805 -40.02359 93.637779 -10.178767 -163.92229
14280000000 -26.081633 8.4055548 -38.862156 41.7677 -40.279305 57.554432 -10.626708 -168.62267
14300000000 -26.854301 8.3284855 -39.112968 7.0463095 -39.598705 23.197229 -10.057915 -179.51717
14320000000 -25.681229 8.3183565 -39.029175 -28.720495 -39.423706 -16.140169 -10.076274 171.02083
14340000000 -24.781855 -0.030250818 -39.193604 -66.078064 -38.940094 -53.347404 -10.505579 162.85725
14360000000 -24.46501 -4.7915597 -39.345013 -99.677284 -38.789749 -89.829727 -10.415807 155.09122
14380000000 -25.381069 -8.4339743 -39.4081 -133.54997 -38.628098 -124.13366 -10.401361 150.91165
14400000000 -26.304811 -4.5259461 -38.875126 -170.38066 -38.345085 -164.51512 -10.667953 142.79616
14420000000 -25.641565 -7.251039 -39.402794 154.24052 -38.842422 158.80927 -11.606575 135.15083
14440000000 -25.467216 -8.178688 -38.841957 119.88682 -38.170376 121.7175 -10.916527 124.92693
14460000000 -24.878412 -11.576463 -38.933498 82.916206 -38.32338 85.127464 -11.542219 117.89248
14480000000 -24.532278 -12.693945 -38.945114 46.549301 -38.326859 46.04155 -11.835683 111.49339
14500000000 -24.720219 -14.077435 -38.877975 10.202383 -38.458855 9.6875725 -12.28466 106.61608
14520000000 -24.508448 -14.806333 -38.766174 -26.274494 -38.60347 -27.398617 -12.929724 99.796806
14540000000 -24.590561 -10.354402 -38.940552 -62.08358 -39.016426 -62.791397 -13.612996 87.611267
14560000000 -23.59955 -7.4366169 -38.809849 -99.969009 -39.35675 -103.52659 -13.107937 82.486908
14580000000 -22.41412 -12.262892 -39.223518 -134.32587 -39.712059 -136.45186 -13.860635 74.829155
14600000000 -22.656662 -17.683409 -39.174732 -168.09023 -40.061039 -168.4971 -14.593013 68.339523
14620000000 -23.241419 -17.505009 -39.422981 155.87463 -40.43594 157.06758 -14.67432 61.777573
14640000000 -22.490673 -15.71973 -39.614529 119.48069 -40.29681 125.01031 -16.103992 50.79282
14660000000 -21.592783 -15.215003 -39.991352 84.699173 -40.480419 93.46904 -14.969345 45.176918
14680000000 -20.607412 -21.322369 -39.826103 53.054638 -39.606209 58.083794 -15.780606 35.462143
14700000000 -20.382883 -28.515707 -39.388897 17.081579 -39.142574 21.179604 -16.799656 25.846092
14720000000 -21.128462 -30.89893 -39.174217 -16.481709 -38.825073 -15.834269 -16.735182 19.752663
14740000000 -21.171957 -29.487907 -38.916794 -53.838879 -38.93119 -54.407864 -17.568462 10.229527
14760000000 -20.149853 -30.977942 -38.939564 -91.888756 -39.248283 -91.390015 -17.957514 -12.403823
14780000000 -19.312723 -36.794067 -38.763241 -127.59008 -39.123089 -127.16127 -17.824259 -6.9776263
14800000000 -19.037037 -43.015617 -39.038086 -167.01427 -39.30637 -165.52866 -18.279816 -26.184626
14820000000 -19.708176 -48.530209 -39.412971 156.82959 -39.770283 159.74632 -18.88236 -33.0909
14840000000 -20.385206 -50.906601 -39.384789 120.5391 -39.979691 123.96748 -18.952503 -39.200844
14860000000 -19.937124 -51.513359 -39.77673 84.53244 -40.600662 88.985062 -19.640839 -55.551868
14880000000 -19.13236 -54.722042 -39.958641 49.702862 -40.51926 56.599438 -18.096745 -73.845039
14900000000 -18.970406 -61.109787 -40.224483 11.812334 -40.796516 21.938414 -18.86791 -81.686775
14920000000 -19.359478 -66.068863 -40.29813 -22.61669 -40.211746 -11.725954 -19.559727 -110.56444
14940000000 -20.043953 -70.894676 -40.8172 -59.307121 -40.0667 -48.272827 -20.795635 -104.25441
14960000000 -20.560986 -71.253029 -41.544983 -92.198555 -40.172718 -81.341774 -21.240082 -111.04803
14980000000 -20.606853 -69.730515 -41.811764 -124.03051 -40.179127 -117.3168 -20.574139 -127.74844
15000000000 -20.626947 -73.248932 -41.471439 -156.83537 -39.348694 -151.75775 -19.947409 -137.93295
15020000000 -20.747383 -78.503761 -41.262737 166.53662 -38.880325 169.78981 -20.656965 -138.70918
15040000000 -21.439293 -84.651627 -41.81242 131.3649 -38.805996 130.15707 -18.049255 177.0376
15060000000 -22.700628 -86.97126 -41.362846 99.056816 -38.889614 92.149818 -22.199617 174.56464
15080000000 -23.534552 -82.940201 -40.897011 63.573196 -39.091583 53.087955 -23.18815 164.85339
15100000000 -23.340256 -80.677307 -41.139427 23.155792 -39.488518 13.015833 -23.339861 155.99908
15120000000 -22.599104 -81.835571 -41.485157 -11.703922 -40.319084 -23.320951 -23.115479 140.59172
15140000000 -22.46401 -85.549477 -41.828064 -46.31665 -40.430355 -57.674187 -29.392502 113.20893
15160000000 -24.07412 -87.533562 -42.119324 -82.894196 -40.516445 -95.813698 -19.826069 106.36369
15180000000 -25.029078 -83.396805 -42.073021 -116.54787 -40.895794 -132.90428 -23.187859 73.693497
15200000000 -24.630093 -73.304886 -42.029285 -152.34865 -41.575512 -169.58714 -23.785254 56.268013
15220000000 -23.129557 -75.430115 -42.286694 172.47066 -42.363724 153.46677 -22.106964 50.71191
15240000000 -22.326496 -81.831635 -42.307755 134.54752 -42.51582 120.84444 -22.693497 29.754271
15260000000 -23.014837 -86.769447 -42.630604 94.644112 -42.740433 81.380096 -19.33367 -7.4646635
15280000000 -24.052156 -88.407112 -43.847488 59.592945 -43.758617 45.426552 -19.514252 17.243715
15300000000 -23.439606 -82.475525 -44.006271 28.286243 -44.246571 15.020778 -18.98284 -11.364161
15320000000 -22.400288 -86.439552 -44.503845 -4.6989827 -44.617977 -20.514904 -18.711229 -15.330158
15340000000 -22.138069 -92.344589 -44.820065 -40.274338 -44.542881 -50.870804 -18.025948 -20.319408
15360000000 -22.377394 -98.477837 -44.220478 -73.697746 -44.251492 -88.508194 -17.212456 -38.488274
15380000000 -23.039408 -103.48949 -45.218067 -112.89216 -44.744709 -126.5599 -14.844683 -47.887627
15400000000 -23.408869 -109.18073 -45.592773 -143.90616 -45.096371 -164.62369 -15.372314 -53.627819
15420000000 -24.039286 -112.74012 -45.680046 179.09409 -45.953865 157.96797 -15.352403 -67.115784
15440000000 -24.057268 -114.95949 -46.211098 143.32593 -46.549065 126.46197 -15.315085 -64.090378
15460000000 -23.505692 -120.18028 -47.14909 115.46472 -46.458961 92.271126 -14.863846 -70.47538
15480000000 -23.55838 -129.8506 -46.953056 82.992249 -46.864574 50.244701 -13.741349 -81.958542
15500000000 -24.651213 -146.99893 -46.482212 46.959606 -47.612186 12.05262 -13.113092 -86.805634
15520000000 -27.212246 -152.46881 -47.243759 10.139461 -48.775047 -23.616329 -12.54889 -86.527275
15540000000 -28.008097 -155.43011 -47.786556 -25.394053 -50.335121 -61.701805 -13.576706 -109.57881
15560000000 -27.549616 -151.30881 -47.699722 -60.545067 -50.617687 -91.67971 -13.187574 -105.48329
15580000000 -26.667358 -160.06464 -48.977543 -98.90451 -52.12011 -131.93651 -12.779795 -112.92565
15600000000 -27.070984 170.32639 -49.760025 -132.68428 -53.661346 -168.33827 -12.01293 -119.12862
15620000000 -29.269054 140.10193 -50.385601 -160.31866 -55.001068 163.50499 -11.753101 -125.25765
15640000000 -31.468102 120.57881 -50.68438 167.27646 -58.586758 128.17482 -12.299991 -122.7426
15660000000 -31.754086 126.8029 -52.71603 133.33624 -63.794029 118.80838 -12.306059 -144.27107
15680000000 -31.145931 128.16522 -54.76675 106.53412 -60.473579 94.55864 -12.277593 -146.33824
15700000000 -29.185499 111.60602 -53.788589 90.490845 -60.244427 65.691032 -11.959469 -153.37418
15720000000 -27.384388 89.279762 -53.099648 67.012009 -63.420395 68.827637 -11.941072 -163.57257
15740000000 -26.064993 64.23098 -54.321056 33.090496 -62.102169 69.741302 -12.172655 -166.73528
15760000000 -25.798353 56.296329 -53.160995 23.90712 -57.169571 37.833721 -9.9305401 163.82654
15780000000 -25.740408 57.041077 -50.614719 -9.9872484 -54.394329 -0.68667746 -12.563497 172.25047
15800000000 -25.435369 55.493542 -49.797638 -44.609207 -52.916809 -46.547989 -13.273042 166.14896
15820000000 -24.736744 55.36319 -48.865231 -80.764992 -54.426949 -76.988846 -13.203977 154.70363
15840000000 -23.067642 50.053448 -48.064812 -116.02885 -53.817616 -99.324242 -13.317845 144.13293
15860000000 -21.678858 38.439419 -47.409023 -150.41678 -51.675003 -131.26556 -14.915569 138.10867
15880000000 -21.703148 32.102703 -46.35125 173.83339 -49.243561 -166.74771 -12.014328 115.17106
15900000000 -22.542253 31.744291 -46.533428 133.81401 -48.957123 156.06874 -16.413004 113.54266
15920000000 -22.340334 38.989269 -45.980778 103.32496 -48.285454 115.54436 -17.402973 104.96637
15940000000 -21.276552 38.064667 -45.451759 65.944725 -47.619503 80.157219 -16.766151 89.267159
15960000000 -19.923191 31.569849 -45.10894 28.60449 -46.738533 44.934082 -17.676624 74.964241
15980000000 -19.268665 25.044115 -44.729851 -7.0090704 -46.057293 8.3258324 -19.616873 48.263664
16000000000 -19.410513 23.043249 -44.959599 -42.041203 -45.684521 -31.16213 -19.137085 31.212261
16020000000 -19.531563 25.452919 -44.38089 -75.424942 -45.405701 -69.127945 -24.795902 8.9574776
16040000000 -18.763861 27.813387 -43.977722 -111.15784 -45.449104 -106.78326 -21.250235 4.595221
16060000000 -17.607897 25.056246 -43.516109 -150.34134 -44.886406 -143.23882 -18.317631 -3.7685816
16080000000 -16.660812 20.913477 -43.152809 176.89778 -44.479275 -179.68011 -17.76729 -23.391735
16100000000 -16.302254 18.744394 -42.992397 138.58372 -44.081726 141.31331 -16.217655 -38.907742
16120000000 -16.208145 16.634804 -42.758026 101.73125 -43.914501 102.55287 -15.05404 -46.596832
16140000000 -16.067741 17.321806 -42.422318 62.378628 -45.089378 62.932003 -17.642906 -83.816811
16160000000 -15.240626 15.677268 -42.418446 27.410141 -44.563702 32.786293 -16.039858 -64.573784
16180000000 -14.148046 12.340243 -42.664234 -11.54016 -44.025795 -11.724909 -14.518156 -69.976601
16200000000 -13.565141 9.1881981 -42.634258 -46.050312 -44.684669 -46.460445 -13.313152 -79.46386
16220000000 -13.325559 6.1541424 -42.447498 -81.871841 -44.721638 -80.071182 -12.85095 -87.963898
16240000000 -13.002726 4.1199226 -42.509155 -118.07202 -44.12661 -115.90784 -11.956093 -86.524437
16260000000 -12.775994 3.3549247 -42.535187 -156.78841 -45.415497 -152.48708 -13.79308 -105.08921
16280000000 -12.173452 1.7704239 -42.045872 163.47122 -44.499592 168.31306 -12.172827 -101.65225
16300000000 -11.546932 -2.3858502 -43.141178 127.50387 -45.213051 131.04585 -11.592507 -108.01937
16320000000 -11.202257 -6.1037545 -43.227966 92.488914 -45.853233 97.296974 -11.364298 -118.73205
16340000000 -10.887619 -9.2437906 -43.384762 56.689247 -45.452545 65.575317 -10.750869 -121.69948
16360000000 -10.598998 -10.207531 -43.557346 21.779184 -45.635628 26.391777 -10.632 -120.25108
16380000000 -10.470013 -11.122484 -44.019791 -11.493289 -46.251812 0.17407911 -11.234566 -132.65971
16400000000 -9.9752235 -14.34514 -43.581367 -45.681499 -45.237137 -39.147697 -10.377874 -133.58923
16420000000 -9.512085 -18.411018 -43.453011 -83.932243 -45.505054 -80.588768 -9.9461718 -140.22583
16440000000 -9.2035723 -21.221592 -44.111984 -122.37922 -46.068024 -115.78221 -10.220275 -148.85089
16460000000 -9.0246468 -22.452408 -43.825607 -154.06435 -45.574558 -146.81783 -9.8684578 -149.34349
16480000000 -8.8613567 -23.309563 -44.043312 171.26517 -45.590275 176.13791 -10.086931 -151.99918
16500000000 -8.5562553 -25.869574 -43.781647 138.28333 -45.724609 143.51372 -9.8027649 -158.2081
16520000000 -8.1181784 -28.809772 -43.760513 103.02608 -45.991199 105.71634 -9.2675772 -160.86964
16540000000 -7.8218431 -31.42 -43.369377 64.423447 -45.673462 72.489037 -9.3489923 -169.80963
16560000000 -7.5870285 -33.170727 -43.281837 28.994905 -45.293522 32.99157 -9.4442387 -175.72261
16580000000 -7.3695474 -34.650421 -43.284706 -10.080299 -45.5448 -0.55168605 -9.4113331 -177.63443
16600000000 -7.0511436 -36.171333 -43.554382 -45.741474 -45.611042 -38.1455 -9.70928 176.65379
16620000000 -6.7581892 -39.16013 -43.386909 -81.476646 -44.953259 -71.569992 -9.7621574 169.33141
16640000000 -6.3426161 -40.915661 -42.764473 -118.15853 -44.679226 -106.06115 -8.5823374 171.05327
16660000000 -6.0314093 -43.357361 -43.171669 -157.24417 -44.412987 -146.6187 -9.0320606 158.57237
16680000000 -5.6638551 -45.221508 -43.359669 163.63698 -44.356224 175.80493 -9.32728 153.11136
16700000000 -5.361587 -47.056168 -43.643169 127.31182 -44.518223 136.26424 -9.9540586 148.07532
16720000000 -5.037221 -49.114914 -43.790508 92.414383 -44.494972 103.36234 -9.8906889 142.65863
16740000000 -4.7948031 -53.509125 -43.465019 57.09269 -44.547234 64.990692 -8.8053732 151.75221
16760000000 -4.3302112 -55.815144 -43.386913 11.422409 -44.272148 22.214024 -9.9171915 134.64809
16780000000 -3.9814892 -58.562016 -44.247761 -23.734863 -44.118 -17.315281 -10.20884 120.71555
16800000000 -3.6482515 -60.894184 -44.301949 -62.922039 -44.173073 -59.461723 -11.070798 112.88825
16820000000 -3.3262708 -63.585175 -45.183395 -101.40353 -44.852985 -99.536461 -11.374521 109.05532
16840000000 -2.9868681 -67.085289 -45.396763 -134.13828 -45.520748 -137.14055 -11.984586 98.975166
16860000000 -2.8050776 -71.81778 -45.059811 -170.83476 -45.902935 -176.30856 -12.739814 83.167625
16880000000 -2.4623339 -74.109444 -45.427402 149.48328 -45.986599 141.73264 -12.877897 84.488701
16900000000 -2.1694796 -77.010666 -45.610237 110.08302 -46.485813 99.774147 -13.214087 70.605576
16920000000 -1.9148284 -80.346695 -46.130989 70.690384 -47.435692 56.979721 -14.697744 63.966301
16940000000 -1.6539838 -84.004318 -46.501301 34.703503 -48.465157 20.492809 -15.190428 59.638084
16960000000 -1.4688886 -87.698441 -46.613983 -7.3569012 -49.134239 -21.140686 -15.638195 43.078598
16980000000 -1.2740874 -91.072716 -47.325718 -48.82589 -50.176373 -61.197403 -15.106541 29.961752
