!Keysight Technologies,P9374A,MY57211810,A.19.30.04
!Date: Friday, May 09, 2025 09:14:28
!Correction: S11(Cdelta 2-Port  ) 
!S21(Cdelta 2-Port  ) 
!S12(Cdelta 2-Port  ) 
!S22(Cdelta 2-Port  ) 
!S2P File: Measurements: S11, S21, S12, S22:
# Hz S  dB   R 50
13000000000 -20.059473 -82.047913 -53.552368 91.545959 -54.666775 111.65588 -15.85654 -58.389881
13020000000 -20.174053 -81.623581 -56.910187 66.740791 -56.708527 88.790276 -15.218826 -60.70166
13040000000 -20.645039 -84.10807 -55.179825 36.184685 -55.047588 63.273003 -14.304508 -66.917656
13060000000 -20.936687 -81.592842 -57.97485 7.9614229 -54.161156 35.857944 -12.863739 -62.662922
13080000000 -21.049391 -82.910393 -61.492828 -15.483184 -53.813225 4.1274772 -12.287865 -70.027321
13100000000 -20.3701 -83.976448 -62.128407 -11.471725 -53.533432 -24.077312 -11.511195 -73.018555
13120000000 -20.600342 -83.803802 -57.379993 -17.246407 -54.764378 -48.676994 -11.072437 -74.893959
13140000000 -20.119535 -82.206909 -53.667599 -39.334435 -53.405853 -65.045784 -10.11601 -79.737038
13160000000 -20.287392 -83.562309 -49.888012 -73.130409 -50.366226 -89.833656 -9.6290474 -86.426773
13180000000 -19.99309 -89.539146 -47.721809 -107.79741 -49.112946 -122.02351 -8.742486 -87.80188
13200000000 -20.831858 -92.287483 -45.941135 -145.39223 -47.055763 -153.2552 -8.4915047 -95.113693
13220000000 -20.753792 -93.88517 -44.290001 172.86713 -46.103561 165.48718 -8.3324986 -104.75915
13240000000 -20.374033 -90.318886 -42.741684 141.87122 -43.855209 138.96468 -7.9076405 -101.70083
13260000000 -19.869759 -98.658775 -41.163116 95.178421 -42.173981 93.541527 -7.1920748 -113.11913
13280000000 -19.958031 -100.28403 -40.366108 52.048065 -41.232113 52.648598 -7.0137 -119.03864
13300000000 -21.273161 -108.9427 -39.986393 11.903142 -40.591007 12.848681 -6.8974714 -125.68397
13320000000 -21.143234 -107.34111 -39.354397 -27.803688 -39.910156 -25.534309 -6.8894587 -131.97227
13340000000 -21.667572 -109.71832 -39.603352 -67.411011 -40.540573 -65.915863 -7.9981508 -139.40558
13360000000 -20.823223 -110.93022 -38.287491 -107.25677 -38.793579 -103.97078 -6.949038 -144.24411
13380000000 -21.763329 -114.91563 -38.496075 -148.4883 -38.872665 -144.55278 -7.2201533 -152.39214
13400000000 -21.93552 -120.9188 -38.543594 173.64993 -38.750744 178.61101 -7.3228092 -157.99841
13420000000 -23.238592 -123.53628 -38.624069 138.02197 -38.449284 142.58852 -7.7835531 -163.45998
13440000000 -23.455849 -129.07358 -38.62616 100.5618 -38.377621 104.10799 -8.2408533 -170.05272
13460000000 -23.938301 -121.74565 -38.578735 70.666481 -38.826687 72.443787 -9.4789276 -170.94562
13480000000 -24.299322 -126.97931 -37.850113 29.546976 -37.710327 31.485649 -9.0908976 179.33669
13500000000 -24.326647 -127.30913 -37.732632 -6.6136003 -37.235825 -7.572238 -9.3985462 172.96742
13520000000 -26.207664 -138.06978 -37.251904 -43.831928 -37.250546 -45.936497 -10.07125 168.09378
13540000000 -26.706102 -137.72472 -37.087452 -83.09137 -37.180252 -83.916672 -10.542733 165.02325
13560000000 -29.229607 -129.27107 -36.835583 -121.30226 -36.942482 -119.94125 -11.324061 155.81271
13580000000 -27.589249 -129.21101 -36.679428 -155.70308 -36.949196 -153.88959 -11.995121 156.50188
13600000000 -27.411999 -124.22849 -36.969749 163.31805 -36.781605 162.74741 -12.331558 148.16171
13620000000 -29.752359 -138.45412 -36.847271 125.95086 -36.93861 125.22163 -13.182539 141.96832
13640000000 -30.326315 -132.15475 -36.90733 88.577866 -37.193939 88.177605 -13.733196 137.08472
13660000000 -30.923264 -116.71511 -37.052635 52.20863 -37.483505 52.540077 -14.4274 137.26218
13680000000 -29.579176 -119.69601 -37.3395 16.40904 -38.047565 21.312092 -15.829342 126.60732
13700000000 -29.080103 -118.61172 -37.091927 -20.664764 -37.249088 -18.445326 -16.165844 123.66586
13720000000 -29.456024 -124.0262 -37.234589 -60.573696 -37.612419 -58.324017 -17.343287 112.20099
13740000000 -30.57638 -120.94637 -37.625294 -95.356873 -37.939072 -91.421066 -18.224312 104.48696
13760000000 -30.346157 -131.16978 -37.919445 -130.92935 -37.928211 -126.4164 -19.160978 100.80624
13780000000 -28.928207 -123.84062 -38.220943 -164.89839 -37.925282 -160.8248 -21.092827 96.93586
13800000000 -28.854864 -129.49507 -38.097363 161.86926 -37.592785 164.77817 -21.601404 83.618431
13820000000 -27.388704 -136.69746 -38.070824 127.08603 -37.747932 127.93523 -22.52615 71.521805
13840000000 -29.043047 -139.06915 -37.936768 92.114647 -37.695488 90.095657 -24.070465 43.593487
13860000000 -30.758366 -149.93031 -37.504646 56.125671 -37.402763 54.911011 -23.627193 28.067934
13880000000 -31.275845 -149.49239 -37.403118 20.013109 -37.183731 18.449251 -24.842545 7.2705684
13900000000 -30.017567 -163.4637 -37.115025 -15.906616 -36.844662 -17.729841 -23.465851 -14.496466
13920000000 -29.283836 -174.5184 -36.923191 -54.124645 -36.934025 -55.368465 -21.679626 -30.628433
13940000000 -28.474482 168.42691 -36.647671 -91.454964 -37.357067 -95.227478 -21.68965 -37.873966
13960000000 -31.76897 168.8354 -36.453739 -128.97615 -36.804741 -130.92245 -18.715208 -49.316433
13980000000 -33.575768 149.44179 -36.292038 -169.90013 -36.733257 -170.38011 -17.812235 -59.796673
14000000000 -30.872688 149.95532 -36.49733 150.0471 -37.070427 151.47363 -16.897709 -71.810379
14020000000 -30.336609 121.39896 -36.763546 110.26788 -37.173515 111.54606 -15.747803 -80.003281
14040000000 -29.414879 106.99494 -37.492313 71.369232 -37.530266 74.117813 -14.301754 -84.233437
14060000000 -31.865387 100.57008 -38.106144 32.21981 -38.543308 35.999195 -15.090065 -92.462311
14080000000 -31.902735 90.789856 -38.406578 -6.1307545 -38.572453 -1.490821 -13.215527 -98.501175
14100000000 -30.063433 80.154449 -39.224922 -44.6847 -39.429592 -40.900002 -12.653058 -107.97065
14120000000 -27.767815 64.981674 -40.529579 -83.679848 -40.517509 -78.234215 -12.381368 -114.99965
14140000000 -27.643421 49.336552 -41.617168 -118.94563 -41.312195 -112.6029 -11.582008 -122.6759
14160000000 -27.854963 37.03347 -42.398514 -156.09634 -42.46896 -148.39911 -11.504031 -127.79436
14180000000 -28.968182 46.936989 -43.687134 170.48184 -43.140945 174.64648 -11.350282 -135.23428
14200000000 -27.035673 34.844059 -44.355907 139.25813 -43.845688 142.95038 -10.38109 -142.55664
14220000000 -25.796434 30.852354 -45.678326 105.062 -44.572262 106.50485 -10.494736 -150.66203
14240000000 -25.791159 16.392031 -47.46978 63.215969 -46.546021 68.542366 -10.517019 -158.64435
14260000000 -25.457243 10.982079 -50.07074 40.063232 -48.552078 44.493568 -9.9434242 -164.43428
14280000000 -27.047396 9.5930691 -52.312439 19.740503 -48.839058 17.3654 -10.458622 -168.57986
14300000000 -26.015091 8.2032127 -54.752022 9.4649162 -51.183262 -9.894104 -9.944355 -178.44922
14320000000 -25.319347 8.0263033 -52.148304 4.2744846 -50.866936 -24.763842 -10.023354 172.86984
14340000000 -24.843121 -3.1300554 -50.565083 -17.312857 -52.928177 -48.412422 -10.544398 165.09001
14360000000 -25.06883 -6.6516237 -47.206337 -41.941616 -50.188831 -55.308872 -10.601111 158.24988
14380000000 -25.367346 -10.910914 -44.652676 -80.890709 -47.151722 -82.398262 -10.635442 154.70844
14400000000 -26.23168 -3.5201752 -43.900291 -123.28172 -45.696548 -122.07964 -11.044154 147.09671
14420000000 -25.429281 -9.0087194 -42.621479 -156.34261 -44.452389 -156.78648 -12.210046 140.50005
14440000000 -24.607872 -5.6758342 -41.077675 162.72362 -42.627792 165.40744 -11.623646 130.57735
14460000000 -24.622345 -13.024426 -41.231983 122.3616 -42.186764 123.90023 -12.534625 123.92085
14480000000 -24.884462 -17.317602 -40.850864 88.23616 -41.821232 89.664055 -13.00854 118.73363
14500000000 -25.633787 -15.124402 -40.377613 49.020752 -41.113853 50.787167 -13.557304 114.67036
14520000000 -24.903055 -10.869682 -40.249744 9.6764431 -41.02084 9.8249254 -14.445672 108.74245
14540000000 -23.795444 -8.1256618 -40.511463 -28.438009 -41.628059 -23.475374 -15.608792 96.092918
14560000000 -22.795267 -14.558929 -40.687881 -66.826416 -41.612469 -63.114624 -14.888507 91.262321
14580000000 -22.576027 -18.97323 -40.73481 -97.887558 -41.756035 -93.935036 -16.072355 82.845108
14600000000 -23.39537 -17.387934 -40.686188 -134.9436 -41.175327 -127.41278 -17.264578 77.382187
14620000000 -23.278181 -10.238273 -41.164124 -168.09673 -41.496834 -164.88287 -17.512732 70.389229
14640000000 -21.580202 -11.807652 -40.711975 155.92297 -41.394741 164.45364 -20.052393 58.005424
14660000000 -20.736174 -18.755518 -41.138409 122.68673 -41.121334 130.31091 -18.655361 51.957569
14680000000 -20.865929 -26.452209 -40.311539 89.47892 -40.493519 95.403542 -20.065577 40.379551
14700000000 -21.159416 -27.767326 -40.562817 53.350838 -40.476334 59.516628 -22.141788 27.582342
14720000000 -21.415703 -24.492495 -40.877808 18.54423 -40.170982 24.061659 -22.237494 21.357023
14740000000 -20.610256 -26.289177 -40.461239 -13.254684 -40.180885 -9.4041376 -23.827065 8.5906496
14760000000 -19.689877 -31.39447 -40.24543 -47.692886 -39.662693 -44.214664 -23.385208 -31.521999
14780000000 -19.423431 -40.371864 -39.806545 -85.255417 -39.160923 -82.690529 -23.863712 -15.380435
14800000000 -19.700975 -45.21542 -39.857563 -120.9057 -39.518692 -120.62568 -23.409346 -46.920654
14820000000 -20.29768 -47.353111 -40.123486 -157.60939 -39.500061 -156.49982 -23.938215 -56.984318
14840000000 -20.245302 -48.687008 -39.848 170.5154 -39.789883 167.46349 -23.609695 -61.803467
14860000000 -19.503313 -51.248604 -39.846893 133.59145 -40.296295 133.4832 -22.943413 -84.679245
14880000000 -18.936209 -56.881699 -39.745529 99.766228 -40.022221 99.767471 -19.599379 -97.831802
14900000000 -19.016859 -64.993126 -39.761017 64.999092 -40.164619 65.188515 -19.976973 -106.80479
14920000000 -19.580667 -66.836151 -39.654819 30.3113 -40.497643 32.708557 -18.828693 -133.94864
14940000000 -20.241632 -69.481094 -39.692955 -3.7923491 -40.181786 3.7121341 -20.238264 -130.51689
14960000000 -20.3536 -67.698647 -39.659458 -37.590847 -39.616867 -30.549988 -20.301331 -137.18919
14980000000 -20.201221 -69.37722 -39.586758 -69.434784 -39.105434 -65.104652 -19.11986 -147.78589
15000000000 -20.19195 -75.725075 -38.878288 -103.61307 -38.647945 -99.102928 -18.204796 -153.59286
15020000000 -20.804951 -80.591743 -38.671223 -141.62621 -37.920513 -137.26949 -18.777441 -155.46201
15040000000 -22.132029 -84.209656 -38.703297 -174.74074 -37.749065 -173.43517 -15.918425 172.93413
15060000000 -23.337276 -81.580727 -37.851826 149.71269 -37.33065 150.43921 -19.083721 169.96483
15080000000 -22.841146 -78.145233 -37.931473 112.33198 -37.242462 113.69077 -19.875744 163.09465
15100000000 -22.478163 -81.679436 -37.600578 77.695107 -37.004028 75.523911 -20.152189 158.22479
15120000000 -22.759127 -89.404404 -37.322807 39.284012 -36.91069 38.465111 -20.113037 148.33882
15140000000 -24.058899 -87.775764 -37.188766 2.3774374 -36.838047 -0.34446368 -24.900927 138.77756
15160000000 -25.013077 -81.862 -37.295803 -34.881199 -37.187046 -37.062244 -18.553871 119.68704
15180000000 -23.910263 -76.396278 -37.121136 -70.697784 -37.026146 -72.480675 -23.180996 99.646011
15200000000 -23.304764 -80.944023 -37.149853 -109.04158 -37.381813 -108.83437 -25.147367 86.800919
15220000000 -23.488735 -84.599243 -37.117107 -144.53929 -37.271225 -144.21799 -23.99934 75.409233
15240000000 -23.78113 -82.683037 -37.286213 175.99252 -37.460243 176.52487 -26.743168 52.35054
15260000000 -23.102907 -79.876266 -37.940842 140.97891 -37.807003 140.72095 -23.055599 -12.006622
15280000000 -22.792709 -85.529594 -38.060684 106.12137 -38.088257 104.98353 -23.425669 27.135183
15300000000 -22.646612 -87.578423 -38.190979 71.320656 -38.420845 70.386436 -23.114109 -18.374722
15320000000 -22.742062 -90.588089 -38.420132 35.345417 -38.600792 34.91534 -22.785295 -24.277493
15340000000 -22.41345 -91.763618 -38.753082 -0.73048574 -38.724693 0.28686577 -22.063887 -31.072611
15360000000 -22.485188 -95.945656 -39.080009 -30.74901 -39.293053 -34.043625 -20.340797 -53.948235
15380000000 -22.828808 -100.29796 -38.91386 -64.544922 -39.180939 -65.70945 -16.978399 -60.957573
15400000000 -23.674929 -106.79389 -38.458149 -99.347694 -39.003208 -98.817177 -17.53393 -69.582817
15420000000 -23.727661 -111.55997 -38.909962 -136.15822 -38.903885 -135.25047 -17.076468 -86.086151
15440000000 -23.634445 -117.72865 -38.874336 -167.98427 -39.164604 -166.37865 -17.363689 -81.766586
15460000000 -23.831745 -124.58311 -38.375492 159.17966 -38.621761 159.77309 -16.810848 -87.758713
15480000000 -24.86591 -133.37138 -37.972691 121.13659 -38.424545 120.32451 -15.110095 -98.192047
15500000000 -25.651136 -140.70142 -37.867573 85.562546 -38.537308 86.595078 -14.383559 -102.02923
15520000000 -26.322924 -146.53307 -37.85907 50.13026 -38.284405 52.920952 -13.941843 -100.70526
15540000000 -25.83304 -158.2081 -37.757225 12.348433 -38.379597 16.080212 -14.216963 -125.48674
15560000000 -26.78454 -165.92986 -37.748013 -23.464432 -37.933426 -19.302958 -14.134872 -121.35832
15580000000 -27.838289 -171.87889 -37.67915 -60.080181 -37.82132 -58.303272 -13.611215 -127.57765
15600000000 -29.236691 175.33986 -37.540375 -96.816109 -37.698299 -95.042717 -12.684938 -132.12668
15620000000 -30.179129 165.8503 -37.53759 -134.53844 -37.928482 -131.56297 -12.312958 -137.60187
15640000000 -29.743156 143.30766 -37.754711 -170.2446 -37.770924 -165.43187 -13.061024 -134.88457
15660000000 -28.9021 128.00786 -38.044838 154.32007 -38.519398 159.78018 -12.325042 -155.06955
15680000000 -29.866484 107.31825 -38.244751 116.3658 -38.113697 120.92341 -12.441224 -157.30247
15700000000 -31.044281 97.37587 -38.313271 81.563278 -37.990925 83.709244 -12.035235 -162.64322
15720000000 -30.493921 88.852325 -38.287083 44.316147 -38.248627 46.279667 -11.815572 -171.56253
15740000000 -27.827572 73.997887 -38.586021 7.4198198 -38.492226 9.7322388 -12.004621 -174.15559
15760000000 -24.768467 66.011581 -38.7365 -28.080425 -38.578018 -25.203022 -9.4818907 160.13792
15780000000 -24.384092 53.491077 -38.74411 -62.423126 -38.72472 -59.167763 -12.024435 168.32863
15800000000 -24.953352 46.668049 -38.95702 -98.04258 -38.911812 -98.154854 -12.622333 162.98645
15820000000 -25.597017 51.871109 -39.387173 -135.11615 -39.349087 -134.62418 -12.507687 153.27217
15840000000 -23.504177 51.633541 -39.356003 -168.7827 -39.672047 -170.3186 -12.639472 144.56544
15860000000 -21.707018 42.00309 -39.585262 153.63255 -39.913704 153.26401 -14.011418 140.74287
15880000000 -21.442795 35.524632 -39.772945 118.70731 -40.612556 117.90502 -11.464828 119.39067
15900000000 -22.176729 32.666649 -40.086594 81.929169 -40.993095 85.112511 -15.48452 121.98553
15920000000 -22.068033 36.505043 -40.17593 47.696091 -41.332649 50.515995 -16.387577 116.39935
15940000000 -21.539087 35.535305 -40.348076 10.388432 -41.040188 17.535202 -16.303705 103.94426
15960000000 -20.341692 31.215605 -40.777096 -25.666979 -41.428928 -20.679016 -17.390116 94.838257
15980000000 -19.827042 29.33374 -41.069561 -59.379505 -41.606602 -52.344189 -20.78076 78.061478
16000000000 -19.319376 27.861607 -41.146515 -97.84288 -42.020172 -87.811623 -21.556242 62.156677
16020000000 -18.905659 23.738813 -41.528194 -132.62025 -41.637524 -119.55402 -29.595465 94.594795
16040000000 -18.792215 21.679752 -42.387707 -168.28516 -42.441631 -155.3483 -26.531981 49.647346
16060000000 -18.450155 22.042639 -42.503368 160.48294 -41.6763 168.47807 -23.572527 27.261883
16080000000 -17.1702 24.068914 -42.64151 126.03318 -42.186993 133.70914 -24.782135 -3.4290359
16100000000 -16.048164 21.8379 -42.749165 90.493683 -41.896137 97.052094 -22.643738 -34.366501
16120000000 -15.37427 14.970065 -43.484852 56.611378 -42.153511 63.271049 -20.865755 -45.045609
16140000000 -15.796384 12.637462 -43.536858 25.810863 -43.459385 26.394936 -23.110201 -113.22169
16160000000 -15.724771 14.273458 -43.646706 -4.5745354 -43.04652 -2.7812276 -22.36488 -73.627968
16180000000 -14.565033 14.949027 -43.191566 -42.521637 -42.229565 -43.517159 -20.151939 -73.890282
16200000000 -13.375196 11.757198 -43.048996 -77.569054 -43.087551 -79.132164 -18.048788 -86.006607
16220000000 -12.893669 5.9846935 -43.237152 -111.69714 -43.207375 -112.06064 -17.242422 -95.851936
16240000000 -12.765157 2.4916027 -43.307098 -144.61098 -42.89946 -140.92924 -16.050428 -89.480743
16260000000 -13.026637 3.0395329 -42.787743 178.32033 -43.401089 -177.16187 -17.522285 -117.44805
16280000000 -12.462998 2.1199293 -42.197807 141.59113 -42.184853 145.28175 -16.143301 -109.6722
16300000000 -11.595387 -1.2500147 -42.950512 101.4303 -42.455471 103.33402 -15.205815 -113.4262
16320000000 -11.085754 -5.0412374 -43.025135 69.030144 -42.646774 69.391373 -14.658528 -125.67117
16340000000 -10.80215 -9.1162949 -42.601128 31.91769 -42.059948 34.770977 -13.790315 -127.7177
16360000000 -10.60397 -11.276976 -42.980122 -7.0886426 -42.160469 -8.3217525 -13.677036 -123.05594
16380000000 -10.600432 -12.508019 -43.303085 -43.927353 -43.115154 -39.46653 -13.951912 -140.25345
16400000000 -10.163408 -14.464495 -43.078026 -81.328827 -42.512619 -80.69886 -13.16749 -137.43259
16420000000 -9.5843382 -16.922005 -43.287804 -121.75763 -42.629601 -118.81764 -12.441053 -143.8801
16440000000 -9.0923691 -20.525434 -43.975864 -161.54291 -43.179169 -161.97693 -12.541673 -153.20013
16460000000 -8.8826685 -23.972469 -44.583767 161.40395 -43.674988 160.36337 -12.098913 -152.72528
16480000000 -8.8569641 -25.175877 -45.198647 126.93208 -44.127232 121.34142 -12.315048 -154.03719
16500000000 -8.7453785 -25.896353 -45.873833 88.063148 -44.91283 82.957008 -11.799246 -160.48215
16520000000 -8.1566057 -27.725777 -46.29213 50.750576 -45.737648 41.065807 -10.973201 -162.86887
16540000000 -7.6837139 -30.945747 -47.657112 17.445492 -47.422672 5.0701299 -10.923887 -172.09503
16560000000 -7.4219193 -33.772312 -47.360325 -16.360622 -47.466911 -30.130495 -10.933159 -178.34502
16580000000 -7.3111305 -35.295887 -47.52129 -55.273415 -48.093525 -70.58963 -10.857638 -179.56236
16600000000 -7.1362233 -36.072628 -48.786884 -95.857063 -50.39027 -113.07188 -11.034142 174.74654
16620000000 -6.8458657 -38.569805 -49.536068 -127.83041 -52.151009 -139.92221 -10.99633 167.15303
16640000000 -6.3218307 -40.488476 -49.43026 -167.00896 -52.717751 -168.54959 -9.5668697 169.7588
16660000000 -5.9540358 -43.16021 -51.228767 154.9238 -53.560177 156.35385 -9.8684959 156.867
16680000000 -5.6574502 -45.434654 -52.238228 117.5223 -54.118088 118.56114 -10.05603 151.11636
16700000000 -5.4152813 -47.431728 -51.91637 86.333282 -55.757793 85.396828 -10.600427 146.15953
16720000000 -5.0957189 -49.361946 -53.39782 38.395538 -59.581039 41.145065 -10.396715 140.94907
16740000000 -4.828989 -53.231804 -55.478344 -4.853085 -61.189514 36.115063 -9.1254005 150.82048
16760000000 -4.3006825 -55.286674 -60.692043 -53.866383 -63.773441 16.04656 -10.180166 133.17963
16780000000 -3.9369895 -58.586452 -66.010521 -81.298943 -62.596058 0.43596208 -10.322885 119.19032
16800000000 -3.6500549 -61.444035 -69.322968 -116.14651 -66.64225 -40.955544 -11.082073 111.41456
16820000000 -3.3802936 -63.928009 -72.822701 52.171333 -61.214985 -21.399038 -11.303131 108.03545
16840000000 -3.0216546 -66.906441 -62.433819 2.0196414 -59.47823 -59.860195 -11.769622 98.357323
16860000000 -2.7940419 -71.56913 -57.599354 -60.383121 -58.324162 -93.617256 -12.457375 83.350647
16880000000 -2.4206321 -74.167419 -57.213722 -105.84219 -58.183201 -128.21011 -12.535124 85.10495
16900000000 -2.1305609 -77.251099 -55.035339 -149.03537 -55.425476 -163.70747 -12.816955 72.452011
16920000000 -1.916865 -80.537514 -53.789608 171.16667 -54.554359 160.81975 -14.184679 67.092545
16940000000 -1.6767324 -83.944641 -52.685055 126.98047 -53.120953 121.88606 -14.641285 64.112373
16960000000 -1.4738626 -87.525406 -51.776726 88.698669 -52.68177 82.925865 -15.115375 49.922054
16980000000 -1.2516572 -90.97625 -51.342033 41.848976 -52.061821 39.30418 -14.80185 38.092171
