!Keysight Technologies,P9374A,MY57211810,A.19.30.04
!Date: Friday, May 09, 2025 09:14:16
!Correction: S11(Cdelta 2-Port  ) 
!S21(Cdelta 2-Port  ) 
!S12(Cdelta 2-Port  ) 
!S22(Cdelta 2-Port  ) 
!S2P File: Measurements: S11, S21, S12, S22:
# Hz S  dB   R 50
13000000000 -20.268875 -84.305824 -60.667133 -171.717 -62.105358 77.203346 -15.856374 -51.156879
13020000000 -20.450115 -81.765465 -54.210567 166.51007 -58.67363 101.65755 -15.176351 -54.186295
13040000000 -20.927814 -80.785446 -51.011116 117.58562 -54.101963 55.525917 -14.250704 -61.384796
13060000000 -21.221245 -81.050758 -49.849888 71.779823 -52.75053 10.717018 -12.731417 -58.172379
13080000000 -20.705256 -78.224808 -49.364464 31.320536 -54.06303 -38.549809 -12.175985 -65.907402
13100000000 -20.206839 -84.944069 -48.676964 -5.6565628 -56.681011 -82.812187 -11.390241 -69.448608
13120000000 -20.477327 -87.29969 -48.85313 -42.839371 -63.815445 -98.268456 -10.946728 -71.942291
13140000000 -21.218039 -83.432159 -47.645241 -79.325508 -60.306252 -65.260208 -10.004273 -77.166016
13160000000 -20.712046 -81.60598 -47.732365 -113.7104 -55.638603 -86.633835 -9.5552835 -84.107384
13180000000 -19.952013 -85.920654 -47.417686 -146.63091 -51.789276 -117.29482 -8.6601028 -85.894806
13200000000 -20.195517 -94.198837 -47.282089 177.23537 -49.967331 -158.80374 -8.4477987 -93.397171
13220000000 -20.581295 -99.859932 -47.269196 146.67276 -48.809383 155.02394 -8.2913876 -103.28953
13240000000 -20.801342 -95.195351 -45.870407 124.40564 -47.053982 126.71339 -7.9155049 -100.38033
13260000000 -20.277979 -95.66407 -43.810192 86.778412 -45.323162 83.663818 -7.2137313 -111.83916
13280000000 -19.829216 -100.17052 -42.696178 44.606983 -44.741566 43.300079 -7.047576 -117.86192
13300000000 -20.312077 -106.74851 -42.187012 6.3795209 -44.738754 6.3458242 -6.9341631 -124.58567
13320000000 -21.080437 -111.04975 -41.225998 -29.737175 -43.884159 -29.624002 -6.9372287 -131.07217
13340000000 -21.201412 -112.25777 -41.515984 -71.624199 -44.147049 -68.166939 -8.0536499 -138.65921
13360000000 -21.695644 -108.79021 -40.446869 -110.30442 -42.654896 -106.40797 -7.0311985 -143.66356
13380000000 -21.358227 -111.32426 -40.207848 -148.98473 -42.828213 -146.28093 -7.3303781 -151.86633
13400000000 -21.548576 -116.78379 -40.027752 173.46553 -42.546574 -179.45323 -7.4567504 -157.54112
13420000000 -22.795681 -127.15885 -39.790352 135.93881 -41.980156 144.54445 -7.9503064 -163.06564
13440000000 -23.935209 -127.04532 -39.648914 97.417419 -42.160416 109.7403 -8.4352856 -169.72614
13460000000 -24.635599 -121.22101 -39.671864 63.606033 -42.077271 78.486122 -9.703352 -170.69351
13480000000 -24.306377 -123.05115 -39.51918 22.183117 -40.55051 37.578323 -9.3413086 179.72212
13500000000 -25.115751 -131.40985 -39.504677 -15.713062 -39.841087 -1.6956085 -9.6843052 173.28551
13520000000 -26.692745 -132.61798 -39.525696 -52.966621 -39.610374 -40.62019 -10.383245 168.43089
13540000000 -27.067379 -138.15953 -39.604443 -90.757484 -39.42646 -80.019775 -10.896094 165.29877
13560000000 -27.479925 -141.61618 -39.65303 -127.13789 -39.00742 -120.78526 -11.771996 156.12674
13580000000 -29.997395 -140.12944 -39.87656 -162.16003 -39.85508 -159.03275 -12.472185 157.17271
13600000000 -29.557941 -120.17856 -40.355099 161.42146 -40.259739 163.16798 -12.817613 148.9579
13620000000 -27.606934 -123.93541 -40.366413 128.54843 -40.7299 129.15108 -13.727929 142.84245
13640000000 -27.834909 -141.98833 -40.081577 91.533432 -40.810741 94.40654 -14.328605 138.2095
13660000000 -32.180946 -147.3148 -40.566887 58.535034 -40.901871 62.730854 -15.054492 138.91992
13680000000 -31.544052 -107.38067 -40.357895 26.802559 -41.026638 32.388889 -16.557032 127.71581
13700000000 -27.30526 -107.39082 -39.656567 -10.781354 -40.114376 -5.81991 -16.92383 125.56689
13720000000 -27.324877 -127.67695 -39.567146 -47.381477 -39.6147 -44.588753 -18.19025 113.943
13740000000 -31.248629 -134.17993 -39.273254 -81.371841 -39.499031 -80.841042 -19.213398 105.61069
13760000000 -31.028654 -115.436 -39.0135 -119.61847 -39.597618 -118.40343 -20.228271 102.60744
13780000000 -28.111238 -119.13309 -39.463364 -155.64442 -39.700108 -153.72234 -22.478241 99.060417
13800000000 -27.67927 -136.09354 -38.971436 168.07677 -39.701134 168.58798 -23.132652 84.296318
13820000000 -30.382498 -134.73933 -38.803749 132.36705 -39.996304 133.80605 -24.260981 72.107803
13840000000 -29.709867 -124.98717 -38.814079 95.213081 -40.193436 98.987503 -25.83737 39.669044
13860000000 -28.849674 -137.86253 -38.724857 56.401817 -39.89185 66.729095 -25.176325 21.38538
13880000000 -29.801737 -167.17004 -38.661758 19.422798 -39.207817 33.75103 -26.300257 -3.2333274
13900000000 -32.468567 174.60666 -38.802238 -16.702509 -38.362751 -3.8351204 -24.387346 -23.320225
13920000000 -31.65259 -169.79816 -38.560848 -54.78587 -37.923203 -43.598385 -22.098776 -38.188618
13940000000 -28.419151 -178.71663 -39.245651 -93.559731 -38.298107 -85.095009 -22.247591 -44.447021
13960000000 -28.884678 159.39117 -39.434086 -126.48672 -37.822178 -121.30938 -19.003986 -53.467007
13980000000 -32.284443 134.645 -38.923138 -165.29843 -37.62468 -163.38556 -17.963871 -63.692593
14000000000 -33.566078 147.45683 -39.37785 156.33003 -37.983955 155.91934 -16.989124 -74.994949
14020000000 -29.357817 137.98555 -39.6474 116.53326 -38.635521 112.97451 -15.819697 -82.553093
14040000000 -27.855206 113.28011 -40.501415 83.809242 -39.977844 76.933456 -14.341946 -86.257889
14060000000 -30.872169 89.410141 -40.622528 44.844391 -41.021751 43.187611 -15.134957 -94.281639
14080000000 -35.093727 89.105789 -41.056499 7.4148679 -41.150036 6.840682 -13.255776 -99.726555
14100000000 -31.286303 90.038864 -41.643871 -30.264971 -41.814674 -29.459826 -12.630463 -109.00118
14120000000 -27.729891 67.672356 -42.455021 -68.004227 -42.468307 -67.459427 -12.361268 -115.84501
14140000000 -26.875271 42.949306 -43.607742 -101.83563 -43.306305 -98.241386 -11.542668 -123.25333
14160000000 -29.220041 33.357384 -44.396675 -140.91837 -43.953186 -138.59624 -11.455052 -128.39536
14180000000 -28.444685 49.466732 -45.839634 -172.5257 -45.347054 -176.23793 -11.308105 -135.66719
14200000000 -25.846252 36.048824 -46.529579 159.59308 -47.053211 150.69806 -10.332919 -142.73753
14220000000 -25.570158 17.372406 -47.697765 126.89492 -48.828026 128.17004 -10.402118 -150.75671
14240000000 -26.750277 16.803963 -49.189556 100.77507 -50.612511 100.86854 -10.433584 -158.94656
14260000000 -26.131161 20.710878 -49.67749 78.180244 -50.198689 89.00824 -9.8850079 -164.33318
14280000000 -24.851126 14.531436 -49.599651 46.405434 -49.454002 65.047012 -10.366939 -168.49757
14300000000 -25.625885 2.6761985 -50.598465 30.269415 -48.428738 34.620846 -9.8618002 -178.41887
14320000000 -26.71138 6.8457904 -48.846363 12.615336 -47.061462 4.7438855 -9.9502211 173.20013
14340000000 -24.989822 4.868011 -47.861855 -19.535231 -46.837269 -26.002794 -10.426267 165.34186
14360000000 -24.442404 -3.2333438 -46.215527 -47.536682 -46.631397 -61.967697 -10.535869 158.54057
14380000000 -25.786461 -17.979313 -44.701775 -86.070564 -46.419186 -89.676018 -10.544508 155.38797
14400000000 -27.692877 -1.5744015 -43.779915 -120.58858 -45.079762 -118.93288 -10.905415 147.54277
14420000000 -25.336096 -0.25785437 -43.178383 -156.15874 -43.847839 -151.22012 -12.131159 140.80484
14440000000 -23.801756 -11.446974 -41.996323 168.25948 -42.534023 174.53209 -11.563277 131.63548
14460000000 -24.91827 -21.530607 -41.945526 127.33784 -41.308697 137.03902 -12.353013 125.03976
14480000000 -26.185751 -13.10785 -41.597977 94.373886 -41.084755 96.165413 -12.839849 119.52621
14500000000 -24.584747 -7.4675579 -40.945583 55.263153 -40.927963 58.275795 -13.382216 115.47919
14520000000 -23.763561 -14.651447 -40.836468 17.267918 -40.794384 23.174065 -14.324232 109.45503
14540000000 -24.751646 -17.484594 -40.906891 -20.278667 -40.503342 -11.006534 -15.532625 97.534462
14560000000 -23.557652 -8.0684252 -41.553108 -57.621075 -40.497116 -51.078056 -14.791192 92.852135
14580000000 -22.070278 -11.895603 -41.608318 -88.165741 -39.937046 -82.818703 -15.93849 84.5914
14600000000 -22.192518 -21.728708 -41.398666 -120.7735 -39.75507 -120.31753 -17.173714 79.263023
14620000000 -23.761683 -15.461516 -41.046719 -156.4024 -39.582993 -155.81686 -17.412861 72.950905
14640000000 -22.247902 -10.845227 -40.981396 167.81171 -39.047806 166.62514 -19.894333 61.359314
14660000000 -20.64212 -16.478392 -40.943081 135.12714 -39.63076 128.49756 -18.485983 54.394211
14680000000 -20.761349 -25.505384 -40.457069 102.69024 -39.153507 95.905205 -19.992323 43.323723
14700000000 -21.396276 -26.605715 -39.947868 69.570892 -38.770424 57.988575 -22.057299 31.620577
14720000000 -20.820818 -22.440847 -39.298077 30.275862 -38.841934 18.442034 -22.034996 24.896891
14740000000 -20.228735 -30.145962 -39.435711 -5.2997622 -39.584496 -12.332517 -23.518627 12.098424
14760000000 -20.283205 -38.95013 -39.082455 -39.933308 -38.480949 -46.007259 -23.269121 -29.494734
14780000000 -20.466555 -36.068176 -38.590626 -77.645477 -38.733948 -89.082603 -23.799852 -15.649717
14800000000 -19.38368 -38.929916 -38.973404 -114.92567 -39.3395 -121.7203 -23.519085 -47.839375
14820000000 -18.933189 -48.649239 -38.978359 -148.48048 -39.003326 -154.01816 -24.100422 -58.410603
14840000000 -20.121958 -54.296902 -38.389545 175.69148 -38.895615 168.37367 -23.776325 -63.734612
14860000000 -20.299625 -52.753006 -38.287663 139.81593 -38.762421 137.20215 -22.969887 -88.041664
14880000000 -19.034714 -51.74519 -38.219051 101.90764 -38.276199 98.249359 -19.79351 -101.05678
14900000000 -18.703136 -61.791466 -38.49799 66.154617 -38.65136 62.039906 -20.242281 -109.77065
14920000000 -19.284697 -69.50602 -38.2467 30.919554 -38.613796 25.949631 -18.944567 -136.58057
14940000000 -20.55686 -69.086639 -38.075897 -3.5033932 -38.691887 -8.8692932 -20.452232 -133.91957
14960000000 -20.628635 -66.487099 -38.097252 -39.764942 -38.941761 -41.732994 -20.579952 -140.11653
14980000000 -19.944027 -69.508469 -37.888069 -75.15831 -38.806221 -72.433372 -19.331427 -150.00418
15000000000 -20.320065 -75.974274 -37.664986 -111.91427 -37.860996 -110.99685 -18.371204 -155.28668
15020000000 -21.026016 -80.394875 -37.879333 -149.69254 -38.056293 -150.33263 -18.930855 -156.88687
15040000000 -21.975407 -82.29644 -38.125904 177.38744 -38.029305 178.01865 -15.897706 171.90819
15060000000 -22.97294 -83.067078 -37.655506 142.56764 -37.507679 141.94888 -19.105156 168.10739
15080000000 -23.23052 -83.054855 -37.606586 106.46487 -37.365536 105.04112 -19.911058 162.5248
15100000000 -23.18152 -80.672661 -37.264858 70.700401 -37.662399 68.098412 -19.905914 157.19138
15120000000 -22.757051 -84.300911 -37.11401 32.707172 -37.534451 32.805202 -20.024599 146.56989
15140000000 -22.919279 -87.317047 -37.510841 -4.549612 -37.431057 -4.6462131 -24.754038 137.81847
15160000000 -24.310707 -88.090874 -37.31712 -39.113468 -37.307705 -37.908756 -18.402777 119.97027
15180000000 -24.65476 -82.692429 -37.049835 -75.081497 -37.128613 -75.833839 -22.82954 100.78841
15200000000 -23.870274 -76.289169 -36.944141 -113.30022 -37.149281 -113.76551 -24.826384 87.664986
15220000000 -23.18273 -76.519539 -36.968876 -151.44965 -37.162987 -150.02832 -23.839552 76.680939
15240000000 -22.426783 -82.02243 -37.215534 169.59247 -37.399181 169.68973 -26.87834 56.056435
15260000000 -22.96534 -84.978905 -37.79533 133.81601 -38.018925 132.66516 -23.561371 -10.827135
15280000000 -23.709372 -85.462929 -37.879349 97.958984 -38.369453 97.233719 -23.634741 31.843142
15300000000 -22.964865 -81.94239 -37.990788 62.373363 -38.786499 61.593178 -23.717094 -15.482516
15320000000 -22.361849 -87.124641 -38.470528 24.113415 -39.442928 28.757904 -23.381819 -21.761061
15340000000 -22.566051 -94.473106 -38.83371 -10.280947 -39.288235 -2.8659346 -22.616707 -28.481493
15360000000 -22.617599 -95.335007 -39.3983 -45.323101 -39.669712 -40.58416 -20.943274 -53.362385
15380000000 -23.044294 -98.473343 -40.003902 -79.100357 -39.566208 -69.224083 -17.464293 -60.688705
15400000000 -23.240414 -110.10699 -39.996532 -110.1306 -38.914898 -105.4904 -18.146891 -68.811935
15420000000 -24.213041 -113.50062 -40.011517 -145.70621 -39.30471 -141.71555 -17.633835 -85.835617
15440000000 -24.385376 -114.60898 -40.411125 -177.35483 -39.292797 -174.96033 -17.891638 -80.794434
15460000000 -23.063465 -119.21204 -40.29805 148.64368 -39.061188 149.20517 -17.328951 -87.356285
15480000000 -23.597406 -134.51033 -39.897568 116.29142 -38.936752 111.7103 -15.591934 -97.973358
15500000000 -25.331024 -151.65195 -39.435177 81.787498 -38.775463 75.159416 -14.861998 -101.61401
15520000000 -27.815933 -148.74379 -39.534725 46.670429 -39.125568 39.318001 -14.36372 -99.574707
15540000000 -27.0819 -147.43871 -39.223431 11.835689 -39.942219 3.2153378 -14.59059 -125.33523
15560000000 -25.677519 -156.51575 -38.719898 -25.857025 -39.200539 -30.456812 -14.514547 -120.92469
15580000000 -26.51045 -169.65724 -38.629814 -63.075863 -39.346077 -69.106361 -13.96362 -127.12165
15600000000 -28.769506 171.63556 -38.532093 -100.35835 -39.652958 -105.26244 -13.014129 -131.71675
15620000000 -30.070311 156.42697 -38.566174 -137.43098 -39.523029 -140.03215 -12.594433 -136.9906
15640000000 -31.022419 130.358 -38.488266 -175.20125 -39.55368 -175.02042 -13.312422 -134.13354
15660000000 -30.790768 118.74664 -38.821102 148.96857 -40.400967 152.24492 -12.548691 -155.06865
15680000000 -32.380501 120.17598 -39.537331 107.46295 -39.673584 113.47715 -12.676721 -156.92493
15700000000 -29.871191 113.02119 -40.576801 68.687881 -39.989639 76.093063 -12.210376 -162.43457
15720000000 -26.955105 91.136803 -41.284698 32.449146 -40.458725 39.700665 -11.984879 -171.48091
15740000000 -25.943171 61.870373 -41.918697 -3.644671 -40.411129 4.0272865 -12.142656 -174.18089
15760000000 -25.77331 55.276154 -42.594368 -36.112728 -40.044922 -32.909855 -9.5823412 159.70525
15780000000 -26.093563 62.734257 -42.761436 -69.587364 -40.693413 -68.464806 -12.163209 167.95213
15800000000 -24.608604 56.89006 -43.513996 -101.769 -41.083942 -108.08881 -12.76872 162.73833
15820000000 -24.084171 52.953114 -43.539742 -134.54262 -41.708981 -143.82553 -12.605644 152.78087
15840000000 -23.607132 46.827038 -43.052639 -168.66852 -42.257332 -178.07198 -12.735473 144.12218
15860000000 -22.32062 41.320053 -43.307724 154.83882 -42.494083 145.49094 -14.100509 140.15401
15880000000 -21.620455 36.47591 -43.069557 119.60212 -43.447956 110.65193 -11.496345 118.90701
15900000000 -22.604467 32.379063 -43.230045 81.91906 -44.0186 80.187378 -15.524581 121.19719
15920000000 -22.412762 37.116261 -43.80714 46.195271 -43.345695 50.35363 -16.422693 115.7476
15940000000 -21.247366 37.565735 -43.867374 10.048751 -43.17168 13.057711 -16.212078 103.41856
15960000000 -20.0581 29.675297 -44.603344 -25.166122 -43.924866 -21.378283 -17.22794 94.119698
15980000000 -19.69499 25.864616 -45.505875 -58.363781 -43.225327 -55.988632 -20.428661 77.029579
16000000000 -19.516733 25.78664 -46.192699 -88.796776 -43.448673 -93.403038 -21.09395 61.317169
16020000000 -19.082499 23.752399 -45.189796 -117.65072 -43.548229 -129.99564 -28.909573 87.779732
16040000000 -18.95783 23.442503 -45.388756 -151.1774 -45.161835 -168.82724 -25.832125 48.896942
16060000000 -17.996046 25.195333 -45.071007 175.66672 -45.209354 161.3508 -22.851925 28.50099
16080000000 -16.560471 22.439449 -44.3894 139.99225 -45.234226 132.41571 -24.085417 -0.53803295
16100000000 -16.032713 17.713739 -43.726765 100.76176 -45.194752 95.280106 -22.3001 -29.977201
16120000000 -16.022837 15.078003 -44.213921 55.459248 -45.894638 63.239548 -20.626717 -40.843922
16140000000 -15.921076 17.415602 -44.702438 24.121367 -46.470055 36.236923 -23.618233 -108.59663
16160000000 -15.14617 16.386787 -44.642109 -9.2876987 -44.939198 4.1524086 -22.243057 -68.505188
16180000000 -14.303041 12.819586 -44.231247 -49.492443 -43.974533 -36.100513 -20.050974 -69.987068
16200000000 -13.71124 10.331304 -44.902958 -91.220131 -43.70702 -75.801743 -18.043936 -82.380112
16220000000 -13.051834 7.6435871 -46.569984 -127.54728 -44.668221 -116.98635 -17.260992 -92.635109
16240000000 -12.794987 3.1178722 -47.340271 -152.94934 -45.016552 -145.3904 -15.993317 -86.812759
16260000000 -13.093284 2.2323346 -46.090855 174.57538 -45.696594 -174.70195 -17.726122 -114.92
16280000000 -12.581925 2.8167942 -45.40303 134.95598 -44.451195 143.78636 -16.263031 -106.50205
16300000000 -11.39743 -1.0282375 -46.1068 94.77507 -45.227192 103.53745 -15.244857 -110.60583
16320000000 -11.001082 -7.1667547 -46.370125 61.809246 -45.128555 68.048851 -14.738874 -123.06285
16340000000 -10.991385 -9.8532095 -46.062195 24.056437 -44.790112 31.890957 -13.869015 -125.55476
16360000000 -10.748858 -10.205554 -46.554939 -18.031847 -45.121613 -12.09809 -13.714383 -120.65129
16380000000 -10.402636 -11.665156 -46.890713 -50.888538 -46.743713 -47.742413 -14.063551 -137.93054
16400000000 -9.9869785 -14.676418 -46.801987 -89.183075 -47.996845 -90.728577 -13.190979 -135.205
16420000000 -9.5519819 -17.493349 -47.146008 -129.10727 -49.104305 -118.91876 -12.465991 -142.11809
16440000000 -9.0371199 -20.871115 -47.082573 -166.39633 -49.598492 -148.6972 -12.62311 -151.48505
16460000000 -8.9781752 -24.264524 -47.997139 155.08224 -49.051178 174.83846 -12.173535 -150.87637
16480000000 -9.0172434 -24.397411 -48.324921 116.69967 -48.59293 134.51245 -12.332715 -152.10196
16500000000 -8.6066027 -24.283573 -48.572529 82.047966 -49.569866 94.35112 -11.827574 -158.83041
16520000000 -7.9312377 -28.030348 -48.35075 42.237358 -50.060669 56.764275 -10.990866 -161.40359
16540000000 -7.6910019 -32.479919 -48.971901 -4.087503 -50.400032 14.921253 -10.938311 -170.757
16560000000 -7.6713743 -33.750912 -49.927799 -51.10535 -50.496864 -24.754957 -10.941292 -177.13794
16580000000 -7.3934979 -33.901726 -51.374153 -94.650764 -51.823235 -70.292664 -10.846495 -178.44415
16600000000 -7.0284357 -35.667191 -55.031811 -130.03004 -54.579079 -112.00229 -11.009516 175.69754
16620000000 -6.8136454 -39.029736 -54.799473 -152.59152 -54.612034 -141.62256 -10.992356 167.96484
16640000000 -6.3731942 -40.777351 -54.658512 165.80206 -55.801266 177.36974 -9.5545197 170.2205
16660000000 -5.9470911 -43.515423 -55.078434 114.96688 -57.627857 143.4953 -9.869112 157.25423
16680000000 -5.7320442 -45.951286 -59.14991 67.311501 -57.257401 96.077011 -10.050472 151.49496
16700000000 -5.5196562 -47.091743 -60.620853 27.055939 -57.547367 48.886627 -10.579971 146.38077
16720000000 -5.0191083 -48.588615 -60.545223 -29.562206 -61.017342 -26.795351 -10.36923 140.96255
16740000000 -4.6722307 -53.765842 -65.246292 -60.181004 -63.633289 -69.362686 -9.1158028 150.61421
16760000000 -4.3213477 -56.199425 -64.451149 -142.02223 -62.595161 -155.66689 -10.17667 132.95642
16780000000 -4.0447831 -58.662971 -63.58493 141.7711 -59.749367 132.45563 -10.302545 118.88929
16800000000 -3.6595073 -60.835812 -64.055511 101.31685 -57.790558 63.306614 -11.048046 110.96936
16820000000 -3.3098719 -63.664486 -59.043713 36.790539 -56.507923 18.132273 -11.277254 107.50367
16840000000 -2.9912782 -66.999786 -57.246445 -17.295696 -55.446579 -18.820259 -11.718366 97.816017
16860000000 -2.780576 -71.7938 -56.880211 -72.106934 -54.294815 -65.792976 -12.371398 82.767265
16880000000 -2.4301651 -74.353943 -57.053043 -112.30545 -53.386532 -115.259 -12.447874 84.494362
16900000000 -2.1818848 -77.286964 -56.110703 -168.99736 -52.325813 -158.53674 -12.696139 71.918129
16920000000 -1.9348692 -80.125168 -58.117748 143.75018 -53.385326 154.86084 -13.995295 66.330566
16940000000 -1.6367185 -83.728897 -58.590347 114.93001 -53.101715 119.8979 -14.423263 63.210449
16960000000 -1.4496261 -87.780441 -58.906265 75.031281 -53.825806 76.967621 -14.806987 49.135014
16980000000 -1.2754678 -91.228287 -58.578056 25.625832 -54.107407 48.116154 -14.449083 37.511555
