!Keysight Technologies,P9374A,MY57211810,A.19.30.04
!Date: Friday, May 09, 2025 09:22:37
!Correction: S11(Cdelta 2-Port  ) 
!S21(Cdelta 2-Port  ) 
!S12(Cdelta 2-Port  ) 
!S22(Cdelta 2-Port  ) 
!S2P File: Measurements: S11, S21, S12, S22:
# Hz S  dB   R 50
13000000000 -19.99991 -83.133995 -49.731724 24.390375 -49.086029 17.80406 -15.270655 12.918575
13020000000 -20.11165 -84.613861 -49.609993 -15.264029 -49.63818 -19.116758 -14.914559 4.112175
13040000000 -20.648056 -83.99749 -48.159081 -43.485424 -48.506992 -46.936005 -14.645527 -9.592062
13060000000 -21.178469 -82.481606 -49.622688 -89.927101 -49.987816 -94.337929 -13.035085 -17.254309
13080000000 -20.830982 -80.983627 -50.622505 -121.11995 -52.663242 -120.47308 -12.765602 -28.646437
13100000000 -20.296762 -85.547104 -49.367725 -158.6416 -50.631172 -148.94775 -11.889542 -37.027031
13120000000 -20.132612 -83.154594 -49.833412 159.31461 -50.980274 165.12523 -11.337199 -44.937588
13140000000 -19.958021 -83.298386 -53.642441 118.84586 -52.174988 130.92235 -10.412656 -52.006226
13160000000 -20.122984 -84.818375 -54.389866 99.562057 -51.228962 98.536545 -10.092681 -62.786175
13180000000 -20.372347 -85.774384 -51.940639 70.863617 -51.724316 63.18729 -9.0367041 -68.698692
13200000000 -20.367947 -88.926132 -53.819946 34.202881 -54.887909 20.012671 -8.8876686 -78.684326
13220000000 -20.344259 -91.19458 -53.446156 -13.058331 -52.753674 -7.0719934 -8.4981995 -91.177841
13240000000 -19.671638 -92.357933 -59.019844 -49.881721 -57.195812 -73.692375 -8.272727 -90.428673
13260000000 -20.14992 -97.838921 -56.467583 -35.934074 -62.135712 -34.925583 -7.518651 -103.59205
13280000000 -20.432032 -97.694763 -53.522285 -84.988533 -54.377258 -60.836815 -7.3299189 -112.21864
13300000000 -20.878553 -102.12823 -56.377029 -138.84575 -55.615318 -114.08749 -7.170608 -120.65133
13320000000 -20.67856 -105.68136 -63.03587 -144.3103 -57.38203 -130.74757 -7.0855026 -128.41293
13340000000 -20.939922 -109.03975 -54.672089 -152.39229 -55.070953 -176.98213 -8.1209116 -137.26535
13360000000 -21.234793 -110.29797 -53.686974 157.53928 -55.03019 160.39673 -7.0538034 -143.20647
13380000000 -21.625099 -111.31146 -54.90353 131.57202 -53.351715 132.51517 -7.2840638 -152.69801
13400000000 -22.231403 -118.24573 -54.183605 85.839851 -54.189392 88.0429 -7.3032937 -159.98935
13420000000 -23.15448 -119.74123 -54.073853 66.497078 -54.891636 56.108318 -7.6514444 -166.76089
13440000000 -23.100117 -122.89572 -51.463371 28.617256 -53.002121 41.688072 -7.9891801 -174.15886
13460000000 -23.892729 -123.19306 -53.447231 -17.952011 -53.523624 -14.252639 -9.1288214 -175.90501
13480000000 -24.824312 -123.25301 -54.291977 -48.630344 -54.046429 -45.32193 -8.6974306 172.77879
13500000000 -25.42816 -121.94218 -51.141563 -71.028206 -53.39069 -75.801392 -8.872364 165.05032
13520000000 -26.283447 -129.90045 -50.935432 -114.20161 -51.825745 -102.53097 -9.355402 158.80867
13540000000 -27.853676 -134.44865 -53.124901 -152.6747 -51.522255 -139.05272 -9.7159529 154.64417
13560000000 -29.317461 -129.85516 -53.792263 -178.75998 -51.401524 178.84439 -10.192441 144.62163
13580000000 -28.492216 -118.69656 -51.067066 146.10043 -51.517429 137.6098 -10.836849 144.08156
13600000000 -28.447414 -125.7495 -51.587116 108.06327 -52.264168 106.59149 -11.025816 134.99883
13620000000 -30.655861 -134.81073 -52.051991 77.763046 -51.857197 85.083832 -11.563559 127.31077
13640000000 -32.711212 -121.7732 -52.159653 38.725468 -49.435596 36.071133 -11.805638 121.69836
13660000000 -31.214041 -111.84087 -53.779747 15.147098 -55.275265 -6.2559819 -12.402796 120.49374
13680000000 -29.61162 -116.33345 -51.687187 -27.61982 -54.520226 -16.551451 -13.235773 111.49265
13700000000 -30.659805 -117.5981 -51.584347 -65.037796 -52.351997 -47.58503 -13.390953 105.47532
13720000000 -30.91641 -117.4515 -53.27969 -78.627266 -51.415928 -83.785889 -13.998851 94.031563
13740000000 -31.400337 -122.99738 -50.959492 -109.13629 -50.703373 -115.91801 -14.268646 87.540543
13760000000 -30.916523 -129.29333 -49.638138 -144.90778 -51.045849 -141.26396 -14.685613 82.471695
13780000000 -30.348204 -123.87862 -50.284512 163.1794 -49.985065 177.60699 -15.761179 77.897385
13800000000 -28.904764 -131.41254 -49.372242 140.97142 -47.727341 134.04584 -15.846521 68.381821
13820000000 -29.051983 -132.34778 -47.591774 105.03911 -48.603008 93.32972 -16.288961 59.203842
13840000000 -29.529387 -146.07365 -48.11454 60.534874 -50.244728 62.468357 -16.983829 43.64814
13860000000 -30.571098 -152.78023 -49.826694 28.290112 -49.303371 39.222385 -16.572132 36.803543
13880000000 -32.763481 -153.86786 -51.668125 -0.95505846 -49.766785 1.7395072 -17.26977 26.832859
13900000000 -31.178791 -166.42952 -47.219105 -30.749325 -48.126247 -36.003223 -17.332727 14.379973
13920000000 -29.249252 -175.68344 -47.937424 -74.394547 -47.824314 -71.64521 -17.126488 1.7994195
13940000000 -28.315193 161.13971 -47.982391 -101.45795 -48.132675 -103.63518 -17.350357 -7.282661
13960000000 -31.110762 149.53046 -47.226688 -135.51926 -47.14222 -135.7986 -15.975257 -20.101919
13980000000 -33.984833 157.96806 -47.091984 -176.98691 -46.948437 -176.93645 -15.731239 -29.471327
14000000000 -30.465063 137.57806 -46.417442 147.75732 -47.280499 143.81651 -15.76894 -42.299496
14020000000 -29.296331 116.58437 -45.515434 106.53678 -46.370609 112.88286 -15.10763 -54.820847
14040000000 -29.996607 107.43645 -46.602955 73.552177 -45.579975 78.438675 -13.865483 -62.793995
14060000000 -29.060585 111.18279 -46.091228 36.572285 -46.281563 37.723305 -14.667926 -71.355614
14080000000 -29.246067 93.427895 -46.749561 5.2821651 -45.839878 2.4549994 -13.084935 -80.303589
14100000000 -29.63401 67.981239 -45.180405 -29.612747 -46.282524 -35.538063 -12.691878 -91.991486
14120000000 -29.269129 63.259422 -44.412209 -69.724876 -44.871407 -64.578026 -12.566355 -100.69025
14140000000 -27.868494 59.300289 -45.493465 -103.51571 -45.167953 -108.38058 -11.833118 -111.52779
14160000000 -27.726431 50.253124 -44.779427 -144.34511 -45.999397 -138.32249 -11.58565 -118.61504
14180000000 -27.412994 50.044216 -44.666527 178.0963 -44.985291 -176.86992 -11.504434 -126.65875
14200000000 -26.722748 30.3186 -45.298504 141.4019 -44.796883 148.67566 -10.615783 -135.7729
14220000000 -26.93227 22.879536 -44.794365 113.80043 -43.865177 109.86934 -10.761411 -145.20863
14240000000 -26.869043 25.603302 -43.910538 76.116821 -43.936546 68.755119 -10.702508 -154.63635
14260000000 -25.256924 22.604353 -44.184944 36.96336 -45.014751 32.40239 -10.047476 -161.87209
14280000000 -25.545885 10.991184 -44.396309 -2.6498399 -45.812626 2.0559595 -10.489146 -166.69975
14300000000 -26.590237 2.7794251 -44.396694 -38.489349 -44.447075 -31.491632 -9.9139166 -177.24028
14320000000 -26.008907 7.5364246 -44.033245 -70.767548 -44.156429 -74.182854 -9.9683743 173.59329
14340000000 -24.966393 0.42625734 -43.70026 -112.1161 -43.958054 -106.0102 -10.421185 164.79054
14360000000 -25.535643 -5.9694157 -44.121799 -147.42651 -44.046619 -145.08575 -10.283135 157.03177
14380000000 -26.109743 -1.71524 -44.17551 176.6488 -43.871052 -177.9281 -10.173923 153.57263
14400000000 -25.426582 -5.8908691 -43.140736 142.4966 -42.608868 142.3129 -10.464334 145.83559
14420000000 -25.237152 -14.399885 -43.331413 99.714264 -43.441185 100.07375 -11.42314 138.97093
14440000000 -25.764223 -12.16211 -43.551327 60.023186 -43.559616 61.270519 -10.743515 128.65292
14460000000 -25.272999 -9.0115957 -43.934116 25.667744 -43.917641 24.234272 -11.348785 121.69918
14480000000 -24.818405 -8.0358229 -44.325043 -14.021775 -43.809761 -6.9457588 -11.521955 115.79372
14500000000 -24.772606 -12.129354 -43.810356 -46.073814 -43.271858 -49.346046 -11.827541 111.67764
14520000000 -24.490374 -14.383702 -43.480663 -90.922752 -43.721725 -92.350319 -12.467701 106.32555
14540000000 -24.364023 -13.392138 -44.786491 -124.33266 -44.188843 -124.48378 -13.251397 94.946686
14560000000 -24.213818 -11.671721 -43.628368 -159.53525 -44.146358 -167.13531 -12.625607 88.541512
14580000000 -22.931391 -11.093889 -43.250137 152.64389 -44.42757 151.11172 -13.218335 81.807663
14600000000 -22.748837 -17.45919 -45.075726 111.648 -46.426064 115.42841 -13.800212 76.872337
14620000000 -23.264538 -17.409992 -45.921783 70.475937 -47.078758 77.400078 -13.855424 71.446678
14640000000 -21.859732 -16.828114 -47.154526 35.356476 -47.748234 49.666256 -15.29962 62.583515
14660000000 -21.478601 -20.094446 -47.857677 5.7843509 -46.403419 15.172226 -14.309578 55.645069
14680000000 -21.142309 -22.054121 -48.142952 -32.649208 -47.512531 -25.909464 -15.182747 46.614822
14700000000 -20.637659 -25.791059 -49.912365 -65.422569 -48.174454 -59.725243 -15.955426 39.112469
14720000000 -20.902929 -28.007147 -49.406208 -83.626144 -47.528069 -95.984016 -15.836412 34.295918
14740000000 -20.575655 -31.167471 -46.972374 -128.00925 -47.475563 -137.69839 -16.863516 27.071005
14760000000 -20.02389 -32.873707 -48.843609 -173.17809 -49.030399 -176.70859 -18.163134 5.0673676
14780000000 -19.736433 -36.770939 -49.351826 160.69461 -50.665974 150.07869 -17.209986 9.2850695
14800000000 -19.388029 -42.205189 -48.117424 111.36622 -49.844307 112.06651 -18.085312 -9.160388
14820000000 -19.731003 -47.592712 -49.61763 65.773041 -50.563187 73.815994 -18.755508 -14.301072
14840000000 -19.814838 -50.945328 -51.08572 33.954048 -51.957714 34.472694 -18.882917 -19.00333
14860000000 -20.039293 -51.137131 -50.831463 -7.1480718 -50.116035 -9.8203936 -20.232201 -34.810539
14880000000 -19.271702 -52.655952 -53.413609 -58.635025 -54.233032 -60.598793 -19.051317 -60.999226
14900000000 -19.03546 -61.467388 -52.545826 -91.752121 -58.594261 -82.650116 -19.573421 -69.626656
14920000000 -19.538881 -69.34864 -55.850189 -161.56612 -58.438942 -105.99188 -20.945898 -99.424103
14940000000 -20.502337 -70.425819 -66.990044 91.458054 -67.032082 -162.50826 -21.762205 -90.722855
14960000000 -20.260765 -68.667328 -69.743477 -143.18105 -63.028553 -157.41663 -22.392191 -102.06385
14980000000 -20.438807 -72.452377 -64.353401 -105.19497 -63.652557 -151.84784 -21.656363 -125.09041
15000000000 -20.72859 -75.991325 -60.382401 177.44162 -64.355255 -171.21953 -20.665148 -135.54778
15020000000 -20.645832 -78.725563 -63.507389 146.50417 -60.748543 140.23241 -20.792299 -136.1115
15040000000 -21.417608 -85.499702 -61.216927 114.99602 -65.204124 -162.68814 -17.901396 176.79668
15060000000 -23.039946 -86.750725 -64.280937 130.32115 -56.155533 144.70232 -22.173409 170.64206
15080000000 -23.344654 -78.99305 -56.424648 76.357414 -55.426258 76.977577 -22.756992 158.95052
15100000000 -22.8395 -80.03981 -57.881432 59.67408 -56.564201 51.76202 -21.72772 148.86827
15120000000 -22.501627 -85.553635 -55.108727 32.290562 -53.902733 18.3594 -21.16597 135.74065
15140000000 -23.150682 -87.956322 -49.994255 -11.320738 -51.154053 -19.356361 -25.99259 111.45663
15160000000 -24.256195 -87.267799 -50.781494 -74.004257 -49.793873 -74.338585 -18.350344 105.4444
15180000000 -24.823975 -79.662827 -51.602165 -116.70359 -52.621559 -128.45232 -20.707617 77.922997
15200000000 -23.47357 -72.376457 -52.226479 -159.80322 -53.25423 -147.07611 -21.038914 65.486717
15220000000 -23.005257 -78.415878 -51.481686 -173.74629 -50.337856 177.16209 -19.627968 60.225574
15240000000 -23.065727 -84.521034 -49.16811 133.30197 -50.608322 124.79179 -20.492086 45.766647
15260000000 -23.347372 -82.538948 -51.274803 88.876053 -52.287735 86.675468 -18.79147 7.7289157
15280000000 -23.428276 -87.64267 -51.798359 57.754665 -53.035316 56.41412 -17.825577 27.652142
15300000000 -23.392277 -84.050659 -49.822941 18.294868 -51.603054 34.586567 -17.856752 3.5782111
15320000000 -22.66436 -88.313644 -51.912243 -27.239155 -51.771023 -18.938053 -17.67314 -0.0012099235
15340000000 -21.941334 -92.772018 -53.274555 -54.842117 -52.457664 -51.046444 -17.260653 -4.5275006
15360000000 -22.003637 -100.5369 -53.270378 -88.43486 -52.262169 -77.162834 -17.001287 -22.775446
15380000000 -23.129572 -105.01216 -53.410767 -121.53271 -51.68763 -123.76945 -14.77214 -35.563271
15400000000 -23.832001 -107.6412 -52.254532 -157.82867 -52.844204 -151.15034 -15.088389 -40.574509
15420000000 -23.72208 -110.621 -53.594357 164.68552 -50.988388 175.34042 -15.341107 -53.191311
15440000000 -23.473326 -113.55459 -53.85545 151.95905 -52.095203 131.88304 -15.194879 -50.019382
15460000000 -22.664089 -122.05209 -50.335957 107.85484 -51.000103 101.28952 -14.94838 -56.815559
15480000000 -24.129843 -134.55876 -51.639561 61.465664 -51.036972 54.934456 -13.959326 -71.188759
15500000000 -26.1875 -143.50378 -52.47047 24.479761 -53.261009 7.6000404 -13.197408 -76.614182
15520000000 -27.310064 -141.7863 -51.564026 -5.2693744 -53.996006 -3.0015161 -12.408796 -76.738426
15540000000 -26.645849 -150.48691 -51.176666 -47.042439 -52.650982 -41.461411 -13.915444 -99.729652
15560000000 -26.609997 -159.72784 -51.729401 -80.506065 -53.433792 -68.974289 -13.459015 -94.854828
15580000000 -28.207214 -166.44792 -51.347935 -121.69791 -51.327492 -111.39948 -13.107314 -103.72306
15600000000 -28.278061 178.99098 -53.030308 -150.38594 -53.917408 -141.13654 -12.230279 -112.16408
15620000000 -28.809767 144.53113 -52.01791 173.55716 -51.03957 -171.50516 -11.8944 -118.49552
15640000000 -32.208385 115.09917 -51.510368 140.83026 -49.913052 144.64063 -12.222301 -114.63825
15660000000 -32.222965 131.38812 -50.136227 109.52842 -49.612949 110.31021 -12.645341 -137.85851
15680000000 -30.721476 131.65097 -50.055668 66.743881 -49.6306 66.30127 -12.635186 -140.27203
15700000000 -28.040352 108.25079 -49.501575 36.31044 -49.285694 26.874308 -12.19671 -148.06001
15720000000 -27.319632 78.088806 -48.506916 -4.653791 -48.579262 -4.8586664 -12.141111 -159.71114
15740000000 -26.746925 62.404148 -47.527191 -46.491394 -47.249557 -50.931557 -12.342355 -161.9216
15760000000 -25.916697 61.327053 -47.658447 -89.92057 -48.079853 -93.773506 -10.275946 167.62691
15780000000 -25.587004 59.989307 -47.623005 -125.44086 -47.96701 -122.98129 -12.872362 176.23077
15800000000 -25.432579 55.611111 -47.027992 -165.86742 -47.606056 -172.97906 -13.66779 169.74516
15820000000 -24.205557 54.305405 -46.633865 148.84669 -47.552208 150.58147 -13.356791 157.8376
15840000000 -23.11146 45.643517 -46.332199 114.65401 -47.470463 115.69323 -13.399991 146.27721
15860000000 -21.706404 38.097042 -45.462234 65.342972 -46.833839 73.992912 -15.098749 141.26366
15880000000 -22.072975 31.675772 -47.317039 21.319605 -46.965931 34.359264 -12.185163 116.62313
15900000000 -22.397905 35.580654 -46.864189 -12.000187 -45.930431 -6.2119236 -16.508989 113.58942
15920000000 -21.610382 38.50684 -46.257698 -57.296352 -46.442528 -52.374352 -17.332399 103.6628
15940000000 -20.45433 35.087852 -47.050098 -94.287537 -46.010544 -88.582085 -16.209085 89.022568
15960000000 -19.872858 30.084047 -47.254463 -135.99666 -46.224724 -132.57358 -16.805613 74.966644
15980000000 -19.770224 27.898657 -47.277271 -173.39743 -46.21003 -174.20584 -18.600918 50.335682
16000000000 -19.269497 29.283392 -46.729584 149.2122 -45.824905 146.896 -17.800011 33.771229
16020000000 -18.924004 24.828863 -46.672775 111.01175 -46.12141 101.69261 -21.689882 17.036194
16040000000 -18.693199 25.495628 -46.169369 69.191643 -47.419266 63.719257 -19.0352 11.029795
16060000000 -17.746775 25.854692 -46.143482 28.51557 -47.279449 30.969328 -16.401798 4.654542
16080000000 -16.624903 22.672657 -45.90012 -8.9728422 -47.044708 -10.667699 -16.061316 -13.047984
16100000000 -16.291639 19.180046 -45.725624 -54.499237 -46.617382 -50.772987 -14.892835 -29.256157
16120000000 -16.123156 17.161201 -45.909649 -94.438866 -46.249809 -90.009789 -13.74562 -36.61647
16140000000 -15.733624 18.964249 -46.384911 -136.33849 -48.099083 -133.88725 -16.81579 -66.181252
16160000000 -15.136737 15.364173 -46.400108 -173.21729 -46.780872 -157.76523 -14.850764 -49.896137
16180000000 -14.419925 12.382101 -46.265781 144.73964 -46.008457 148.0482 -13.249241 -56.436314
16200000000 -13.81175 9.9434042 -46.654793 107.76662 -46.480896 116.15704 -12.322017 -67.109459
16220000000 -13.216056 7.2664738 -47.735825 74.073029 -46.132305 80.119507 -11.944434 -75.763931
16240000000 -12.874497 4.471559 -46.799038 41.932819 -45.699146 40.010357 -10.826332 -75.362503
16260000000 -12.78789 3.0371149 -46.637039 -0.19847822 -45.952042 0.43266639 -13.061894 -90.976006
16280000000 -12.433283 1.4324288 -45.704296 -37.805305 -45.344776 -41.751984 -11.341146 -87.523994
16300000000 -11.57567 -1.6819289 -44.977375 -73.603104 -45.227596 -80.297729 -10.742315 -95.348045
16320000000 -11.164262 -5.7311616 -44.483452 -116.86252 -45.131981 -123.11225 -10.654163 -106.44329
16340000000 -10.882847 -8.7694397 -43.958332 -161.28241 -44.89856 -163.49492 -10.043541 -109.6758
16360000000 -10.636668 -10.196338 -44.327885 154.67964 -45.540554 153.04553 -9.6934099 -108.65309
16380000000 -10.420975 -11.253281 -45.194733 118.22005 -46.857269 128.40929 -10.727598 -119.79382
16400000000 -9.9548626 -14.474802 -44.220421 77.998329 -45.094063 85.616669 -9.6748924 -121.69274
16420000000 -9.667079 -17.677067 -45.035915 32.39146 -45.237579 43.179409 -9.4207859 -129.20334
16440000000 -9.2992115 -20.049274 -46.103977 -4.3121819 -45.671539 5.6945992 -9.7291775 -138.05959
16460000000 -8.923892 -22.738165 -46.304943 -40.461174 -44.802502 -34.423573 -9.233304 -138.85687
16480000000 -8.8844995 -24.699942 -45.460579 -77.713158 -44.702736 -78.437813 -9.3870125 -140.99799
16500000000 -8.70825 -25.632717 -45.73114 -116.88898 -44.505836 -117.62094 -9.2074213 -147.56776
16520000000 -8.1793537 -28.207026 -46.160538 -143.44836 -45.801517 -153.12424 -8.7961988 -151.77742
16540000000 -7.7419333 -31.875793 -45.274948 173.2578 -45.256363 164.49419 -8.9575844 -160.90823
16560000000 -7.6121879 -33.989758 -44.916283 133.39285 -45.751602 123.49186 -9.0847149 -167.2028
16580000000 -7.3331461 -34.30901 -44.052593 93.217941 -45.580063 89.345009 -8.9904118 -169.32416
16600000000 -6.9984436 -36.41679 -43.913734 46.333782 -45.267147 48.890587 -9.3547897 -174.69109
16620000000 -6.8585052 -39.422729 -44.921726 2.2945912 -45.467911 7.1351175 -9.5131359 178.11978
16640000000 -6.3752193 -40.725594 -44.494431 -39.136505 -45.756672 -31.121939 -8.3874712 177.83096
16660000000 -5.9412317 -43.354233 -45.509483 -82.291985 -45.847176 -74.755524 -8.9708652 164.86424
16680000000 -5.6459193 -45.781231 -46.863422 -126.60058 -46.18515 -115.3739 -9.2568617 159.5378
16700000000 -5.4084201 -47.350552 -48.039463 -157.56276 -46.766438 -152.70512 -9.9048347 154.57222
16720000000 -5.0270391 -49.017487 -48.652164 162.21825 -46.36047 166.83235 -9.9286308 149.03831
16740000000 -4.7086029 -53.617264 -48.80125 132.77817 -47.829857 122.56331 -8.7693691 156.26048
16760000000 -4.3350139 -55.649387 -48.494991 93.521523 -48.604664 86.276718 -10.035685 139.47176
16780000000 -3.9497433 -58.390018 -48.227535 54.107437 -48.430424 43.195705 -10.442467 124.71833
16800000000 -3.6384547 -60.926395 -48.094357 4.7681899 -49.196239 -1.4620667 -11.278919 116.56557
16820000000 -3.314775 -63.694511 -48.851326 -41.392391 -50.484077 -40.154682 -11.637072 112.79992
16840000000 -3.0102766 -66.91555 -49.61832 -82.459 -50.749104 -77.512291 -12.374949 102.08892
16860000000 -2.8230391 -71.597359 -50.101181 -130.6813 -52.525906 -124.46719 -13.179773 84.44487
16880000000 -2.4277658 -73.969215 -51.774734 -173.9207 -52.858265 -159.58719 -13.178264 84.552284
16900000000 -2.1245282 -77.216057 -53.732872 139.39981 -52.864037 145.31258 -13.519255 69.711067
16920000000 -1.9209239 -80.332619 -56.352188 85.713242 -55.585396 100.95438 -14.783489 62.203434
16940000000 -1.6735212 -83.745949 -57.397675 55.325607 -56.725319 57.462349 -15.364299 55.993355
16960000000 -1.4586105 -87.36055 -58.914032 8.5765867 -58.855309 14.119928 -15.700869 37.792133
16980000000 -1.2445459 -91.131027 -60.840992 -48.955654 -60.317738 -38.07119 -14.794097 23.869596
