!Keysight Technologies,P9374A,MY57211810,A.19.30.04
!Date: Friday, May 09, 2025 09:13:57
!Correction: S11(Cdelta 2-Port  ) 
!S21(Cdelta 2-Port  ) 
!S12(Cdelta 2-Port  ) 
!S22(Cdelta 2-Port  ) 
!S2P File: Measurements: S11, S21, S12, S22:
# Hz S  dB   R 50
13000000000 -20.212467 -75.895439 -46.445461 6.8764892 -45.159737 0.62914294 -16.404915 -16.249691
13020000000 -19.431904 -79.825188 -47.160461 -30.570559 -45.638027 -34.691578 -15.707602 -23.315895
13040000000 -20.052008 -87.419403 -47.093723 -66.420357 -45.621529 -72.399048 -14.902342 -35.177608
13060000000 -21.750856 -89.542686 -47.240875 -104.7113 -45.890644 -112.35854 -13.050969 -37.500454
13080000000 -22.182709 -78.475647 -47.401764 -144.32863 -46.033955 -147.67477 -12.625347 -47.588795
13100000000 -20.409153 -75.819817 -46.839317 172.49391 -46.07045 170.97545 -11.783247 -53.690147
13120000000 -19.113216 -82.823807 -48.027912 140.51224 -46.515266 127.96641 -11.254346 -59.113991
13140000000 -20.003721 -91.265968 -46.683834 95.258957 -46.756973 87.811172 -10.275664 -65.497406
13160000000 -21.136396 -89.013969 -47.334785 43.776417 -47.16032 43.69091 -9.8474379 -74.581474
13180000000 -21.180212 -82.582352 -48.029888 10.628613 -47.770889 4.6943884 -8.8760204 -78.219223
13200000000 -20.097971 -86.493317 -46.69186 -33.188519 -47.903957 -35.749279 -8.6955233 -87.110443
13220000000 -19.75741 -95.326485 -46.663387 -88.327507 -48.263298 -84.676086 -8.467021 -98.469482
13240000000 -20.341892 -97.521088 -47.358829 -128.71548 -48.55088 -135.63951 -8.1591272 -96.956581
13260000000 -20.540064 -96.899055 -46.616413 178.90721 -50.06097 169.10507 -7.4263935 -109.34406
13280000000 -20.271639 -97.986069 -48.016487 128.07814 -52.213242 122.84634 -7.2629681 -116.65932
13300000000 -20.674416 -105.67151 -49.64061 97.522011 -53.723492 91.100449 -7.1813526 -124.25353
13320000000 -21.512787 -110.41348 -47.501411 57.819977 -51.942265 56.569935 -7.1858444 -131.4391
13340000000 -21.808336 -107.44132 -47.05072 2.2797058 -50.365551 6.3671017 -8.274848 -139.69228
13360000000 -20.815125 -107.64921 -47.069424 -45.283634 -48.735779 -44.123558 -7.244751 -145.44193
13380000000 -20.913757 -117.68234 -48.081791 -85.260147 -50.277863 -81.992973 -7.529839 -154.2587
13400000000 -22.356178 -126.19458 -46.916218 -122.00516 -48.669643 -119.58839 -7.5983739 -160.69466
13420000000 -24.554434 -124.40676 -46.563004 -166.76424 -47.770241 -161.58838 -8.081358 -167.05034
13440000000 -23.82802 -116.29405 -47.747208 156.2758 -48.252674 162.64738 -8.5064926 -174.22246
13460000000 -22.581856 -120.5755 -46.43428 123.93503 -47.590328 127.55981 -9.7038708 -175.94518
13480000000 -22.961807 -133.5638 -45.664127 75.834892 -45.908985 80.754082 -9.3409538 173.91096
13500000000 -26.162247 -140.89154 -45.605553 33.674717 -45.664124 40.397484 -9.5956068 166.7834
13520000000 -28.500252 -125.82495 -46.024124 -8.3475828 -45.460518 3.3556583 -10.243133 161.2428
13540000000 -26.70714 -119.30828 -46.615589 -34.346764 -45.464653 -28.873302 -10.724416 157.41481
13560000000 -25.879604 -131.41017 -44.982204 -72.760681 -44.673328 -61.202145 -11.388598 147.16962
13580000000 -27.726204 -139.79272 -45.02562 -114.96573 -44.065605 -96.456932 -12.048648 147.23164
13600000000 -30.251781 -135.20749 -46.032932 -154.47217 -44.671173 -140.82768 -12.316462 138.71106
13620000000 -30.503551 -117.89217 -45.746475 174.94862 -44.847336 -172.00034 -13.018177 131.50786
13640000000 -29.682478 -121.80592 -45.573494 139.01018 -44.698483 148.99384 -13.511586 125.69939
13660000000 -29.178225 -103.55791 -45.224567 104.39233 -44.758411 107.68708 -14.314451 124.72046
13680000000 -27.348162 -119.66286 -45.043972 70.649734 -45.048599 70.593704 -15.255713 113.82176
13700000000 -28.545813 -134.11798 -44.989037 33.15979 -44.712906 29.929407 -15.623751 108.99102
13720000000 -32.948067 -132.90369 -44.643642 0.11647172 -45.134438 -4.0362325 -16.476933 96.740143
13740000000 -32.821537 -96.974373 -43.705414 -35.367706 -44.627777 -35.805832 -16.95698 89.49025
13760000000 -28.431417 -107.58566 -43.296722 -70.366524 -44.014805 -72.649353 -17.709581 83.990219
13780000000 -26.658291 -127.55552 -42.770958 -107.91129 -44.045361 -105.44651 -19.231342 77.667847
13800000000 -27.41992 -147.93169 -42.481682 -143.33687 -43.388905 -138.25809 -19.168486 66.217285
13820000000 -30.844402 -142.66678 -41.787201 -179.52553 -42.475384 -177.27547 -19.730682 55.999832
13840000000 -31.356539 -121.99879 -41.35445 143.33168 -42.942158 144.05858 -20.431925 35.865993
13860000000 -28.780704 -124.54202 -41.030651 100.43638 -42.332081 110.85086 -19.880304 25.283443
13880000000 -28.264303 -148.43126 -41.758121 64.252014 -42.055996 71.560455 -20.800833 10.272231
13900000000 -28.569942 -177.9707 -41.346588 33.75898 -41.7313 42.795143 -20.300987 -3.6552651
13920000000 -30.748989 167.3671 -40.653114 -8.5545845 -40.714287 1.6253968 -19.270727 -17.566603
13940000000 -31.9137 177.01839 -41.810036 -48.409931 -41.620579 -37.305679 -19.607973 -25.77129
13960000000 -31.565302 -177.67438 -42.172756 -73.219719 -40.828796 -67.867439 -17.544697 -36.703793
13980000000 -30.896774 161.27316 -40.872131 -111.00837 -39.837757 -108.21042 -16.855362 -47.125217
14000000000 -30.354214 132.48193 -41.524429 -149.31879 -40.400352 -147.14679 -16.301104 -60.183796
14020000000 -30.543385 116.68026 -41.515232 176.66348 -40.364494 177.35873 -15.418352 -69.398422
14040000000 -31.161835 109.21898 -42.069206 147.11255 -40.800404 144.43971 -14.055945 -75.393044
14060000000 -30.646656 107.80326 -41.441479 118.71003 -41.163517 113.5499 -14.919324 -83.993729
14080000000 -30.7111 89.461418 -39.962955 83.836372 -39.72908 80.288338 -13.169122 -91.017166
14100000000 -30.123665 67.696327 -40.016121 47.19413 -39.817741 40.279499 -12.64953 -101.33363
14120000000 -29.912413 59.777283 -39.282188 14.612111 -40.312103 9.633709 -12.382002 -109.04885
14140000000 -28.260303 57.670559 -38.276276 -20.538942 -39.066883 -20.750343 -11.606201 -117.63847
14160000000 -27.446012 47.791027 -37.970844 -62.012608 -39.064438 -58.533009 -11.457325 -124.00338
14180000000 -26.846481 39.557503 -37.447189 -90.777542 -38.043983 -91.527733 -11.422029 -132.24107
14200000000 -26.615002 23.464634 -36.29155 -131.89883 -37.162399 -128.65895 -10.475065 -139.78806
14220000000 -27.971493 23.80319 -36.278534 -170.62413 -36.578041 -167.43991 -10.479097 -148.41301
14240000000 -26.771694 28.545822 -36.015034 154.62518 -36.49258 154.73045 -10.508653 -157.70184
14260000000 -25.075302 21.734715 -35.252686 117.95552 -35.786842 120.72456 -9.9970503 -163.77657
14280000000 -24.738255 9.1739969 -35.053528 75.83992 -35.514885 81.878212 -10.434167 -168.31027
14300000000 -25.680883 -5.1064358 -34.761848 38.338608 -34.908878 40.779015 -9.9096231 -178.91544
14320000000 -27.222673 -0.38266891 -34.585087 3.1034005 -34.859257 4.1002145 -9.9834938 172.04897
14340000000 -26.317314 5.2464275 -34.388958 -33.325466 -34.655987 -31.283875 -10.44965 163.99484
14360000000 -24.33004 2.3879147 -33.800892 -72.100197 -34.002289 -70.483238 -10.46321 156.97993
14380000000 -24.073462 -9.4513435 -33.783672 -111.31369 -33.918907 -108.66142 -10.431746 153.29076
14400000000 -25.748201 -19.02828 -33.625095 -149.004 -34.10017 -144.88835 -10.684503 144.92955
14420000000 -26.530928 -12.865197 -33.303318 174.53845 -33.692036 179.00792 -11.864932 137.53827
14440000000 -25.792854 -1.4712532 -32.998268 134.52371 -33.006672 138.41292 -11.20303 128.86847
14460000000 -24.252235 -6.0289483 -33.170322 97.009064 -33.198666 100.85889 -11.753566 121.51948
14480000000 -23.66161 -15.220965 -33.02673 60.051769 -33.07325 63.046658 -12.197512 115.47162
14500000000 -25.116404 -17.293066 -32.860989 22.00341 -32.834618 26.121237 -12.582541 111.30757
14520000000 -25.294807 -12.230305 -32.732368 -16.888123 -32.536121 -11.956968 -13.269014 104.12517
14540000000 -24.365805 -6.5849385 -32.699722 -54.628216 -32.427589 -51.572315 -14.222233 92.432869
14560000000 -23.136755 -10.478516 -32.94072 -95.536057 -32.757175 -93.43631 -13.503232 87.952431
14580000000 -22.572645 -15.836102 -33.176414 -131.34605 -32.90419 -127.34692 -14.252272 79.633026
14600000000 -23.102789 -18.903803 -33.036026 -168.51584 -32.45166 -165.69154 -15.164492 73.247795
14620000000 -23.344324 -14.848783 -33.13345 153.13461 -32.588413 153.65666 -15.274937 67.378525
14640000000 -21.995378 -16.448475 -33.169556 115.61512 -32.735306 117.64668 -16.865364 56.796329
14660000000 -21.236128 -19.089811 -33.394779 77.893814 -32.739563 79.026344 -15.694492 50.300682
14680000000 -20.912018 -24.642584 -33.600742 41.596191 -32.8372 39.821354 -16.665316 40.497017
14700000000 -20.637321 -26.705599 -33.508331 5.0965991 -33.141888 3.097753 -17.854855 30.84227
14720000000 -20.871367 -27.889078 -33.315594 -32.370529 -32.881153 -33.983574 -17.807873 24.419741
14740000000 -20.528519 -30.534451 -33.684959 -70.763588 -33.33279 -74.358826 -18.695414 14.713042
14760000000 -19.973602 -34.338898 -33.639 -104.13306 -33.660164 -108.97002 -19.148428 -11.48632
14780000000 -19.702993 -37.3582 -33.038036 -142.98256 -33.310715 -146.57744 -19.065664 -5.3886356
14800000000 -19.353708 -41.026577 -33.097481 175.03088 -33.387993 173.16383 -19.705667 -26.037973
14820000000 -19.273705 -46.392239 -33.480194 139.18718 -33.894154 136.5542 -20.203135 -33.32489
14840000000 -19.673985 -51.915932 -33.304581 102.29317 -34.047825 100.74136 -20.119387 -40.311234
14860000000 -20.005293 -53.756145 -33.070309 64.339844 -33.736477 64.852989 -20.785414 -59.617893
14880000000 -19.637859 -53.838303 -33.040974 24.915325 -33.510036 26.367361 -18.806808 -78.734169
14900000000 -19.07048 -58.452587 -32.993481 -15.518562 -33.633923 -14.708727 -19.506472 -86.874962
14920000000 -18.916641 -65.222984 -33.33902 -54.685501 -33.796978 -51.644756 -19.652624 -116.37498
14940000000 -19.712406 -73.158691 -33.366528 -91.743271 -33.582954 -88.906334 -20.676298 -111.16133
14960000000 -20.964893 -74.190933 -33.118237 -132.95541 -33.427429 -130.7682 -21.051619 -119.80761
14980000000 -21.081753 -69.523666 -33.74052 -174.55312 -33.895275 -169.15852 -20.112501 -134.03247
15000000000 -20.436558 -70.669479 -33.921543 148.79694 -33.731747 152.54427 -19.214548 -143.38577
15020000000 -19.968363 -78.185493 -33.741985 108.09455 -33.782433 110.72544 -19.885103 -145.91193
15040000000 -21.23505 -88.938431 -34.091774 65.698448 -33.932636 71.547813 -17.178308 175.77794
15060000000 -23.349409 -89.662621 -34.444054 25.670616 -33.986214 31.346205 -20.760019 172.51834
15080000000 -23.878288 -76.800179 -35.0886 -13.783253 -34.57909 -10.263407 -21.673933 164.50127
15100000000 -22.547606 -76.407021 -35.336849 -51.508808 -34.929901 -49.262714 -21.554811 157.05942
15120000000 -21.778671 -83.931351 -35.375515 -90.437523 -35.136261 -88.37545 -21.373886 142.20508
15140000000 -22.935354 -90.529343 -35.597 -132.35802 -35.371758 -129.50462 -27.141281 120.88446
15160000000 -25.210697 -88.235756 -36.371311 -171.67741 -35.761887 -169.19824 -19.313694 111.54436
15180000000 -24.355499 -74.967819 -36.444172 153.46181 -36.240067 150.47377 -23.005466 85.154022
15200000000 -23.243301 -73.509834 -36.034542 110.711 -36.465805 109.72887 -23.924227 67.720222
15220000000 -22.882811 -80.579781 -36.958073 68.192825 -37.40612 69.950836 -22.419947 58.394711
15240000000 -23.32365 -83.233292 -37.677444 34.715012 -37.729889 34.295048 -23.779284 36.167767
15260000000 -23.509857 -80.53508 -37.043785 -4.0128531 -37.270821 -6.3289742 -20.444666 -7.9010501
15280000000 -23.407383 -83.787941 -37.408009 -47.570999 -37.856712 -49.603039 -20.707556 20.270084
15300000000 -22.85743 -85.569176 -38.064495 -87.285248 -38.525581 -86.437149 -20.306065 -12.515644
15320000000 -22.845295 -90.092529 -38.002342 -124.87322 -38.339287 -125.33303 -20.073408 -17.394272
15340000000 -22.684599 -93.036194 -38.082397 -168.40045 -38.625248 -168.20758 -19.372488 -22.391624
15360000000 -22.35338 -95.713181 -38.898693 150.7968 -39.545528 153.51297 -18.389826 -42.767696
15380000000 -22.599751 -101.48652 -39.339821 114.33619 -39.23402 116.08525 -15.764258 -51.980228
15400000000 -23.038204 -111.18574 -38.6614 75.918968 -39.286118 76.415909 -16.360815 -58.418716
15420000000 -23.997705 -115.74464 -39.154846 31.25618 -39.286041 36.905949 -16.227074 -73.140862
15440000000 -24.143473 -115.43305 -39.284286 -8.0011101 -39.322006 -1.1903025 -16.274355 -69.49752
15460000000 -23.503716 -118.65726 -39.488136 -45.117195 -39.253849 -42.407921 -15.854815 -75.75103
15480000000 -23.547298 -128.05759 -38.996933 -83.454727 -39.165474 -79.534668 -14.451149 -87.241707
15500000000 -24.366024 -145.15298 -38.909744 -126.06685 -39.001072 -120.96321 -13.819675 -92.295952
15520000000 -26.801134 -154.84341 -39.019321 -165.1588 -39.044113 -159.86707 -13.334079 -91.49379
15540000000 -28.227781 -156.5329 -39.334251 159.92154 -39.308578 164.53442 -14.134709 -115.65173
15560000000 -27.63608 -152.01173 -38.547531 120.4631 -38.364983 124.30222 -13.810007 -111.05515
15580000000 -26.992046 -160.84253 -38.435589 78.182587 -38.175468 80.800598 -13.333152 -118.42831
15600000000 -27.150005 174.86853 -38.509094 39.520565 -38.366547 42.811707 -12.511795 -124.2568
15620000000 -29.054455 145.88393 -38.310337 0.88746983 -38.183487 3.4249272 -12.17843 -130.03731
15640000000 -30.599552 120.83991 -38.251373 -36.159008 -37.917332 -33.394009 -12.830291 -127.37717
15660000000 -31.300076 122.13084 -37.763905 -73.315414 -38.258282 -69.457863 -12.514777 -148.92931
15680000000 -31.259466 123.98214 -37.607681 -113.48238 -37.555958 -112.0289 -12.56274 -150.75813
15700000000 -29.313847 114.13055 -37.441708 -152.91968 -37.532391 -151.76366 -12.15146 -157.07303
15720000000 -27.516851 93.353294 -37.348816 169.86949 -37.419491 170.04655 -12.021659 -167.04475
15740000000 -25.993435 69.198273 -36.759216 130.28902 -36.822361 130.90857 -12.249932 -170.17477
15760000000 -25.281565 58.389862 -36.716732 89.164482 -36.718243 90.549713 -9.8912058 161.85995
15780000000 -26.192871 55.520794 -36.699791 50.98386 -37.014282 54.781586 -12.510036 170.65178
15800000000 -26.092134 57.411476 -36.588955 11.998256 -36.961105 15.230968 -13.159029 165.03729
15820000000 -24.740416 58.075562 -36.430016 -26.336559 -36.424007 -21.779007 -13.055634 153.97537
15840000000 -23.149475 48.468716 -36.004841 -65.199631 -36.086079 -64.809303 -13.256729 144.29288
15860000000 -21.966824 37.311501 -36.102432 -105.79247 -36.373825 -103.7014 -14.759946 139.62138
15880000000 -21.987459 33.423897 -36.270157 -143.58022 -36.271763 -141.84961 -11.952114 116.80233
15900000000 -22.434025 32.545715 -36.118664 -179.23688 -36.35936 -179.55525 -16.284206 117.53193
15920000000 -22.107727 35.800945 -35.842194 139.66701 -36.336159 139.92282 -17.151974 110.4914
15940000000 -21.211071 36.324726 -36.423481 99.062584 -36.596291 102.5603 -16.731552 95.630424
15960000000 -19.98279 31.626591 -36.300655 63.840801 -36.653786 64.226784 -17.733746 83.350922
15980000000 -19.379631 27.611677 -36.003616 22.560297 -36.407269 27.299931 -20.335093 60.226116
16000000000 -19.211092 25.544985 -36.380333 -18.727203 -36.443146 -11.968282 -20.153831 42.582314
16020000000 -19.195204 24.736488 -36.885426 -56.596004 -36.594215 -51.805626 -28.053358 31.552172
16040000000 -18.824787 25.785534 -37.306828 -92.152794 -37.508396 -87.759254 -23.278702 19.104246
16060000000 -17.958153 25.900152 -37.35973 -130.79164 -36.886894 -125.24625 -20.025589 7.6599693
16080000000 -16.851456 23.287582 -37.704674 -167.004 -36.971504 -164.95282 -19.76199 -15.282956
16100000000 -16.084875 20.122585 -37.507694 154.69341 -36.796726 157.19907 -18.079691 -34.406303
16120000000 -15.851439 15.110476 -38.18906 115.6081 -37.052559 117.36798 -16.845873 -42.925705
16140000000 -16.066938 15.192039 -38.661968 79.730934 -38.858654 76.830582 -20.01034 -86.822807
16160000000 -15.529034 16.752707 -38.167965 47.421223 -38.617867 48.00523 -18.008581 -62.122482
16180000000 -14.365339 14.948692 -38.073978 8.4972429 -38.214909 5.3676577 -16.229252 -66.973969
16200000000 -13.386348 9.9770956 -38.357822 -30.627811 -38.435413 -34.216522 -14.867156 -77.616005
16220000000 -13.105721 4.7794738 -38.94521 -67.159073 -39.277748 -71.543068 -14.30926 -86.402031
16240000000 -13.099985 3.0653894 -39.22834 -99.756844 -39.641163 -103.11729 -13.232561 -83.999962
16260000000 -13.002115 3.8142138 -39.131203 -137.37314 -40.598404 -135.08624 -15.178222 -105.08679
16280000000 -12.25974 2.2437115 -39.138359 -178.101 -39.642242 -175.15141 -13.533506 -100.23
16300000000 -11.440378 -2.2311134 -39.775455 146.45471 -40.561443 145.8909 -12.766663 -106.11749
16320000000 -11.08134 -6.6157193 -39.654404 110.06116 -40.665932 112.88605 -12.487703 -117.41017
16340000000 -10.924414 -8.9819307 -39.877975 73.110481 -40.215218 77.976921 -11.792809 -120.41985
16360000000 -10.623799 -10.261945 -40.331982 37.804577 -40.587601 39.715202 -11.611449 -117.89736
16380000000 -10.427628 -11.5765 -40.739132 -1.8202616 -41.226318 9.2658167 -12.219857 -131.78456
16400000000 -10.006822 -14.412456 -41.575123 -39.743618 -40.853836 -30.51108 -11.321192 -131.87239
16420000000 -9.6051826 -17.484524 -41.797459 -76.321342 -40.969753 -65.389648 -10.799809 -138.56483
16440000000 -9.2149134 -20.11694 -41.977222 -113.05439 -40.811325 -106.22173 -11.019944 -147.71147
16460000000 -8.9349117 -23.062094 -42.336224 -152.15422 -40.616352 -142.98074 -10.630882 -148.02405
16480000000 -8.8421631 -25.001308 -43.219856 175.4153 -40.480492 176.60393 -10.812882 -150.15802
16500000000 -8.7611237 -26.067875 -42.885849 142.95113 -41.110954 136.92401 -10.479469 -156.70595
16520000000 -8.2822762 -27.430124 -42.938519 111.62846 -42.071522 100.44118 -9.8548336 -159.66417
16540000000 -7.6816316 -30.520885 -42.692287 73.463844 -42.024284 63.963112 -9.8946953 -168.76692
16560000000 -7.386487 -34.162842 -42.569523 32.190655 -42.242737 20.30706 -9.9673185 -174.90199
16580000000 -7.3874435 -36.006088 -43.073292 -4.5942359 -42.953106 -15.316076 -9.9032612 -176.67116
16600000000 -7.3199449 -36.152763 -42.927891 -37.722172 -43.676563 -51.87022 -10.167734 177.37596
16620000000 -6.8474002 -37.685768 -42.007374 -78.489502 -43.461014 -91.544945 -10.2071 169.79446
16640000000 -6.1911111 -40.448261 -42.021004 -120.74651 -45.039783 -127.05721 -8.9381905 171.52176
16660000000 -5.8773942 -44.335915 -43.517986 -158.92087 -46.046841 -163.80829 -9.347127 158.82643
16680000000 -5.7788892 -46.282017 -43.65741 166.95175 -46.411453 162.05284 -9.5764093 153.17621
16700000000 -5.5258617 -46.765789 -43.755924 124.63587 -46.618649 125.38154 -10.174475 147.85222
16720000000 -5.0264258 -48.409504 -44.970448 81.02018 -47.298573 92.550613 -10.064164 142.49806
16740000000 -4.6554704 -53.436459 -47.431385 42.162411 -49.065121 54.794495 -8.8911619 151.46426
16760000000 -4.2973804 -56.153336 -48.356388 6.5215063 -49.128284 27.935623 -10.007683 134.0757
16780000000 -4.0563574 -58.730755 -48.207138 -21.726519 -47.706089 -7.5614858 -10.223804 120.1352
16800000000 -3.6981208 -60.615715 -48.743164 -67.769424 -47.613956 -51.784149 -11.017233 111.93485
16820000000 -3.3111267 -63.444725 -51.106228 -95.394234 -49.357437 -89.855888 -11.341034 108.21754
16840000000 -2.9825525 -67.119064 -50.89201 -124.57259 -49.761581 -126.21396 -11.833435 98.447945
16860000000 -2.8342223 -71.892929 -51.335434 -163.33089 -49.795883 -164.28564 -12.504573 82.513748
16880000000 -2.4811547 -74.027596 -53.291939 156.10608 -50.619495 149.15662 -12.682245 83.806145
16900000000 -2.1321948 -77.059135 -52.702526 125.48697 -51.020668 114.67328 -12.965086 70.607597
16920000000 -1.9054494 -80.488029 -53.803253 70.477882 -52.619633 66.330833 -14.304132 64.076141
16940000000 -1.6869825 -84.071243 -56.366043 51.564522 -54.550289 30.554291 -14.79521 59.873207
16960000000 -1.5019671 -87.490334 -53.639732 21.716238 -56.959923 -5.2693644 -15.20257 44.542168
16980000000 -1.2480898 -90.901512 -53.339699 -29.180399 -57.284168 -42.067707 -14.694149 32.0569
