!Keysight Technologies,P9374A,MY57211810,A.19.30.04
!Date: Friday, May 09, 2025 09:14:57
!Correction: S11(Cdelta 2-Port  ) 
!S21(Cdelta 2-Port  ) 
!S12(Cdelta 2-Port  ) 
!S22(Cdelta 2-Port  ) 
!S2P File: Measurements: S11, S21, S12, S22:
# Hz S  dB   R 50
13000000000 -20.357117 -82.049583 -45.760818 71.066391 -48.048153 86.535568 -17.842186 -41.760612
13020000000 -20.031174 -80.655434 -45.983017 36.684631 -48.03801 54.945747 -16.870171 -45.342163
13040000000 -20.208506 -84.070808 -46.275951 0.92305696 -48.107697 24.035494 -15.679791 -54.287231
13060000000 -21.237024 -85.827301 -46.843754 -31.663067 -46.945221 -4.5081682 -13.78072 -51.881603
13080000000 -21.547657 -81.563011 -47.395668 -70.774376 -46.072994 -50.887386 -13.169644 -60.502834
13100000000 -20.464289 -80.297638 -48.959904 -109.89835 -47.205074 -86.840775 -12.248819 -64.721268
13120000000 -19.864668 -82.784325 -51.466061 -138.11563 -48.328106 -125.2421 -11.622861 -67.869347
13140000000 -20.041487 -86.503418 -51.694984 -168.75465 -49.397995 -154.15384 -10.592913 -73.236519
13160000000 -20.457676 -86.734329 -53.64875 -177.81989 -48.817257 171.40443 -10.056268 -80.972305
13180000000 -20.880093 -85.897972 -51.828178 157.11479 -49.268162 130.9572 -9.0492048 -83.107613
13200000000 -20.381901 -88.625595 -51.091686 131.88466 -52.142544 100.42434 -8.7618637 -91.145325
13220000000 -20.117443 -92.757057 -49.036263 99.65731 -54.341438 68.10881 -8.5032845 -101.48202
13240000000 -20.114183 -96.328522 -47.905151 77.490868 -54.565212 63.678757 -8.0634995 -99.077629
13260000000 -20.337856 -98.966606 -46.427555 38.35574 -53.742336 50.864338 -7.2758131 -111.14486
13280000000 -20.389248 -99.553818 -44.547424 7.7198315 -50.231937 27.39629 -7.0624452 -117.71355
13300000000 -20.825079 -105.66416 -43.605671 -32.811626 -47.797626 -4.4550362 -6.9050198 -124.85062
13320000000 -21.439243 -109.34093 -42.877819 -65.96698 -45.041954 -38.414551 -6.8621702 -131.76895
13340000000 -21.205345 -107.05726 -42.790295 -101.16763 -44.736465 -80.382545 -7.9377847 -139.71898
13360000000 -20.661114 -111.58372 -41.411694 -137.78201 -41.666344 -118.22887 -6.8664227 -145.11441
13380000000 -21.386227 -121.09422 -40.986595 -175.79684 -40.828896 -161.73517 -7.128181 -153.80746
13400000000 -23.325727 -122.00454 -40.713375 147.36046 -39.763943 160.68607 -7.2110686 -159.87523
13420000000 -23.514158 -116.67078 -40.772339 112.16449 -39.03175 120.77333 -7.6701865 -165.90572
13440000000 -22.213289 -123.12829 -40.394722 77.455818 -38.633064 80.697678 -8.1304684 -172.88933
13460000000 -23.13262 -130.72791 -40.831318 44.093227 -39.387341 44.622166 -9.337903 -174.07127
13480000000 -24.93667 -130.89558 -40.283958 4.7445006 -38.631329 2.2307324 -8.9752216 175.64041
13500000000 -25.230688 -126.64565 -40.422943 -34.027157 -38.694393 -39.044113 -9.2774639 169.05261
13520000000 -25.764793 -131.40271 -40.659679 -70.34272 -39.374096 -79.010429 -9.9241095 163.8175
13540000000 -27.317875 -135.40631 -40.705853 -108.1709 -40.396694 -114.95027 -10.420359 160.38847
13560000000 -27.204107 -129.99475 -40.906693 -143.65086 -40.396866 -151.4841 -11.109279 150.77809
13580000000 -27.059656 -131.4485 -40.54948 -178.00124 -41.328995 173.42874 -11.778351 151.20331
13600000000 -28.564783 -138.56319 -41.206135 142.09406 -41.619869 136.83543 -12.066174 142.76054
13620000000 -31.194338 -132.51482 -41.554714 108.88297 -41.959171 105.34096 -12.85342 136.20186
13640000000 -30.658571 -113.08212 -41.211277 74.34993 -41.623981 71.907883 -13.336243 130.87654
13660000000 -28.431095 -119.65778 -41.529697 37.167824 -41.422848 39.034588 -14.094919 130.46149
13680000000 -28.650728 -131.01033 -41.785923 5.3968401 -41.358398 8.7958174 -15.253406 120.33324
13700000000 -30.363445 -125.07064 -41.324993 -30.650431 -40.447178 -28.304701 -15.556935 116.41873
13720000000 -31.410461 -119.84023 -41.30946 -67.228996 -40.32922 -68.392403 -16.551338 104.51723
13740000000 -30.183535 -115.78909 -41.307037 -99.706612 -40.238815 -100.38344 -17.265228 97.153046
13760000000 -28.9554 -118.78464 -40.736015 -135.47095 -40.27042 -139.92671 -18.058115 93.098854
13780000000 -27.676313 -131.14136 -40.795784 -172.53711 -40.554852 -176.4447 -19.768793 87.63765
13800000000 -27.983973 -144.27281 -40.726875 152.6965 -41.028072 145.54294 -19.991806 75.957436
13820000000 -30.088591 -133.69269 -40.726139 118.18356 -41.569717 107.76279 -20.789703 65.328812
13840000000 -29.95479 -134.01511 -40.635937 80.789757 -41.995949 77.064537 -21.959049 42.285904
13860000000 -29.092665 -136.43799 -40.827606 45.231022 -41.14946 40.767624 -21.732307 30.567003
13880000000 -30.188143 -149.2608 -41.063366 10.40907 -41.249615 2.5712485 -22.949568 15.258909
13900000000 -28.705317 -172.36446 -41.305984 -23.447699 -42.031971 -26.463352 -22.178673 -3.273016
13920000000 -28.984802 173.00151 -40.933563 -59.484303 -41.198509 -56.285027 -20.943918 -20.088074
13940000000 -30.849712 163.99016 -41.738445 -98.646362 -41.459831 -96.842537 -21.205824 -27.564562
13960000000 -33.712879 176.52315 -42.248047 -124.15873 -41.665871 -125.08975 -18.619394 -40.165592
13980000000 -31.161167 175.93933 -41.354099 -160.23555 -41.073452 -161.51312 -17.860359 -50.971619
14000000000 -28.957052 141.14537 -41.81451 161.15311 -41.830803 162.99271 -17.093515 -64.430824
14020000000 -28.358942 111.14451 -41.992249 128.26167 -41.738037 129.15141 -16.046701 -73.732231
14040000000 -31.997868 98.809456 -42.404373 95.029114 -41.747093 98.009308 -14.636927 -78.769508
14060000000 -32.083408 110.77991 -42.346649 64.328835 -42.364582 62.20496 -15.408395 -86.846817
14080000000 -30.403193 95.421608 -41.954018 28.836813 -42.442093 30.466749 -13.512206 -93.85524
14100000000 -30.482439 70.381012 -41.383408 -8.0081043 -41.525917 -2.8953929 -12.969607 -104.10323
14120000000 -29.249466 69.03289 -41.566467 -45.434063 -40.94627 -39.402042 -12.660472 -111.20467
14140000000 -26.635025 58.856842 -41.673927 -78.136703 -41.370575 -74.416939 -11.817544 -119.5027
14160000000 -26.519352 35.916843 -41.372768 -116.55112 -41.121258 -112.08831 -11.680019 -125.05317
14180000000 -29.198832 31.983259 -41.570599 -151.75066 -40.989689 -149.70319 -11.514285 -132.88185
14200000000 -28.472775 43.675346 -41.294746 173.41948 -40.616344 176.00703 -10.531127 -140.68549
14220000000 -25.616199 33.038574 -41.123676 136.12303 -40.410805 142.08711 -10.600238 -148.91515
14240000000 -25.245258 15.796093 -41.945988 99.300919 -40.745255 104.91622 -10.553988 -157.51349
14260000000 -26.363468 11.195919 -42.225342 70.108635 -40.991718 77.082764 -9.9556313 -163.61179
14280000000 -26.048462 15.165273 -41.756954 36.917328 -40.681625 44.835236 -10.409901 -168.18568
14300000000 -25.47945 4.8423481 -41.365475 2.2147014 -39.981319 6.9091058 -9.8793926 -178.59763
14320000000 -25.863455 -0.50118691 -41.04126 -30.481253 -40.107273 -27.276764 -9.9228563 172.5415
14340000000 -25.823399 0.87017524 -40.826492 -66.34478 -40.198402 -63.78009 -10.380555 164.44624
14360000000 -24.727913 -2.1393692 -40.683495 -100.80554 -40.2178 -100.42863 -10.409464 157.092
14380000000 -25.116077 -9.5968742 -40.465473 -135.19867 -40.105083 -135.77246 -10.41584 153.42764
14400000000 -26.165613 -6.9570336 -39.714035 -170.91257 -40.204327 -174.28813 -10.738919 145.44484
14420000000 -24.66222 -8.2257099 -39.628094 153.3347 -40.352234 152.72758 -11.849753 138.3499
14440000000 -25.081617 -14.098277 -39.458588 115.92606 -40.020142 115.38475 -11.214419 128.54103
14460000000 -26.012369 -10.857721 -39.302017 81.209152 -40.149487 83.144615 -11.931593 121.51099
14480000000 -24.548309 -3.0088882 -39.286236 45.043114 -40.392593 48.565151 -12.389719 115.48966
14500000000 -23.772657 -10.974189 -38.872665 9.6439981 -39.800529 15.605472 -12.897945 111.3984
14520000000 -24.415516 -19.800957 -38.880219 -27.315969 -39.56263 -16.810265 -13.638518 104.82693
14540000000 -25.248087 -10.00549 -39.097546 -63.735489 -39.323746 -52.043682 -14.602316 92.165085
14560000000 -23.807083 -7.7656112 -39.166103 -99.7127 -38.757122 -93.215347 -14.019901 87.322182
14580000000 -22.640055 -13.253655 -39.126495 -134.08441 -38.925152 -132.4785 -14.997427 79.187996
14600000000 -22.715883 -16.440641 -38.959339 -170.57074 -38.96825 -167.39952 -15.980292 73.107658
14620000000 -22.943207 -15.415498 -39.268688 151.94235 -39.119301 155.23737 -16.146894 66.780533
14640000000 -22.029123 -19.048361 -39.558575 115.72657 -39.64782 120.87347 -18.066029 54.99194
14660000000 -21.972626 -17.743511 -39.773563 83.049942 -39.732574 85.630196 -16.873987 48.957928
14680000000 -20.875311 -19.20236 -39.584919 47.75214 -40.221451 50.884869 -17.966927 38.875645
14700000000 -20.023722 -27.30341 -39.591934 11.966608 -40.610966 14.678565 -19.358482 27.471466
14720000000 -20.927488 -31.783237 -39.809719 -21.596941 -40.315922 -23.734709 -19.503775 21.048168
14740000000 -21.39846 -28.821157 -40.259899 -58.960449 -41.285603 -60.53236 -20.659082 10.660914
14760000000 -20.034147 -30.382414 -40.208775 -91.389664 -40.613403 -88.898911 -20.798086 -19.895802
14780000000 -19.223303 -35.986053 -40.012505 -128.56551 -39.621639 -129.07051 -20.79545 -10.514953
14800000000 -19.093737 -43.299419 -40.401955 -165.69475 -39.976349 -169.5112 -21.097523 -35.604797
14820000000 -19.571083 -49.393471 -40.813885 163.76567 -40.123611 159.62291 -21.709955 -44.304184
14840000000 -20.207829 -51.300266 -40.419804 127.33161 -40.24762 122.94078 -21.615952 -50.833019
14860000000 -20.25625 -50.427013 -40.85664 90.98745 -41.788589 85.245903 -21.79558 -71.730141
14880000000 -19.384514 -52.248112 -40.5252 57.502251 -42.197948 53.235729 -19.196438 -88.3517
14900000000 -18.703312 -58.963287 -41.114128 17.717976 -43.120106 17.453598 -19.687616 -97.029549
14920000000 -19.088707 -67.996819 -41.620071 -15.938849 -43.566849 -13.65506 -19.151106 -125.86222
14940000000 -20.268686 -74.03875 -41.502522 -47.190098 -43.281078 -44.159264 -20.510311 -121.9865
14960000000 -21.119797 -70.497261 -41.049465 -85.325439 -43.120575 -81.136482 -20.728149 -128.37054
14980000000 -20.812027 -68.227798 -42.284622 -119.58577 -43.284576 -111.33913 -19.552515 -140.89177
15000000000 -20.327791 -74.466713 -41.615189 -153.65306 -41.678284 -145.72165 -18.67561 -148.63464
15020000000 -20.429611 -80.129753 -41.758751 164.93106 -41.355354 175.82289 -19.263533 -150.52126
15040000000 -21.751768 -84.492256 -42.646225 130.57639 -41.292656 140.59094 -16.489328 174.48364
15060000000 -22.75959 -84.443459 -42.652397 102.74112 -41.897797 105.44584 -19.805786 171.52856
15080000000 -22.815048 -81.9832 -42.553513 64.109238 -42.443253 70.127785 -20.62743 163.97603
15100000000 -23.061464 -83.115494 -43.218468 25.854792 -43.409912 30.757412 -20.712076 157.75839
15120000000 -22.901598 -84.057648 -43.873535 -3.2456286 -45.085091 -3.1136737 -20.656815 145.88861
15140000000 -23.266382 -84.334625 -43.668106 -37.846329 -45.00959 -27.959888 -25.879852 132.52858
15160000000 -24.409603 -82.789742 -43.811729 -63.333065 -44.746998 -64.193123 -18.805845 116.23675
15180000000 -24.086288 -77.403214 -42.989788 -96.058777 -43.598747 -97.713112 -23.054213 92.096252
15200000000 -23.2167 -77.573814 -42.983471 -137.42053 -43.116398 -138.09422 -24.82534 76.878387
15220000000 -23.421221 -82.344826 -43.683529 -173.13669 -43.927658 -176.74957 -23.46319 67.707382
15240000000 -23.697495 -81.124146 -43.742168 151.10951 -44.767658 154.23463 -25.440487 45.995522
15260000000 -23.438974 -80.014229 -43.966076 116.11736 -45.501141 122.81876 -21.874836 -8.5977955
15280000000 -23.402346 -83.781242 -44.56242 82.024086 -46.375 97.243515 -22.088366 25.30242
15300000000 -23.202852 -84.456245 -43.918972 53.165684 -45.663834 72.219772 -21.900539 -13.935581
15320000000 -22.759716 -87.744377 -44.303616 12.363839 -45.834038 39.716644 -21.678135 -18.444859
15340000000 -22.168324 -93.038254 -45.284279 -15.536374 -45.271736 5.2558126 -20.949333 -24.216255
15360000000 -22.293991 -100.43758 -45.009335 -49.44405 -45.432648 -28.855179 -19.724007 -46.169521
15380000000 -23.233389 -105.14938 -44.981907 -79.565689 -43.789005 -65.26226 -16.580637 -55.125759
15400000000 -23.741728 -109.91206 -44.971699 -113.6144 -43.465881 -110.70522 -17.216908 -62.526714
15420000000 -24.378138 -112.26318 -45.873325 -145.70071 -44.284679 -145.60437 -16.9687 -78.645172
15440000000 -23.919127 -112.30913 -46.192059 -177.28215 -44.490791 178.68321 -17.098112 -74.130836
15460000000 -22.992285 -117.46514 -45.960506 159.64767 -44.804531 150.76463 -16.593679 -80.576637
15480000000 -23.319469 -131.68915 -46.280426 127.77782 -44.71125 117.11245 -15.081676 -91.771126
15500000000 -24.767706 -148.74013 -45.770882 100.50483 -44.856304 87.559799 -14.325634 -95.695465
15520000000 -27.613092 -153.83891 -45.043224 67.94632 -44.949158 59.477173 -13.793498 -94.557755
15540000000 -28.371363 -152.70613 -45.111897 38.255196 -45.645145 28.034685 -14.355981 -119.54131
15560000000 -27.296255 -152.70763 -44.563404 2.8120742 -44.637997 -4.2389235 -14.140861 -114.94049
15580000000 -26.919661 -164.7413 -44.066433 -28.834164 -44.236217 -37.514107 -13.62759 -121.68892
15600000000 -27.691284 170.70419 -43.294422 -70.395554 -43.049271 -76.102722 -12.718972 -127.11348
15620000000 -29.916805 144.71919 -43.029068 -106.69501 -42.798012 -115.46198 -12.356347 -132.63913
15640000000 -32.117596 129.83372 -42.923618 -142.12953 -42.675877 -152.68938 -12.982876 -129.79599
15660000000 -30.440346 135.15253 -42.624352 -179.59969 -43.252056 173.27808 -12.477779 -151.20354
15680000000 -28.435799 120.34703 -42.051796 139.04028 -42.570503 135.09065 -12.553705 -153.09668
15700000000 -27.922865 97.59053 -42.58168 100.60967 -43.020317 98.290108 -12.128506 -159.14191
15720000000 -28.041542 77.600365 -42.251286 63.780609 -43.382725 65.981552 -11.95682 -168.62129
15740000000 -27.989838 62.819778 -42.027481 28.504539 -43.464607 35.112106 -12.139915 -171.15024
15760000000 -26.648514 65.405151 -42.216427 -8.1361513 -43.368244 4.0280709 -9.6706266 161.5202
15780000000 -25.417038 66.754539 -41.912609 -41.243134 -42.886185 -27.391973 -12.238422 169.75525
15800000000 -24.513531 58.353809 -41.359936 -77.596458 -42.207241 -67.082664 -12.9035 164.2641
15820000000 -24.170719 51.67889 -42.32933 -114.71365 -42.529823 -103.98912 -12.754187 154.07869
15840000000 -23.495153 43.343098 -42.369484 -141.29604 -42.801109 -137.8513 -12.875882 144.65308
15860000000 -22.447416 38.743591 -41.38076 -177.67934 -42.03223 -173.65579 -14.324421 140.11734
15880000000 -21.826994 37.176548 -41.788891 147.03963 -41.849091 151.62003 -11.66887 118.23457
15900000000 -21.638678 31.116713 -41.655716 113.10389 -42.237999 116.27478 -15.787689 119.55794
15920000000 -22.556541 30.145262 -41.922695 78.160606 -42.876141 83.735252 -16.729332 112.85204
15940000000 -22.126451 39.344185 -42.097015 45.733562 -42.761955 55.261551 -16.472584 99.12104
15960000000 -19.590652 37.826626 -42.1325 10.460438 -42.62925 21.426243 -17.563423 88.101532
15980000000 -18.386274 26.669065 -42.085236 -25.812174 -41.631969 -10.858169 -20.515514 67.035789
16000000000 -19.023014 19.924505 -42.869934 -59.641006 -41.199127 -50.0019 -20.833004 49.313076
16020000000 -20.000511 22.595444 -42.720043 -89.415535 -40.631016 -86.62851 -30.093363 52.538868
16040000000 -19.094917 30.309095 -42.538109 -125.54788 -40.841347 -126.25975 -24.842552 26.523512
16060000000 -17.451792 27.145262 -42.092979 -158.27319 -40.276608 -163.83681 -21.589779 11.339836
16080000000 -16.585783 21.020329 -41.983078 164.82507 -40.604023 160.62932 -21.698301 -14.724942
16100000000 -16.469576 18.639748 -41.869698 129.37402 -40.354408 125.3459 -19.747604 -36.878487
16120000000 -15.989616 17.166918 -41.68412 95.651871 -40.349209 89.009644 -18.325554 -46.106358
16140000000 -15.841019 16.676838 -40.716545 61.009438 -41.410774 52.171806 -21.037189 -97.952621
16160000000 -15.255041 16.656881 -40.245369 22.777018 -41.290615 20.067602 -19.528543 -69.251022
16180000000 -14.19675 12.75524 -39.929623 -12.163706 -40.691391 -16.466024 -17.727945 -72.25383
16200000000 -13.678604 7.7724457 -39.193172 -49.737522 -40.286831 -51.874466 -16.055145 -83.06736
16220000000 -13.548821 6.5840549 -38.991215 -86.81971 -39.998631 -89.097862 -15.387851 -92.659744
16240000000 -12.841349 6.8144779 -38.757183 -122.89668 -39.888515 -125.44199 -14.388545 -88.8881
16260000000 -12.359046 3.2761202 -38.649757 -161.50391 -40.932362 -159.67517 -16.098862 -112.51914
16280000000 -12.30058 -1.5527456 -38.320572 160.71457 -39.928661 162.29935 -14.598313 -106.55882
16300000000 -11.886983 -2.2723351 -38.674252 121.48538 -39.91132 120.66917 -13.807818 -111.66552
16320000000 -11.11879 -4.1048584 -38.981339 83.732277 -40.095837 83.975029 -13.409268 -123.24288
16340000000 -10.62638 -8.5729456 -39.073265 47.581303 -39.920742 47.420872 -12.681935 -125.97958
16360000000 -10.535315 -11.312759 -39.458862 5.8402543 -40.098129 7.9709249 -12.597776 -122.53618
16380000000 -10.565059 -11.860097 -40.2024 -31.832165 -41.135727 -24.915628 -12.996676 -137.80847
16400000000 -10.052218 -13.818588 -40.270638 -70.872902 -41.176151 -64.304016 -12.200815 -136.51047
16420000000 -9.5009651 -16.820984 -41.077213 -109.369 -41.622025 -99.018265 -11.60203 -143.19276
16440000000 -9.0857553 -20.689421 -41.504017 -144.2038 -42.626003 -137.08014 -11.765795 -152.06947
16460000000 -8.9767685 -23.679186 -41.687969 179.12231 -42.631023 -166.88205 -11.362975 -152.07635
16480000000 -8.9573364 -24.527065 -42.628574 142.59761 -42.452896 159.57912 -11.585934 -153.95187
16500000000 -8.6815538 -25.184607 -43.3396 110.15807 -42.024792 124.03671 -11.186695 -160.2886
16520000000 -8.0999012 -27.842836 -43.610989 79.740196 -41.976265 89.44696 -10.46454 -162.63434
16540000000 -7.7185407 -31.402494 -43.888855 50.561573 -41.51619 54.685284 -10.466449 -171.67889
16560000000 -7.531589 -33.796738 -43.391403 18.21121 -41.008739 15.297733 -10.496908 -177.77278
16580000000 -7.3707137 -34.75872 -43.270115 -18.747515 -40.730858 -23.91658 -10.438007 -179.40451
16600000000 -7.1238275 -35.799267 -43.111435 -51.787739 -41.613014 -63.348804 -10.683475 174.81618
16620000000 -6.7458205 -38.981956 -42.821701 -85.252571 -42.134174 -99.760956 -10.686412 167.32074
16640000000 -6.3640246 -41.246876 -42.383465 -121.03304 -42.819099 -133.96721 -9.3327665 169.5968
16660000000 -6.0580988 -43.192081 -42.497478 -157.30049 -42.883381 -167.46664 -9.6830387 156.87454
16680000000 -5.6434865 -44.790638 -41.820625 163.48035 -42.596416 154.4973 -9.9054232 151.20776
16700000000 -5.3064065 -47.319645 -41.860294 123.86667 -43.246189 116.94556 -10.458876 146.20468
16720000000 -5.0386171 -49.702431 -41.91539 85.93808 -43.123192 86.456398 -10.301156 140.85822
16740000000 -4.8244147 -53.552467 -41.809269 48.896 -43.548622 50.438015 -9.0810366 150.73485
16760000000 -4.3386688 -55.171497 -41.971478 6.4218345 -43.224339 13.079206 -10.155573 133.18066
16780000000 -3.9463716 -58.326736 -42.316265 -25.11862 -43.383404 -21.328705 -10.320491 119.29483
16800000000 -3.637712 -61.110489 -42.163185 -67.12767 -43.004208 -59.670479 -11.089273 111.49247
16820000000 -3.3533804 -63.657452 -43.089642 -102.26477 -43.882172 -94.419556 -11.327812 108.05231
16840000000 -3.0085173 -66.843391 -42.890705 -137.70213 -43.896671 -130.54276 -11.818384 98.262512
16860000000 -2.8048055 -71.612312 -43.082546 -175.1302 -44.43594 -165.25404 -12.478594 83.068764
16880000000 -2.4369597 -74.161385 -44.356503 148.32549 -44.932587 157.76378 -12.595073 84.501389
16900000000 -2.1493397 -77.313362 -44.180576 113.61978 -44.133995 120.90017 -12.896046 71.819397
16920000000 -1.9461125 -80.469498 -44.80476 73.917183 -44.728954 80.772644 -14.240121 65.963417
16940000000 -1.6813551 -83.762749 -45.065662 38.262165 -45.01157 48.033775 -14.703376 62.537048
16960000000 -1.4595683 -87.535347 -44.972557 -1.5390757 -44.708248 6.5733409 -15.143709 47.93338
16980000000 -1.2546149 -91.18396 -45.15226 -39.083096 -44.823799 -32.158005 -14.741475 35.768658
