!Keysight Technologies,P9374A,MY57211810,A.19.30.04
!Date: Friday, May 09, 2025 09:13:25
!Correction: S11(Cdelta 2-Port  ) 
!S21(Cdelta 2-Port  ) 
!S12(Cdelta 2-Port  ) 
!S22(Cdelta 2-Port  ) 
!S2P File: Measurements: S11, S21, S12, S22:
# Hz S  dB   R 50
13000000000 -19.971354 -95.5177 -41.859795 4.5797272 -41.846123 16.766453 -16.190781 -35.521248
13020000000 -22.549603 -85.953751 -41.68589 -40.815594 -41.609444 -29.64892 -15.465953 -40.330341
13040000000 -21.52446 -67.312126 -42.464447 -79.336227 -42.055286 -70.034271 -14.543262 -49.730911
13060000000 -19.461052 -72.092674 -42.565922 -115.35876 -41.803093 -105.26648 -12.841565 -48.935825
13080000000 -19.012487 -85.978836 -42.561752 -152.6812 -41.473446 -143.9471 -12.33672 -57.726593
13100000000 -20.287235 -97.536667 -42.445255 169.80441 -41.066055 177.73405 -11.513969 -62.389935
13120000000 -22.561575 -90.196609 -42.662861 133.21529 -41.283043 137.14262 -11.03957 -66.188232
13140000000 -21.606155 -71.513893 -41.401394 94.893738 -40.331928 96.535568 -10.048333 -71.839523
13160000000 -19.277067 -74.931236 -41.761288 47.738396 -40.445297 49.839596 -9.6135464 -79.847969
13180000000 -18.684591 -88.048546 -42.532772 11.483059 -41.208233 11.951184 -8.6881495 -82.399223
13200000000 -19.626554 -101.39551 -42.211739 -22.820417 -41.079624 -25.114168 -8.4812517 -90.539085
13220000000 -21.840811 -105.40414 -41.237865 -64.419762 -40.567249 -69.116608 -8.2818308 -101.07221
13240000000 -22.205114 -88.479713 -41.095577 -103.40862 -40.393646 -106.5456 -7.942028 -98.889061
13260000000 -20.08448 -86.327126 -40.960781 -152.96533 -40.165768 -155.82765 -7.222403 -110.76581
13280000000 -18.904097 -96.968002 -41.813873 166.64276 -40.920242 165.26344 -7.0690713 -117.51633
13300000000 -19.460903 -111.38406 -41.744965 133.93704 -40.947906 129.99908 -6.998291 -124.66086
13320000000 -21.046108 -120.75723 -40.677944 93.966011 -40.109447 89.678589 -7.0048761 -131.38095
13340000000 -23.189623 -116.75206 -41.5135 47.922199 -41.483913 43.061302 -8.1293659 -139.23373
13360000000 -22.448641 -101.62334 -40.756008 8.3443737 -40.379284 4.156517 -7.1009998 -144.53223
13380000000 -20.619379 -104.91563 -40.239845 -31.008823 -40.061562 -35.917835 -7.4182239 -152.94577
13400000000 -20.304506 -118.36184 -40.229561 -75.751457 -39.818176 -79.617821 -7.50245 -158.94398
13420000000 -21.693039 -133.28249 -40.990681 -113.94462 -40.57209 -119.98581 -8.0300312 -164.91833
13440000000 -24.299479 -139.33154 -40.262794 -146.89003 -40.555817 -153.07214 -8.4996758 -171.47125
13460000000 -27.287363 -121.6632 -39.545269 171.8851 -40.213352 167.71843 -9.7306051 -172.80811
13480000000 -24.577082 -107.22301 -39.649883 125.56277 -39.87085 121.09289 -9.3770761 177.63483
13500000000 -22.92977 -121.55235 -39.504742 87.016121 -39.826786 82.404938 -9.653019 170.87451
13520000000 -23.524004 -140.68149 -39.548885 46.41552 -40.176712 42.255947 -10.321671 165.8895
13540000000 -26.243917 -157.33447 -39.243477 9.9205017 -39.909672 6.378459 -10.804337 162.62311
13560000000 -31.956266 -158.67128 -38.715446 -32.518566 -39.463036 -35.981827 -11.575782 152.98405
13580000000 -30.983616 -101.10411 -38.943562 -69.962563 -40.196655 -69.97261 -12.231498 153.64761
13600000000 -25.595707 -110.56966 -38.973705 -109.88936 -39.942135 -110.39597 -12.554246 145.45816
13620000000 -25.25729 -133.7133 -38.911194 -147.55925 -39.867931 -146.4045 -13.31219 138.93896
13640000000 -27.870224 -156.32866 -38.690792 173.24649 -39.738373 174.5471 -13.841004 133.68423
13660000000 -35.690983 -159.75223 -38.906883 135.89136 -39.662552 139.49193 -14.541855 133.89088
13680000000 -33.719273 -83.684082 -38.767719 99.500526 -39.786308 105.18326 -15.758447 123.09423
13700000000 -26.63468 -95.329453 -38.815411 61.748447 -39.149899 66.133675 -16.045099 119.2644
13720000000 -25.161081 -120.67522 -38.475727 27.158562 -38.807491 30.590441 -17.108654 107.66278
13740000000 -27.022438 -148.04893 -37.930557 -9.323328 -38.04356 -4.8372526 -17.720482 99.882698
13760000000 -33.430614 -164.08258 -37.790375 -51.398117 -37.909657 -46.756908 -18.590542 94.946716
13780000000 -34.698029 -104.19876 -38.328381 -84.193779 -38.122108 -80.817093 -20.352571 90.109329
13800000000 -28.37705 -105.25767 -37.793201 -118.03895 -37.623402 -114.40282 -20.582863 77.495583
13820000000 -25.063036 -122.68898 -36.941517 -154.15363 -36.857105 -153.67238 -21.25642 66.482178
13840000000 -25.712978 -152.20206 -36.686878 165.49454 -36.948029 165.23235 -22.403959 42.859638
13860000000 -30.196487 -174.60234 -36.886143 127.58991 -36.864628 129.30251 -21.886894 29.922352
13880000000 -38.124802 -177.55377 -36.795593 95.139877 -36.786812 96.06691 -23.00489 11.781499
13900000000 -35.191776 -148.67931 -36.01638 58.769989 -35.81345 59.197113 -22.229521 -5.0001764
13920000000 -28.905516 -153.86765 -35.81308 18.173096 -35.648438 20.147085 -20.70192 -21.192772
13940000000 -26.535801 -177.24011 -35.911179 -16.680954 -36.201706 -17.752506 -20.941145 -29.753233
13960000000 -27.678902 159.56993 -35.137135 -50.340538 -35.093029 -50.071514 -18.445133 -40.998478
13980000000 -30.518089 123.06328 -34.888103 -89.737267 -34.799015 -88.779961 -17.542109 -51.702908
14000000000 -32.563583 108.0448 -34.794868 -125.28139 -34.676853 -124.60552 -16.757059 -64.599319
14020000000 -34.410679 117.20734 -34.385738 -160.52139 -34.29641 -159.82501 -15.729977 -73.725044
14040000000 -32.240597 141.84335 -33.951427 163.53799 -33.68018 164.94458 -14.325626 -78.814476
14060000000 -28.759129 128.89636 -33.680759 126.30916 -33.824543 126.60554 -15.095878 -86.819489
14080000000 -27.707832 99.228218 -32.986774 89.991585 -32.922871 90.883652 -13.222638 -93.518745
14100000000 -26.550911 61.447731 -32.509464 52.433964 -32.416996 52.773117 -12.635686 -103.65706
14120000000 -27.892614 37.806046 -32.23019 14.031481 -32.151417 13.470288 -12.383743 -110.99219
14140000000 -31.655935 34.00013 -31.849659 -23.276136 -31.883884 -24.264561 -11.564322 -119.05016
14160000000 -32.907307 55.305748 -31.866558 -61.871147 -32.49147 -61.124031 -11.376585 -124.99279
14180000000 -26.833344 66.815292 -31.092335 -94.168442 -31.358229 -93.910736 -11.312173 -133.08368
14200000000 -23.561518 37.373791 -30.237225 -136.11722 -30.294405 -136.43396 -10.360615 -140.36586
14220000000 -23.759325 14.477778 -30.400139 -177.38382 -30.640022 -177.03133 -10.372201 -148.76573
14240000000 -26.310926 -0.61506063 -30.375486 148.17036 -30.679049 148.08456 -10.423156 -157.70001
14260000000 -29.993908 6.7014356 -29.681618 110.49881 -29.884716 111.30075 -9.8951855 -163.3943
14280000000 -27.080008 33.02388 -29.641693 68.180092 -30.178505 70.862312 -10.332631 -167.90219
14300000000 -23.943773 19.02743 -29.546608 30.645376 -29.727369 32.085339 -9.8300123 -178.33603
14320000000 -22.811001 1.6462802 -29.150593 -6.0948782 -29.31546 -4.2573333 -9.9336281 172.85127
14340000000 -24.274313 -16.342041 -29.035772 -46.72855 -29.012896 -44.24781 -10.416782 165.12338
14360000000 -27.879337 -12.303816 -29.199432 -86.24028 -29.192194 -84.499336 -10.44024 158.01291
14380000000 -27.488205 3.3240557 -29.427143 -122.79388 -29.385347 -120.56056 -10.473507 154.36804
14400000000 -25.510374 5.2467299 -29.282976 -158.15269 -29.228642 -156.56726 -10.796112 146.30072
14420000000 -23.53517 -5.8575821 -28.829565 164.19147 -28.959869 165.43404 -12.009315 139.27174
14440000000 -24.012257 -15.207447 -28.710974 122.91891 -28.609488 124.47549 -11.357512 130.5208
14460000000 -25.73859 -21.803524 -28.994951 86.111816 -28.881231 87.692368 -12.019324 122.95821
14480000000 -26.613703 -14.964405 -28.871044 48.603962 -28.784843 49.956367 -12.582261 117.27137
14500000000 -25.893726 -6.9996486 -28.965853 11.5269 -28.82872 12.569951 -13.017742 113.58164
14520000000 -23.89712 -3.4968143 -28.806225 -24.271059 -28.722431 -23.461395 -13.765249 106.51614
14540000000 -22.36904 -8.3134108 -28.285532 -62.091248 -28.465193 -61.463814 -14.897641 94.179344
14560000000 -22.861874 -20.548944 -28.299021 -103.84143 -28.322054 -103.90018 -14.228485 90.068657
14580000000 -24.139359 -22.891205 -28.645695 -141.35684 -28.689631 -140.76723 -15.139785 81.837914
14600000000 -24.556662 -13.828927 -28.563187 -177.26564 -28.584709 -176.93242 -16.178734 75.492424
14620000000 -23.118258 -2.9524324 -28.392073 144.9061 -28.413309 145.04213 -16.405487 69.667763
14640000000 -20.419868 -11.139624 -28.211243 105.59547 -28.316669 106.93553 -18.313259 58.375618
14660000000 -20.111122 -23.486734 -28.413773 67.01754 -28.646826 68.045601 -17.061037 51.316566
14680000000 -21.322777 -33.916607 -28.450165 31.009653 -28.571604 32.227047 -18.309731 41.011337
14700000000 -22.772955 -27.596977 -28.147053 -6.6677332 -28.285608 -5.422997 -19.819706 30.229605
14720000000 -21.485886 -17.533833 -28.147594 -46.82777 -28.252239 -45.717075 -19.862114 23.625875
14740000000 -19.600267 -23.134777 -28.656937 -84.239723 -28.71315 -83.579834 -21.040777 13.386758
14760000000 -18.574341 -33.929272 -28.578358 -118.5562 -28.631989 -116.67753 -21.222486 -18.572317
14780000000 -19.364021 -46.54874 -27.859396 -156.9698 -27.983576 -155.55338 -21.197729 -9.5317364
14800000000 -20.884365 -47.949139 -27.868771 161.40137 -27.911118 163.20555 -21.63357 -35.543137
14820000000 -20.796698 -40.400993 -28.208487 123.18003 -28.240448 125.21868 -22.237822 -43.854156
14840000000 -19.443277 -43.190697 -28.176971 86.272049 -28.224524 87.948662 -22.08507 -49.951385
14860000000 -18.710768 -51.841702 -28.149651 48.883713 -28.259701 50.752155 -22.204208 -71.377434
14880000000 -18.804243 -59.57996 -27.958065 11.312046 -27.984592 13.020247 -19.370613 -88.622162
14900000000 -19.55448 -67.115913 -27.738348 -28.104158 -27.647228 -26.126457 -19.973839 -98.119957
14920000000 -20.303734 -65.853935 -27.610207 -67.053871 -27.537752 -65.547127 -19.442394 -126.86555
14940000000 -20.123699 -65.038315 -27.530369 -106.80334 -27.369761 -105.4936 -20.742107 -121.96175
14960000000 -20.000452 -68.066444 -27.708529 -146.84494 -27.680101 -145.8716 -20.911983 -129.35822
14980000000 -20.044268 -70.249519 -27.81983 175.19745 -27.750671 176.55626 -19.708569 -141.63152
15000000000 -20.180679 -76.30838 -27.550661 137.52634 -27.410133 138.44414 -18.778801 -149.26332
15020000000 -20.712542 -83.437317 -27.278513 95.855988 -27.155664 96.465355 -19.465059 -151.05347
15040000000 -22.68837 -86.873405 -27.455564 54.740749 -27.27437 55.426537 -16.567492 175.14624
15060000000 -23.435057 -79.081177 -27.524054 15.463078 -27.371824 16.203367 -19.737478 171.5417
15080000000 -22.441973 -74.229858 -27.716644 -25.54895 -27.58461 -24.959877 -20.680815 163.9348
15100000000 -21.85825 -79.753151 -28.099874 -64.667839 -28.008696 -64.311737 -20.699141 158.37987
15120000000 -21.991898 -91.420639 -28.029875 -102.26073 -28.036772 -101.77409 -20.510178 145.85933
15140000000 -24.473915 -98.211189 -27.888018 -143.1474 -27.781103 -142.604 -25.760384 129.59909
15160000000 -26.377388 -76.511589 -27.995705 174.10359 -27.905914 174.58798 -18.993242 116.08411
15180000000 -23.446699 -66.657677 -28.695618 133.09064 -28.676758 133.76695 -23.079905 93.910439
15200000000 -21.966452 -74.612846 -29.030239 96.368324 -28.95113 96.886223 -24.409098 77.924721
15220000000 -22.540018 -89.55204 -29.155706 57.78812 -29.197771 57.777077 -23.153973 65.853966
15240000000 -24.304144 -94.097588 -29.200695 18.2694 -29.327944 18.61227 -25.34783 43.316498
15260000000 -25.453823 -77.753464 -29.334671 -21.158638 -29.341974 -20.659193 -21.757946 -9.4913359
15280000000 -23.18762 -71.748161 -29.446085 -61.661507 -29.598343 -61.419815 -22.045765 23.604013
15300000000 -21.184673 -81.695671 -29.847837 -101.19921 -29.993082 -100.95875 -21.668396 -15.324196
15320000000 -21.514051 -96.133606 -30.291798 -139.01186 -30.477709 -139.34047 -21.485394 -20.282301
15340000000 -22.959223 -102.996 -30.404673 -177.54103 -30.665375 -176.40065 -20.658939 -26.06896
15360000000 -24.252502 -99.527145 -30.594265 144.01099 -30.849789 144.83366 -19.391027 -48.312866
15380000000 -23.921341 -92.78891 -30.826155 104.87032 -30.765116 106.30135 -16.449318 -56.939026
15400000000 -22.277613 -97.992386 -30.97715 66.645378 -31.011564 67.985023 -17.12574 -63.975796
15420000000 -21.953096 -111.77857 -31.136772 26.916876 -31.084871 29.128786 -16.778942 -79.463158
15440000000 -23.080963 -126.82939 -31.424341 -11.097693 -31.610889 -8.8218822 -16.959066 -75.406113
15460000000 -24.868498 -131.87085 -31.640944 -48.349003 -31.639097 -45.876495 -16.460203 -81.637535
15480000000 -26.014698 -129.72794 -31.722467 -84.152313 -31.718456 -83.063713 -14.872274 -92.837502
15500000000 -25.893711 -129.70465 -31.548555 -121.42355 -31.562263 -120.13005 -14.216085 -97.632301
15520000000 -24.97175 -137.04544 -31.344732 -159.05365 -31.256269 -157.79248 -13.780094 -96.206764
15540000000 -24.905615 -158.30069 -31.368647 162.59753 -31.773598 162.34235 -14.327906 -120.87637
15560000000 -26.443716 -173.3299 -31.521936 124.03136 -31.59956 125.57358 -14.120304 -116.14649
15580000000 -29.038572 -177.12288 -31.386703 87.275414 -31.48341 88.41758 -13.572012 -123.00887
15600000000 -30.58893 174.88364 -31.153852 49.870152 -31.103037 51.0252 -12.687784 -128.49068
15620000000 -32.198578 167.83923 -30.909414 11.577708 -30.921358 11.819574 -12.353051 -134.017
15640000000 -31.112217 151.48146 -30.661295 -26.952559 -30.545401 -25.440958 -13.062947 -131.04301
15660000000 -28.107603 131.20891 -30.370037 -64.366196 -30.93355 -61.569389 -12.487971 -152.11279
15680000000 -28.013084 110.39904 -30.178679 -105.9691 -30.379972 -103.7417 -12.567364 -154.23482
15700000000 -28.427658 95.958481 -30.429836 -144.34116 -30.406822 -142.72932 -12.159145 -159.97665
15720000000 -28.891222 74.607635 -30.013077 179.30719 -30.169758 -179.39211 -11.971571 -169.4059
15740000000 -29.441021 61.512466 -29.385248 139.11549 -29.441982 140.65341 -12.152851 -172.32756
15760000000 -26.723326 72.718529 -29.383528 96.900894 -29.370573 98.983658 -9.7094784 160.66292
15780000000 -24.485611 69.129997 -29.461538 58.575279 -29.716484 62.130585 -12.326228 169.22736
15800000000 -23.361412 56.924667 -29.407057 18.872532 -29.478321 20.6651 -12.93432 163.92603
15820000000 -24.004843 43.104134 -29.493814 -21.600147 -29.488512 -18.964787 -12.823957 153.39972
15840000000 -24.292915 37.180931 -29.485191 -60.738796 -29.644491 -59.311226 -13.02111 144.35719
15860000000 -23.982386 38.590092 -29.548584 -99.584335 -29.549973 -97.007835 -14.398863 140.22768
15880000000 -22.05368 47.544933 -29.301857 -140.18242 -29.271976 -138.18875 -11.7426 117.91301
15900000000 -20.731869 39.692688 -29.589111 178.8149 -29.569487 -179.27205 -16.013281 119.80009
15920000000 -20.863718 30.014225 -29.963236 139.34686 -30.233749 139.74365 -16.844879 114.006
15940000000 -21.751923 24.809473 -30.363626 102.10694 -30.419622 104.87562 -16.5718 100.12009
15960000000 -21.612915 29.058638 -30.187311 63.416653 -30.235472 65.177773 -17.671019 89.369759
15980000000 -20.05094 35.517963 -30.511192 22.414465 -30.418785 25.208155 -20.767952 70.013428
16000000000 -18.422384 32.033497 -30.943037 -14.806359 -30.832108 -12.748226 -20.948298 52.847309
16020000000 -18.195162 22.935394 -31.057074 -52.949562 -30.908415 -51.250492 -29.939642 60.907127
16040000000 -18.925179 17.830172 -31.364235 -92.077774 -32.004581 -89.995941 -25.122459 32.501282
16060000000 -18.688776 21.9678 -31.704735 -130.12926 -31.798307 -128.25406 -21.798687 16.612783
16080000000 -17.280006 24.578392 -32.141155 -166.71667 -32.160904 -165.64305 -22.035173 -9.6974564
16100000000 -15.973162 23.920788 -32.218472 155.39636 -32.208549 156.42123 -20.175789 -33.477436
16120000000 -15.349369 17.033859 -32.601036 117.19888 -32.499001 119.50285 -18.727554 -42.96167
16140000000 -15.650951 13.755324 -33.007824 80.17926 -33.916428 80.124603 -21.883734 -97.106407
16160000000 -15.63674 12.455336 -33.193497 43.372341 -33.747948 47.158821 -20.146183 -65.652657
16180000000 -14.726439 13.299167 -33.616467 5.2792954 -33.554893 6.0508299 -18.100071 -68.561905
16200000000 -13.723822 11.321707 -33.993946 -30.735863 -34.06282 -29.984159 -16.445686 -80.259628
16220000000 -13.038946 8.8535366 -34.388561 -65.0588 -34.43845 -64.28112 -15.813512 -89.508156
16240000000 -12.539411 4.5317464 -34.2523 -101.06748 -33.923256 -98.983665 -14.61419 -85.309792
16260000000 -12.676411 0.52254152 -34.492146 -139.20747 -35.280994 -135.91429 -16.442602 -109.49358
16280000000 -12.628221 -1.0575684 -34.61684 -177.8279 -34.839516 -173.91948 -14.861367 -103.548
16300000000 -11.94625 -1.8967856 -35.44648 148.32899 -35.535156 148.90054 -14.017802 -108.40491
16320000000 -11.253676 -2.7326283 -35.22113 114.31722 -35.387772 114.42947 -13.624048 -120.08709
16340000000 -10.442527 -6.8100767 -34.96743 77.899384 -35.055538 79.897636 -12.822681 -122.9029
16360000000 -10.23943 -12.564898 -35.163342 38.460838 -35.002068 39.332447 -12.646971 -119.23866
16380000000 -10.610724 -15.234715 -35.562611 2.8678913 -35.925602 7.150631 -13.146239 -134.68716
16400000000 -10.463243 -14.59485 -35.541409 -33.262062 -35.563175 -32.788902 -12.257426 -133.42473
16420000000 -9.7278929 -14.641498 -35.438606 -70.726128 -35.636906 -69.133652 -11.632738 -140.15297
16440000000 -8.9254255 -18.62137 -35.535885 -108.92857 -35.864891 -108.61874 -11.807365 -149.20815
16460000000 -8.5987883 -24.193024 -35.553947 -143.66159 -35.867596 -141.69859 -11.354264 -149.18633
16480000000 -8.8668404 -27.417604 -35.156792 178.47581 -35.284927 178.41805 -11.516758 -151.0228
16500000000 -9.0375519 -26.370758 -35.4025 136.79353 -35.631443 137.41618 -11.131376 -157.72446
16520000000 -8.3180323 -26.152758 -35.958515 99.0392 -36.494781 100.00722 -10.405622 -160.40843
16540000000 -7.5600753 -29.424408 -36.265533 63.582054 -36.58152 65.617638 -10.396416 -169.53606
16560000000 -7.2368226 -34.119175 -35.93586 23.680273 -36.261917 26.219429 -10.421413 -175.78644
16580000000 -7.3213296 -36.606785 -36.429001 -16.759775 -36.43108 -13.224664 -10.337898 -177.42926
16600000000 -7.340724 -36.867363 -36.611256 -53.157093 -36.518528 -50.758392 -10.568837 176.62962
16620000000 -6.9436946 -37.697483 -36.578178 -94.667496 -36.223473 -93.268158 -10.573955 169.09399
16640000000 -6.2414441 -39.816624 -37.110886 -136.02403 -37.310349 -132.44849 -9.2166605 171.03499
16660000000 -5.8779006 -43.416981 -38.354351 -170.52492 -38.080894 -169.67786 -9.5805702 158.22977
16680000000 -5.6149144 -46.015614 -38.481651 152.68317 -38.08535 154.9968 -9.7828913 152.51512
16700000000 -5.43541 -47.980736 -38.65279 113.64762 -38.395103 114.91169 -10.35465 147.23093
16720000000 -5.1290522 -49.222809 -39.213528 72.39502 -38.635559 74.237839 -10.205364 141.88564
16740000000 -4.8180814 -52.908466 -40.16711 37.719517 -40.272778 35.654034 -8.9940271 151.18199
16760000000 -4.2809372 -54.876747 -40.193565 -3.761976 -40.327564 -0.73655748 -10.080789 133.7394
16780000000 -3.8831906 -58.515114 -41.023399 -39.935566 -40.661404 -42.123146 -10.241324 119.81894
16800000000 -3.6061409 -61.612843 -41.436394 -76.904884 -41.129684 -79.867294 -10.996355 111.52894
16820000000 -3.4037426 -64.284676 -41.981754 -114.72722 -41.870129 -115.69007 -11.314359 107.82632
16840000000 -3.1242964 -66.650124 -42.356716 -155.56543 -41.977226 -157.00168 -11.802816 98.31147
16860000000 -2.8110738 -71.001862 -42.755783 166.02159 -43.247688 164.81241 -12.445012 82.687347
16880000000 -2.355525 -73.990456 -44.474167 125.70818 -44.636475 122.65758 -12.610273 84.182045
16900000000 -2.0872002 -77.720207 -44.64447 91.74543 -44.721039 91.055565 -12.87554 71.444008
16920000000 -1.9603529 -80.914978 -45.212311 50.838772 -45.292896 47.355968 -14.182473 65.013176
16940000000 -1.7501508 -83.82093 -45.54929 14.464601 -46.43528 15.533472 -14.711947 61.321598
16960000000 -1.4744101 -87.057739 -46.562744 -26.527388 -46.817787 -29.073124 -15.151318 46.868542
16980000000 -1.1975744 -90.969917 -47.400196 -64.517883 -47.952042 -65.662933 -14.680722 34.643208
