!Keysight Technologies,P9374A,MY57211810,A.19.30.04
!Date: Friday, May 09, 2025 09:22:08
!Correction: S11(Cdelta 2-Port  ) 
!S21(Cdelta 2-Port  ) 
!S12(Cdelta 2-Port  ) 
!S22(Cdelta 2-Port  ) 
!S2P File: Measurements: S11, S21, S12, S22:
# Hz S  dB   R 50
13000000000 -19.814508 -77.435913 -55.005604 66.355736 -47.095543 90.184067 -15.46065 9.1429577
13020000000 -19.678984 -83.657562 -56.093117 43.908226 -47.722221 63.433731 -15.128776 0.7842387
13040000000 -20.848042 -84.153748 -56.278328 18.876333 -47.131237 30.576599 -14.769922 -12.595652
13060000000 -21.119884 -81.015427 -54.298149 18.751719 -48.01022 -1.8999794 -13.108505 -19.750053
13080000000 -20.331995 -80.334244 -51.281868 -38.1441 -47.519138 -31.52593 -12.855325 -30.643047
13100000000 -20.280134 -86.042747 -52.470264 -60.908928 -47.273495 -66.300301 -12.020806 -38.677181
13120000000 -20.54039 -85.083542 -50.867496 -87.168144 -48.319889 -99.515495 -11.428373 -46.181087
13140000000 -20.766504 -80.593971 -49.418877 -125.77917 -47.540234 -129.04791 -10.496165 -53.249851
13160000000 -19.563204 -81.214523 -48.010208 -162.2106 -47.546391 -161.26576 -10.178396 -63.841068
13180000000 -19.57456 -90.098198 -46.699448 160.91716 -46.838879 162.06306 -9.1076174 -69.372238
13200000000 -20.426794 -96.486801 -46.173378 123.83627 -47.399361 133.29608 -8.9193735 -79.331421
13220000000 -21.400627 -93.917236 -45.296432 79.904755 -45.999432 89.606636 -8.5509729 -91.661232
13240000000 -20.323359 -88.665054 -45.389542 47.841965 -46.902355 57.311607 -8.2844543 -91.086731
13260000000 -19.183258 -94.240082 -44.457207 4.7145004 -46.038918 18.747112 -7.5177031 -104.27578
13280000000 -19.464417 -104.6246 -44.61158 -35.663616 -45.510712 -15.122784 -7.3316569 -112.69482
13300000000 -21.20594 -109.74121 -44.714092 -73.170853 -45.020733 -57.097027 -7.1778383 -121.09406
13320000000 -21.924253 -106.56402 -44.641819 -110.91322 -44.992733 -92.738899 -7.0867462 -128.70316
13340000000 -21.259775 -104.10209 -46.090172 -149.82097 -45.475693 -138.06244 -8.1196728 -137.54982
13360000000 -20.289631 -111.02975 -45.428482 179.22357 -45.264622 -171.60706 -7.036797 -143.51022
13380000000 -21.219616 -118.89716 -45.334789 139.35587 -44.578934 147.60297 -7.2583585 -153.07468
13400000000 -22.615953 -118.2012 -45.553574 109.79392 -45.140675 107.47631 -7.295763 -160.19656
13420000000 -22.878256 -120.17603 -44.776608 75.553093 -45.374886 71.584923 -7.6468363 -166.97638
13440000000 -22.822969 -125.73536 -44.317776 36.474865 -45.055195 32.879662 -8.0066614 -174.50815
13460000000 -23.517433 -129.70624 -45.530041 7.9386735 -46.52813 -1.780857 -9.1346779 -176.32559
13480000000 -24.793547 -126.62768 -44.610996 -28.155787 -46.889091 -40.227127 -8.7163019 172.39256
13500000000 -24.561106 -120.85538 -43.653004 -65.358765 -45.994019 -71.80735 -8.9011259 164.69839
13520000000 -24.854452 -131.43129 -43.290344 -103.15907 -46.978409 -110.10491 -9.3981028 158.47362
13540000000 -26.228243 -141.97414 -43.966557 -140.01714 -47.438526 -141.86269 -9.7620258 154.16853
13560000000 -28.82357 -143.26151 -43.342941 -171.68706 -47.096775 -173.57494 -10.254561 143.95723
13580000000 -28.834023 -118.57623 -43.031071 146.78516 -47.408089 149.21753 -10.859714 143.33675
13600000000 -26.495535 -120.99194 -44.488598 111.07314 -48.58659 116.54041 -11.065287 134.21823
13620000000 -27.849878 -135.08116 -44.395767 80.114845 -48.12886 93.134766 -11.607563 126.49534
13640000000 -31.062645 -140.41426 -44.336861 44.856216 -47.684139 56.81126 -11.85204 120.6538
13660000000 -31.992294 -113.44476 -45.291153 8.5085993 -47.602249 25.676241 -12.483223 119.13765
13680000000 -28.174883 -109.33537 -45.823723 -24.043175 -47.900162 -6.6501775 -13.293394 110.12724
13700000000 -26.826178 -122.88157 -46.475895 -62.360413 -47.900745 -41.523598 -13.456322 104.15384
13720000000 -29.684971 -136.71573 -48.085186 -95.286064 -46.829792 -76.7864 -14.016085 92.34024
13740000000 -32.858707 -121.75946 -48.249702 -116.2991 -47.23716 -108.99573 -14.345189 85.839394
13760000000 -30.342678 -111.09816 -48.091057 -156.26767 -46.837727 -149.72943 -14.809941 80.942429
13780000000 -27.1842 -120.27177 -49.047245 169.31119 -47.478367 -178.7836 -15.844549 75.543045
13800000000 -26.497217 -139.33136 -51.51218 129.48386 -46.529243 137.94431 -15.954759 66.007492
13820000000 -29.012201 -142.89986 -51.989925 117.30705 -48.454796 104.90096 -16.401546 57.662903
13840000000 -30.602057 -137.12569 -51.02845 83.573051 -49.3904 72.277245 -17.002478 41.282089
13860000000 -29.667715 -136.37132 -51.244217 47.111 -48.792732 45.908012 -16.69276 34.432217
13880000000 -29.918629 -149.97963 -51.014488 17.880205 -49.345821 11.717201 -17.420181 24.688667
13900000000 -29.469299 -169.31332 -50.334412 -12.840626 -50.177757 -17.056339 -17.33354 12.191819
13920000000 -30.196056 -176.0276 -49.458282 -45.767689 -49.121315 -40.091133 -17.127323 -1.1263607
13940000000 -28.818476 179.8508 -47.290451 -82.571808 -48.706223 -74.685204 -17.502867 -8.997654
13960000000 -29.208776 164.78979 -46.757545 -116.67905 -47.389633 -100.66526 -15.997179 -21.548841
13980000000 -32.403 148.74489 -45.856724 -152.0237 -46.6077 -136.84306 -15.710277 -31.48876
14000000000 -32.923939 132.55264 -44.550396 173.69987 -45.962749 -172.80338 -15.778384 -44.274696
14020000000 -32.395996 132.49805 -43.844444 134.64316 -44.859814 152.07201 -15.086197 -56.101585
14040000000 -29.721516 126.77524 -43.115555 103.97168 -43.580364 116.06033 -13.784797 -64.313812
14060000000 -28.066076 106.52951 -42.599075 62.761822 -43.984398 70.855965 -14.706576 -72.772369
14080000000 -30.04648 79.299232 -42.253609 30.94503 -43.299076 37.426891 -13.110264 -81.485924
14100000000 -31.255301 63.584904 -42.063663 -7.6572824 -42.700394 -4.2060122 -12.702038 -92.980652
14120000000 -30.386368 60.129562 -42.139259 -41.396797 -42.718288 -42.346661 -12.565424 -101.54388
14140000000 -28.802057 62.089691 -42.212536 -78.243088 -42.782074 -80.309799 -11.828423 -111.92315
14160000000 -26.978519 48.721176 -42.041035 -118.30274 -42.58242 -121.23576 -11.564527 -119.11059
14180000000 -27.888195 39.919483 -42.535084 -155.47092 -42.940029 -162.59267 -11.505333 -127.29701
14200000000 -27.692417 30.481478 -42.858078 172.40445 -42.685524 162.42056 -10.6026 -136.07433
14220000000 -27.115692 29.872055 -41.692455 133.18468 -43.023994 122.05977 -10.715854 -145.70036
14240000000 -25.464695 24.85994 -42.081497 93.504494 -43.497871 85.53315 -10.685521 -155.15482
14260000000 -25.079687 11.76016 -43.379852 65.058121 -43.75264 53.165573 -10.016006 -161.93709
14280000000 -26.20269 5.1409025 -41.834896 31.359875 -43.349548 16.879332 -10.465704 -167.09944
14300000000 -27.740791 3.0938425 -41.782173 -10.685534 -43.808693 -27.946541 -9.8726749 -177.7709
14320000000 -26.535555 11.872699 -42.861347 -38.487534 -44.53281 -53.710571 -9.9163542 173.0381
14340000000 -24.62529 4.5686903 -42.664871 -66.986992 -44.007282 -90.034119 -10.367353 164.4382
14360000000 -24.352058 -4.4977727 -42.085392 -97.769875 -45.206455 -126.3813 -10.235771 156.48511
14380000000 -25.300097 -14.148919 -42.325768 -133.96494 -44.674782 -157.40732 -10.134242 152.81749
14400000000 -27.27243 -9.2648773 -42.23505 -168.78679 -45.443466 161.32298 -10.41988 144.80614
14420000000 -25.921804 -2.9225771 -42.039135 158.83054 -47.146568 142.33691 -11.400719 137.79587
14440000000 -24.526758 -6.8515291 -41.218292 119.27699 -45.84742 109.5067 -10.699016 127.52721
14460000000 -24.623781 -13.595326 -40.873329 82.434311 -46.244053 83.785156 -11.313025 120.49399
14480000000 -25.120016 -13.990456 -40.372448 41.021049 -45.035286 51.606354 -11.519958 114.40852
14500000000 -25.456057 -10.315607 -40.211212 6.9860687 -44.781487 22.156467 -11.872825 110.00785
14520000000 -24.288982 -10.263359 -39.654163 -31.302713 -43.685635 -12.473871 -12.476572 104.43147
14540000000 -23.806978 -14.409377 -39.199409 -71.188705 -43.648682 -47.264153 -13.219193 92.843552
14560000000 -24.085318 -17.132833 -39.859844 -109.20724 -42.549198 -84.717278 -12.681766 86.577026
14580000000 -23.926189 -11.955232 -39.919403 -142.77994 -42.387947 -121.71042 -13.282025 79.939911
14600000000 -23.001049 -9.9749193 -40.077019 -179.74484 -42.406445 -154.9762 -13.818385 74.634613
14620000000 -22.585432 -13.437187 -40.989895 144.19084 -41.912121 168.42268 -13.943033 68.657555
14640000000 -21.755915 -18.493355 -41.240578 110.62663 -41.762257 131.99161 -15.43988 59.445221
14660000000 -21.782494 -21.260088 -41.068581 69.671745 -41.910023 96.085709 -14.334249 53.49968
14680000000 -21.27972 -21.655073 -42.120132 32.032658 -42.139324 59.370136 -15.183085 44.094353
14700000000 -20.352541 -26.259951 -42.029964 -0.040636126 -42.559559 23.956381 -16.059608 36.053326
14720000000 -21.119385 -32.158741 -41.110786 -32.452274 -42.365139 -7.6969385 -15.902303 31.665287
14740000000 -21.298115 -31.391878 -41.559189 -71.448059 -42.080803 -41.268894 -16.822765 24.167267
14760000000 -20.599602 -31.58132 -41.691357 -101.00695 -41.765244 -76.489738 -17.893719 2.0044827
14780000000 -19.532104 -32.627571 -41.585007 -137.00731 -41.719433 -114.04172 -17.191446 6.3254547
14800000000 -18.663752 -41.860695 -42.301517 -168.45953 -41.599277 -147.36996 -17.948214 -10.860065
14820000000 -19.200037 -50.95536 -42.300758 162.60291 -40.853603 179.70412 -18.523989 -16.32268
14840000000 -20.362242 -55.341743 -41.871952 127.53075 -40.54081 142.21106 -18.674427 -22.246159
14860000000 -20.411596 -52.253757 -41.686489 89.185883 -40.14101 105.17023 -20.020725 -37.271164
14880000000 -19.799921 -51.705376 -41.280117 52.966839 -39.752312 67.353966 -18.797646 -61.212551
14900000000 -18.902649 -57.333141 -40.84219 14.815812 -39.11203 30.493326 -19.514704 -70.242592
14920000000 -18.983011 -67.674133 -39.76828 -20.039553 -38.898216 -8.3362617 -20.954823 -99.439697
14940000000 -20.263834 -73.689674 -38.888577 -58.061546 -37.992767 -46.450138 -21.854691 -89.731194
14960000000 -20.995125 -71.105904 -38.611752 -94.027985 -38.003777 -89.257195 -22.511299 -99.316513
14980000000 -20.853159 -69.289719 -38.489201 -126.43913 -38.530399 -126.49822 -21.691832 -121.96078
15000000000 -20.352098 -71.542519 -37.767864 -163.21838 -37.833195 -161.73886 -20.72995 -134.80084
15020000000 -19.896372 -81.341042 -37.747753 155.83041 -37.493626 155.52676 -21.247501 -135.80499
15040000000 -21.785505 -91.029907 -38.677036 119.31021 -37.847801 115.21827 -18.383524 175.74088
15060000000 -23.380426 -88.125832 -39.058624 82.003365 -37.904289 76.909187 -22.691004 170.74973
15080000000 -24.070669 -79.108948 -38.8582 42.825073 -37.840382 39.126835 -23.403006 156.75697
15100000000 -22.873255 -73.629173 -39.078159 -0.39310229 -37.859005 -2.5650241 -22.685125 147.1907
15120000000 -21.67955 -82.429504 -39.74411 -37.949345 -38.782742 -42.437332 -21.848557 133.92331
15140000000 -22.584812 -91.796997 -39.482738 -74.774399 -39.19183 -78.973618 -26.540184 105.17849
15160000000 -24.496626 -91.860298 -39.689175 -114.99876 -39.26461 -116.87596 -18.72591 102.19041
15180000000 -25.372391 -82.790749 -39.629219 -152.2047 -39.638096 -157.20296 -21.056229 74.707886
15200000000 -24.380674 -66.332977 -39.83046 164.4575 -40.904667 164.7731 -21.057718 61.825275
15220000000 -22.580338 -75.072601 -40.993675 127.771 -41.29232 131.25572 -19.783476 56.3573
15240000000 -22.546022 -83.446045 -40.894859 91.487511 -41.961929 95.724892 -20.382166 42.335571
15260000000 -22.98181 -86.565201 -41.412476 52.112953 -41.999149 62.873081 -18.366732 5.5961556
15280000000 -24.014526 -89.892075 -41.51125 19.237505 -42.145241 26.043049 -17.809856 24.718464
15300000000 -24.076908 -82.049538 -40.97242 -19.230904 -42.224419 -8.3862467 -17.711761 1.7481033
15320000000 -22.599804 -84.314468 -41.8391 -57.899433 -42.435806 -47.099876 -17.469889 -2.235884
15340000000 -21.932278 -94.544556 -41.833263 -94.858727 -42.53233 -79.6185 -17.110481 -6.635911
15360000000 -22.310621 -100.81639 -43.030567 -132.37346 -42.348549 -116.82581 -16.754051 -24.084213
15380000000 -23.405828 -107.9687 -43.569134 -167.19963 -42.313656 -156.03923 -14.570795 -36.719872
15400000000 -24.928833 -108.80688 -43.546219 151.97226 -42.382416 168.4281 -14.978874 -41.343796
15420000000 -23.875254 -104.17558 -44.927197 107.72569 -42.490845 127.20517 -15.163361 -53.980408
15440000000 -22.617411 -114.91571 -45.436222 67.896812 -43.445168 88.989716 -15.059589 -50.941849
15460000000 -22.501753 -124.52266 -45.695145 26.074926 -43.502697 53.156567 -14.722788 -57.598728
15480000000 -23.548994 -138.55447 -45.786518 -13.523205 -43.179474 10.329829 -13.771149 -71.782417
15500000000 -26.24235 -156.60878 -46.013622 -52.824734 -44.608849 -33.749958 -13.076787 -77.509148
15520000000 -29.347513 -145.52631 -45.726898 -87.347076 -45.168575 -66.569763 -12.370812 -77.473763
15540000000 -27.187374 -144.60703 -46.163403 -130.47032 -45.81123 -115.24362 -13.817821 -100.1868
15560000000 -26.03079 -153.19829 -47.386196 -166.32811 -48.01162 -155.67215 -13.343647 -95.63076
15580000000 -25.689722 -168.2677 -47.779556 145.3521 -47.959435 168.97258 -12.945768 -104.19909
15600000000 -27.008604 159.96774 -50.381004 104.3546 -49.344566 119.49158 -12.136202 -112.51585
15620000000 -30.830336 132.0789 -51.350021 68.727753 -51.085175 80.934891 -11.795217 -118.9266
15640000000 -33.35162 128.04619 -49.918522 19.042913 -51.337021 31.378374 -12.189157 -115.73049
15660000000 -31.169102 134.91742 -51.042656 -32.354088 -55.150925 -8.1774588 -12.610645 -138.28287
15680000000 -29.534933 131.28262 -51.107445 -70.548363 -54.740646 -51.802074 -12.496087 -140.74185
15700000000 -27.019207 108.87326 -50.272221 -108.29514 -54.657711 -98.763397 -12.164158 -148.86447
15720000000 -26.666283 80.539215 -49.474449 -164.4493 -53.083019 -152.83464 -12.107993 -159.43546
15740000000 -26.899681 62.091454 -51.566109 154.18956 -54.556202 147.05823 -12.213388 -162.40367
15760000000 -26.592718 60.369385 -53.09898 116.97782 -55.439453 110.28336 -10.207184 166.83852
15780000000 -26.223803 66.709015 -52.880302 64.535744 -54.619526 75.819092 -12.82209 176.06496
15800000000 -24.428127 64.492393 -53.431496 15.02241 -53.131897 28.651125 -13.51509 169.15475
15820000000 -23.214264 52.387524 -51.155167 -30.933029 -52.939018 -14.353578 -13.378747 156.68723
15840000000 -23.297594 40.510712 -50.153229 -85.416901 -51.133888 -59.763649 -13.435809 146.01582
15860000000 -22.937487 35.230816 -48.669334 -119.6627 -50.823757 -104.86629 -15.049837 140.73991
15880000000 -22.978142 38.44392 -47.828648 -164.36339 -49.736115 -140.49931 -12.169155 116.10532
15900000000 -21.870251 41.207142 -48.731239 167.32629 -49.165863 171.23312 -16.484009 113.21497
15920000000 -21.076277 35.340691 -47.538635 139.95038 -49.474972 132.53342 -17.261711 103.35116
15940000000 -21.021236 30.087681 -46.196819 96.382774 -47.609501 94.235451 -16.29842 88.029579
15960000000 -20.787497 29.046804 -47.531456 58.494179 -47.123486 49.457943 -16.853739 74.199654
15980000000 -20.01182 30.257353 -48.055511 20.297426 -46.05759 6.0656447 -18.533741 49.081303
16000000000 -19.324574 31.00515 -49.40588 -12.911182 -46.412094 -34.985844 -17.833935 32.316307
16020000000 -18.404617 27.360039 -49.206802 -57.634586 -45.031116 -73.730438 -21.798286 15.082373
16040000000 -18.252274 22.355318 -51.283241 -101.33599 -45.922695 -119.1855 -19.075012 9.7894106
16060000000 -18.141687 22.681196 -49.514347 -144.22148 -45.11285 -157.27429 -16.445395 2.4631164
16080000000 -17.06321 22.471668 -49.752663 164.1983 -44.644802 159.98715 -16.157404 -14.839667
16100000000 -16.485798 21.534088 -49.350311 121.34873 -44.51656 119.34728 -14.851092 -30.074898
16120000000 -15.673049 18.536283 -48.993988 87.970825 -44.38279 78.216827 -13.705233 -37.913891
16140000000 -15.659367 15.270999 -47.458794 52.747879 -45.787056 33.56604 -16.767591 -68.312691
16160000000 -14.592962 16.692986 -46.993984 9.5835705 -48.898991 26.226332 -14.827878 -51.231911
16180000000 -13.928596 9.3449354 -47.425922 -19.96167 -48.729027 -12.244418 -13.205433 -58.213005
16200000000 -14.161178 6.1501007 -46.366539 -55.450645 -47.821808 -52.459221 -12.317224 -68.659935
16220000000 -13.740162 9.0946054 -47.126865 -92.736412 -49.028034 -90.916626 -11.921737 -76.964821
16240000000 -12.833125 7.7428546 -47.962841 -117.64719 -49.005482 -116.96313 -10.83388 -76.64576
16260000000 -12.293721 3.8736646 -47.949314 -151.48564 -49.825787 -153.85962 -13.071907 -92.520409
16280000000 -12.081745 -2.0989053 -47.584618 171.84694 -47.764198 168.75987 -11.319048 -88.99572
16300000000 -12.017537 -4.6481438 -49.757504 138.47925 -48.611298 122.60168 -10.730987 -96.752159
16320000000 -11.541313 -3.7527971 -49.769001 110.65118 -48.652786 90.112999 -10.651521 -107.64935
16340000000 -10.67495 -6.1873531 -49.728016 75.958145 -48.533558 57.356922 -10.032871 -110.77811
16360000000 -10.232406 -10.587487 -50.02206 36.18597 -47.798374 17.32848 -9.702424 -109.90131
16380000000 -10.352684 -14.165545 -51.494835 -7.369946 -48.22636 -21.521458 -10.715894 -121.12249
16400000000 -10.330114 -15.666402 -52.324741 -37.438709 -49.30122 -68.146271 -9.6905041 -122.92123
16420000000 -9.7781343 -15.708933 -51.845703 -65.934593 -50.213913 -100.5812 -9.4101915 -130.26952
16440000000 -9.0055351 -19.050699 -50.148087 -109.94113 -50.578392 -135.65315 -9.7267752 -139.05997
16460000000 -8.7445068 -23.658514 -50.822948 -156.71356 -51.206947 -173.06218 -9.2420893 -139.61842
16480000000 -8.8614178 -25.714069 -50.969383 176.38034 -51.628342 152.09671 -9.3792677 -142.16638
16500000000 -8.8821249 -26.141424 -50.48402 133.64151 -52.027679 115.55504 -9.2122898 -148.78059
16520000000 -8.3073463 -26.602068 -51.735409 108.00519 -55.390476 85.497986 -8.7908649 -152.69048
16540000000 -7.5638933 -30.190472 -49.803043 74.059509 -53.292953 74.716209 -8.9507246 -161.81427
16560000000 -7.3525424 -34.692814 -49.531254 32.401875 -50.609463 31.664917 -9.092556 -168.03178
16580000000 -7.4537611 -36.020931 -49.322731 -6.8343554 -51.004745 -5.6995668 -8.9908094 -169.96111
16600000000 -7.3449283 -35.803017 -49.858864 -47.154884 -50.31992 -41.039318 -9.3506737 -175.51181
16620000000 -6.8229928 -37.396828 -50.31805 -79.053505 -49.829216 -76.098877 -9.4857302 177.18008
16640000000 -6.135704 -40.333424 -49.10112 -115.00648 -48.456059 -112.91629 -8.3780813 177.10431
16660000000 -5.8584433 -44.693104 -49.192699 -159.84428 -47.128899 -155.75679 -8.9514227 164.27263
16680000000 -5.8363252 -46.290619 -50.428574 154.82442 -47.267914 155.0713 -9.2641134 158.91116
16700000000 -5.5574875 -46.422684 -50.821072 117.66471 -48.273563 119.60969 -9.920804 154.00809
16720000000 -5.0055385 -48.010117 -50.777813 82.173042 -47.164566 87.290131 -9.9138422 148.5074
16740000000 -4.6052637 -53.369171 -49.582092 36.317207 -46.653831 39.402882 -8.7644634 155.77298
16760000000 -4.2726831 -56.593842 -48.750645 -16.543186 -47.185692 -8.1242867 -10.01638 138.98563
16780000000 -4.1149015 -59.004318 -49.99382 -59.939205 -47.988995 -48.804424 -10.438483 124.20602
16800000000 -3.7596829 -60.279076 -49.141319 -96.341812 -46.852615 -86.240669 -11.315288 116.3657
16820000000 -3.2807655 -62.91016 -48.795681 -143.47409 -47.792645 -134.08112 -11.672334 112.44463
16840000000 -2.9060805 -67.012329 -48.942913 177.21565 -47.541595 -176.98552 -12.400248 101.92665
16860000000 -2.7986581 -72.316513 -49.010525 138.80107 -49.611038 145.13315 -13.171688 84.202156
16880000000 -2.5474865 -74.351135 -48.537598 104.61083 -48.975872 108.53381 -13.262246 84.674812
16900000000 -2.191565 -76.638901 -48.756844 57.178936 -48.351582 58.831699 -13.560239 69.604713
16920000000 -1.8741175 -80.023926 -49.81353 18.990215 -49.862591 20.742088 -14.940257 61.936359
16940000000 -1.6232611 -83.965179 -50.665039 -15.536405 -49.944225 -15.883782 -15.521255 56.058937
16960000000 -1.4825182 -87.874672 -50.298286 -57.522911 -48.58741 -60.592598 -15.879609 37.877071
16980000000 -1.3146523 -91.085663 -50.793221 -102.21369 -49.602436 -104.8681 -14.956449 23.79421
