!Keysight Technologies,P9374A,MY57211810,A.19.30.04
!Date: Friday, May 09, 2025 09:15:28
!Correction: S11(Cdelta 2-Port  ) 
!S21(Cdelta 2-Port  ) 
!S12(Cdelta 2-Port  ) 
!S22(Cdelta 2-Port  ) 
!S2P File: Measurements: S11, S21, S12, S22:
# Hz S  dB   R 50
13000000000 -20.016001 -86.60498 -44.579205 66.223984 -42.723106 73.719971 -17.052982 -54.992302
13020000000 -20.815264 -82.227539 -45.432735 31.818922 -43.010666 33.612522 -16.262871 -57.275066
13040000000 -20.879496 -77.873741 -45.569611 0.64976352 -43.590233 -6.0977011 -15.156719 -64.427628
13060000000 -20.673565 -79.140167 -45.199894 -29.360931 -43.746613 -41.841629 -13.523691 -60.337646
13080000000 -20.507839 -81.932213 -45.264385 -66.968834 -44.247189 -81.15023 -12.934491 -68.160194
13100000000 -20.563501 -84.473427 -45.339535 -100.23875 -45.329575 -115.53741 -12.097363 -71.411148
13120000000 -20.553274 -83.229042 -45.521618 -135.95354 -46.41568 -152.10277 -11.535941 -73.39183
13140000000 -20.746891 -82.435623 -45.396633 -171.2901 -46.92865 172.4639 -10.555427 -78.32827
13160000000 -20.68429 -82.583466 -45.464127 154.77505 -47.91597 142.16988 -10.018298 -85.146606
13180000000 -20.157881 -85.351967 -45.226868 118.3325 -48.198349 111.8128 -9.0387478 -86.617706
13200000000 -20.078917 -91.610764 -45.659851 80.167946 -49.517868 84.186111 -8.750946 -94.184105
13220000000 -20.337133 -95.581306 -47.083199 43.435734 -50.750175 59.694447 -8.5081673 -103.95629
13240000000 -20.919762 -95.905045 -47.976276 20.543139 -49.507374 44.597919 -8.0599136 -101.20644
13260000000 -20.886423 -94.79467 -47.486259 -10.657003 -47.250412 6.4464102 -7.2953696 -112.71471
13280000000 -20.413382 -97.890877 -47.379856 -48.875515 -46.803898 -30.115175 -7.0709171 -118.86015
13300000000 -20.422474 -107.3602 -48.439289 -77.9291 -46.224453 -61.594395 -6.9140654 -125.69376
13320000000 -20.956768 -112.77847 -48.211731 -97.863365 -45.736668 -96.05822 -6.8610182 -132.2347
13340000000 -21.512882 -112.94274 -47.512169 -128.51726 -46.500336 -131.99202 -7.9446611 -139.91075
13360000000 -21.523268 -112.48235 -46.088356 -163.72264 -44.915977 -166.08255 -6.8692183 -145.00536
13380000000 -21.810753 -113.63937 -44.813614 160.03061 -44.55722 157.01941 -7.1194816 -153.37901
13400000000 -21.869654 -115.41054 -44.72551 124.11971 -44.238628 124.47395 -7.1952105 -159.2049
13420000000 -22.20433 -122.31711 -43.927315 90.028061 -43.051647 88.802872 -7.6437387 -165.00809
13440000000 -23.243505 -127.76194 -43.513134 52.641956 -42.572598 48.42654 -8.113327 -171.74496
13460000000 -24.593367 -127.28205 -43.695988 19.424541 -43.439693 12.064253 -9.3142538 -172.65138
13480000000 -25.290668 -124.56937 -43.058372 -21.162107 -42.727077 -31.244144 -8.9215097 177.30424
13500000000 -25.223581 -123.39319 -42.697517 -58.072716 -43.128139 -69.348122 -9.2183905 170.94662
13520000000 -25.199591 -130.35277 -42.55571 -94.611191 -43.295322 -100.50374 -9.8441324 165.87289
13540000000 -26.649361 -140.77628 -42.313786 -135.54361 -43.102173 -143.61331 -10.326716 162.53267
13560000000 -28.963737 -143.94856 -42.558941 -176.32713 -43.683308 178.2081 -11.06187 153.20329
13580000000 -30.164173 -128.25554 -43.244633 147.08368 -44.468811 148.20349 -11.708739 153.84657
13600000000 -28.231766 -124.21175 -44.181076 109.64693 -44.888336 109.89922 -11.993727 145.48898
13620000000 -28.231789 -131.84657 -44.361317 75.01046 -45.3419 73.469269 -12.809406 139.20514
13640000000 -30.243311 -131.7202 -44.844509 41.664761 -45.921917 41.987095 -13.286852 134.17815
13660000000 -30.879831 -121.10448 -45.098183 7.4541383 -46.348389 8.1634331 -14.008779 133.76871
13680000000 -30.83905 -121.24969 -45.875679 -25.206341 -47.586315 -15.31797 -15.30543 124.06611
13700000000 -29.83003 -120.5297 -45.814217 -58.517632 -46.169567 -48.573547 -15.521052 120.60558
13720000000 -30.066069 -122.85304 -45.360077 -92.327766 -46.115173 -85.714737 -16.589224 109.2011
13740000000 -29.237417 -121.82835 -46.7621 -126.69073 -46.027706 -115.20123 -17.376528 102.07017
13760000000 -28.892462 -125.1944 -46.369274 -157.09735 -46.164162 -151.72723 -18.189995 98.592888
13780000000 -29.176756 -130.37729 -46.641769 173.69873 -45.752499 178.48645 -19.922367 94.315147
13800000000 -29.163729 -133.31784 -45.882511 138.58363 -45.55162 141.44316 -20.317326 82.60173
13820000000 -29.030357 -129.35939 -45.943947 99.158241 -45.844376 105.84727 -21.143438 72.643089
13840000000 -28.687235 -133.56067 -46.746952 62.059032 -46.09919 68.668259 -22.554972 48.951977
13860000000 -29.178932 -141.85753 -47.596058 33.00573 -45.702869 35.93832 -22.459406 35.590363
13880000000 -31.516859 -156.3654 -47.511524 4.7898154 -45.520969 0.86344922 -23.827162 19.302336
13900000000 -31.54891 -174.88257 -47.554729 -28.45314 -45.720276 -38.31987 -23.057384 -1.9222189
13920000000 -31.320181 -175.19522 -47.445095 -55.906723 -46.871273 -71.551605 -21.788931 -20.225176
13940000000 -29.405291 176.47063 -46.743652 -87.734436 -47.757107 -103.09302 -21.94474 -27.312078
13960000000 -29.704342 165.06505 -46.509624 -119.30679 -47.502388 -128.52303 -19.071543 -41.027714
13980000000 -32.046257 143.12593 -46.088726 -154.80679 -47.761806 -162.20403 -18.268282 -52.444496
14000000000 -32.68866 129.88165 -46.0923 173.23955 -47.350636 175.22215 -17.431005 -65.561928
14020000000 -30.792515 126.2785 -45.355354 142.14938 -45.989872 140.89503 -16.236822 -74.598259
14040000000 -29.53289 119.69585 -44.541943 104.91473 -45.637527 105.67397 -14.738724 -79.76384
14060000000 -28.879416 103.57602 -44.441189 71.416168 -45.909359 74.716385 -15.534757 -87.897911
14080000000 -30.960625 78.514404 -43.859753 37.141582 -44.418777 42.3577 -13.549184 -94.370018
14100000000 -31.81432 70.051575 -43.543198 -3.4073565 -44.191074 2.1665802 -12.962369 -104.74482
14120000000 -29.430941 72.913223 -43.69873 -36.366432 -43.949718 -30.553694 -12.650123 -111.99185
14140000000 -27.186756 60.294895 -43.308937 -70.527222 -43.470699 -65.216858 -11.787151 -120.30541
14160000000 -27.063261 41.125603 -42.872032 -109.20849 -43.556705 -102.89825 -11.669252 -125.83929
14180000000 -28.384588 34.802536 -43.011559 -144.47597 -43.133484 -137.43904 -11.526233 -133.62953
14200000000 -28.281935 28.193241 -43.365158 178.46642 -42.757275 -174.11789 -10.516329 -141.44978
14220000000 -26.667685 30.325876 -43.508774 145.12315 -42.352295 150.29941 -10.63835 -149.68629
14240000000 -25.340115 20.894833 -43.795944 115.91042 -42.461624 114.79674 -10.599675 -158.0249
14260000000 -25.267139 11.687173 -43.024757 82.789619 -42.420601 79.734161 -10.023727 -164.1407
14280000000 -25.99638 8.3985634 -42.855301 46.382668 -42.740723 45.377132 -10.498645 -168.35417
14300000000 -26.296007 7.7676053 -42.277332 12.653346 -41.946808 9.5821857 -9.9726906 -178.84254
14320000000 -25.079395 6.7560344 -42.121147 -19.173996 -41.737526 -24.396519 -10.060903 172.24712
14340000000 -24.747587 -2.3132524 -41.239548 -54.731247 -41.390965 -61.014244 -10.554611 164.56758
14360000000 -25.495033 -4.1862092 -40.772739 -93.734528 -41.091797 -97.668533 -10.564268 157.25092
14380000000 -25.640364 -2.2645249 -40.957642 -131.24442 -41.470139 -135.53477 -10.597747 153.44682
14400000000 -25.855156 -3.1508522 -40.589306 -168.20628 -41.192436 -168.72504 -10.99702 145.729
14420000000 -25.065342 -9.9230051 -40.437134 157.2581 -41.269745 155.15572 -12.123105 138.72318
14440000000 -25.554014 -11.354168 -39.994003 118.53052 -41.194691 119.98651 -11.540598 128.76012
14460000000 -25.418667 -11.017344 -40.097546 78.583649 -41.018776 86.05098 -12.347004 122.05467
14480000000 -25.000771 -11.054401 -40.689766 41.973885 -40.850624 49.918125 -12.779283 116.37748
14500000000 -24.999269 -11.500533 -40.851696 6.4228368 -40.619171 12.971395 -13.335185 111.92229
14520000000 -24.270901 -13.177053 -41.123932 -26.762787 -40.625443 -20.597557 -14.216108 105.72798
14540000000 -24.185289 -13.194477 -41.26968 -59.404896 -40.81057 -55.339626 -15.211592 93.029358
14560000000 -23.624268 -11.78098 -41.708652 -93.335175 -40.468216 -92.886215 -14.649873 88.229103
14580000000 -22.918322 -14.06896 -41.235611 -126.02504 -40.345631 -126.49579 -15.738295 80.472748
14600000000 -23.121294 -15.015234 -41.12632 -160.65994 -40.153893 -162.63547 -16.742901 74.837074
14620000000 -22.865498 -13.86677 -40.616631 165.53839 -39.893139 158.0862 -16.946419 67.820404
14640000000 -21.720678 -17.515724 -40.066917 130.13528 -40.054714 122.88168 -19.18615 55.83292
14660000000 -21.382956 -18.606903 -39.911507 92.110756 -40.127518 85.650314 -17.803047 49.406277
14680000000 -20.848642 -22.466562 -39.962524 57.888824 -40.426762 50.31572 -19.152002 38.39217
14700000000 -20.764708 -27.139177 -39.054707 22.883135 -40.458187 14.836093 -20.795582 26.847588
14720000000 -21.088249 -26.4741 -38.717529 -17.634825 -40.405151 -21.159199 -20.768373 19.908789
14740000000 -20.548288 -27.877449 -38.903667 -56.386929 -41.041779 -55.025612 -22.105719 7.0096416
14760000000 -19.793577 -31.188423 -39.368557 -94.076569 -41.145145 -85.665367 -21.909702 -27.888996
14780000000 -19.487671 -37.563961 -39.418472 -130.28035 -40.469967 -119.50901 -22.309082 -15.748601
14800000000 -19.752682 -43.946095 -39.762249 -168.66211 -39.964951 -155.87201 -22.164736 -44.022568
14820000000 -20.162703 -46.788528 -40.257114 158.16495 -40.091873 168.7108 -22.726515 -53.780437
14840000000 -20.099472 -49.289738 -40.262707 123.67117 -39.933781 132.30876 -22.64665 -59.772675
14860000000 -19.545755 -51.765896 -40.349758 90.699425 -39.487518 99.759583 -22.312292 -81.736237
14880000000 -19.13895 -57.092239 -39.984386 54.685894 -39.00296 61.707626 -19.354624 -95.798996
14900000000 -19.346348 -62.764591 -39.976799 20.066051 -38.728256 24.186626 -19.886158 -104.77332
14920000000 -19.466858 -65.8797 -39.789745 -13.698236 -38.451977 -13.474293 -18.971537 -132.15593
14940000000 -19.921513 -70.532791 -39.426521 -51.434952 -38.535736 -53.160831 -20.442965 -128.38425
14960000000 -20.507582 -70.860199 -39.552731 -85.83979 -38.53418 -88.644318 -20.554377 -134.64063
14980000000 -20.446039 -69.894569 -39.02961 -120.98454 -38.38726 -126.32879 -19.304569 -145.56807
15000000000 -20.533754 -73.748032 -38.608555 -159.90092 -38.364956 -166.08093 -18.471647 -152.45386
15020000000 -20.474678 -79.166878 -38.634384 161.25139 -38.595699 155.83392 -19.056948 -153.43333
15040000000 -21.598841 -86.289909 -38.503487 122.74981 -38.881588 118.40749 -16.143072 173.94055
15060000000 -23.005777 -85.897377 -38.468689 84.421143 -38.918976 82.829918 -19.298843 171.19125
15080000000 -23.224051 -78.525177 -38.756882 44.563629 -38.895142 44.885807 -20.035501 164.20335
15100000000 -22.816717 -78.961884 -39.084908 6.298193 -39.14547 4.0983644 -20.13628 158.58043
15120000000 -22.443848 -82.556168 -39.413658 -33.593609 -39.927364 -35.716484 -20.198372 147.47375
15140000000 -23.136642 -88.716743 -39.796196 -71.603806 -40.139225 -72.293999 -25.039257 137.64633
15160000000 -24.820808 -87.340416 -40.623196 -108.17471 -40.856712 -108.00072 -18.498133 119.34745
15180000000 -24.497265 -79.128639 -40.776249 -143.37134 -41.400719 -143.78027 -22.812645 98.793983
15200000000 -23.7792 -73.304108 -41.177055 177.64679 -41.781849 178.61862 -24.756229 85.545944
15220000000 -23.276281 -75.435577 -41.699444 140.22946 -42.162312 143.69778 -23.57135 75.649109
15240000000 -23.08744 -83.092537 -42.577633 102.47229 -42.949116 106.64477 -26.01631 55.095642
15260000000 -23.285337 -87.27935 -43.084305 70.334221 -43.334183 73.675705 -22.957127 -7.5146041
15280000000 -23.770576 -90.545967 -43.230282 34.635471 -43.374893 38.660488 -22.851845 31.560467
15300000000 -23.418623 -82.719421 -43.817635 -1.2683164 -43.49699 3.0750411 -23.034882 -11.475784
15320000000 -22.271992 -84.067505 -44.641628 -38.082939 -44.088036 -35.524216 -22.705044 -16.462671
15340000000 -21.875954 -92.568077 -44.714756 -69.71582 -44.024815 -69.740265 -21.939899 -23.067604
15360000000 -22.231869 -100.14426 -44.656349 -106.70995 -44.34742 -109.88944 -20.479498 -47.214779
15380000000 -23.190689 -106.91312 -45.085705 -145.06937 -45.422653 -149.25986 -17.162252 -56.250942
15400000000 -24.152138 -107.63702 -45.601482 -179.84743 -45.830559 175.51529 -17.82181 -63.630322
15420000000 -23.908813 -104.17463 -46.027748 141.42766 -46.631615 141.51604 -17.441069 -80.419205
15440000000 -23.063532 -113.96018 -46.651894 103.15517 -47.165054 106.53426 -17.60046 -75.705238
15460000000 -23.451267 -125.67937 -47.953053 66.738441 -47.821781 67.82579 -17.022854 -81.858482
15480000000 -24.286087 -135.48337 -48.791645 33.082222 -49.156868 25.657146 -15.348621 -93.537537
15500000000 -25.546761 -145.83119 -49.170658 -0.041573364 -50.491859 -3.7713842 -14.601177 -97.689789
15520000000 -26.784897 -144.67497 -49.434406 -44.416439 -51.896591 -46.197475 -14.102962 -96.114235
15540000000 -27.339746 -153.28738 -51.217041 -80.433617 -54.308903 -65.316864 -14.541174 -121.54539
15560000000 -27.413784 -157.69106 -51.95673 -116.15446 -53.302441 -95.733833 -14.349578 -116.9369
15580000000 -26.702917 -166.9182 -54.812649 -154.19188 -53.777725 -127.31409 -13.821105 -123.64405
15600000000 -27.390362 170.30289 -55.736454 173.87318 -53.288284 -161.69139 -12.860604 -128.72264
15620000000 -29.958807 148.28705 -60.445553 141.46376 -54.58107 158.81569 -12.485649 -134.33084
15640000000 -31.066322 120.01872 -58.760815 125.85912 -55.059746 120.30419 -13.170343 -131.45744
15660000000 -31.748482 119.36162 -58.023575 96.7211 -57.57008 85.091118 -12.544444 -152.74623
15680000000 -30.28553 133.01285 -60.744083 36.851845 -59.510853 37.609917 -12.618082 -154.74455
15700000000 -28.195135 117.24304 -67.927925 -9.2303591 -62.432411 9.6634674 -12.206076 -160.59541
15720000000 -27.17527 90.202713 -64.944397 28.322813 -64.327156 -27.489038 -11.980584 -169.8551
15740000000 -26.38545 58.912083 -71.933632 -61.514256 -67.736687 -120.04694 -12.144182 -172.54059
15760000000 -26.358389 50.792263 -65.187592 94.506538 -64.831963 133.6795 -9.6212006 160.52522
15780000000 -26.197659 60.693623 -59.622658 34.349586 -61.061249 58.232262 -12.23984 168.46368
15800000000 -24.793613 60.380192 -59.813728 -15.03341 -59.054058 6.1849089 -12.892612 163.29224
15820000000 -24.100574 54.576508 -56.859039 -44.607891 -55.214832 -31.424925 -12.729979 153.25204
15840000000 -23.005899 44.811958 -53.331112 -81.843712 -52.731224 -74.973434 -12.843773 143.97632
15860000000 -22.231573 35.640781 -52.968384 -123.70599 -52.029133 -117.66721 -14.282897 139.26097
15880000000 -22.035753 36.477753 -51.00206 -154.46294 -49.565517 -157.37297 -11.65371 117.66405
15900000000 -21.946804 35.697994 -49.983425 163.56279 -49.454369 161.86783 -15.820157 119.22441
15920000000 -22.030077 35.702377 -49.135216 124.06239 -48.951893 120.31326 -16.746019 113.44365
15940000000 -21.36804 35.286747 -48.503506 79.783928 -49.084351 83.146477 -16.469503 99.637978
15960000000 -19.997589 31.054247 -48.087265 46.629864 -47.844681 49.821331 -17.613356 88.729279
15980000000 -19.345562 27.366533 -47.082157 4.5719891 -46.401474 7.4932837 -20.721565 68.392975
16000000000 -19.361645 25.489744 -47.555218 -33.611565 -46.827435 -32.820858 -21.149778 51.180626
16020000000 -19.402559 26.105711 -46.544647 -74.779686 -46.227898 -72.235832 -30.719236 61.263081
16040000000 -18.713449 26.023457 -46.877098 -109.84058 -46.446922 -112.67164 -25.485382 29.87965
16060000000 -17.776527 24.080637 -46.01181 -147.36848 -45.962269 -153.25528 -22.181684 13.388536
16080000000 -16.804668 21.189417 -46.168789 171.95172 -46.464195 166.61232 -22.372313 -13.819125
16100000000 -16.372028 19.491625 -45.969971 131.66899 -46.257751 130.09354 -20.347496 -37.327843
16120000000 -15.975914 17.257883 -46.42123 91.083511 -46.492001 89.95771 -18.851997 -46.843727
16140000000 -15.789247 17.029425 -46.853504 52.647388 -48.067162 48.164093 -21.366095 -101.66698
16160000000 -15.255266 14.633914 -46.450195 16.621313 -48.039597 16.556528 -20.035059 -71.565308
16180000000 -14.446934 12.355136 -47.96402 -26.018198 -48.947239 -27.565214 -18.246553 -73.951271
16200000000 -13.650453 9.7904034 -48.285698 -57.96524 -49.68203 -55.599495 -16.476274 -84.580093
16220000000 -13.118831 7.1907687 -49.209091 -94.162216 -50.071346 -90.842537 -15.753716 -94.354752
16240000000 -12.74236 4.1728306 -49.478958 -124.51759 -50.910839 -123.79217 -14.764091 -90.028206
16260000000 -12.757489 2.3295417 -50.451881 -159.65352 -52.656769 -144.57976 -16.353796 -114.23499
16280000000 -12.375272 0.83859187 -50.431389 162.01753 -51.860168 -178.66382 -14.890834 -108.13793
16300000000 -11.622565 -1.7298466 -52.615765 127.84139 -52.473309 152.61687 -14.089735 -112.88579
16320000000 -11.096127 -4.9568567 -53.719269 114.31506 -50.559662 129.35854 -13.634585 -124.57803
16340000000 -10.730858 -8.6516142 -51.903931 93.003487 -49.63258 96.041809 -12.88367 -127.20117
16360000000 -10.596884 -11.291123 -50.469715 55.171829 -48.288841 54.1698 -12.833732 -123.38357
16380000000 -10.551975 -11.930199 -49.784534 18.836315 -48.673359 19.187817 -13.147047 -138.81566
16400000000 -10.017657 -14.242096 -49.307709 -17.965948 -48.049511 -19.724363 -12.364243 -137.33458
16420000000 -9.5558062 -17.387852 -48.641907 -54.828022 -47.491554 -57.090191 -11.72403 -143.86281
16440000000 -9.189311 -20.682556 -48.817142 -89.62793 -47.934547 -99.054024 -11.876825 -152.82246
16460000000 -9.0019579 -23.181763 -47.988476 -123.1835 -47.296974 -131.28162 -11.460256 -152.70624
16480000000 -8.8227978 -24.223005 -47.325813 -160.31775 -46.546478 -172.62907 -11.671763 -154.67805
16500000000 -8.5823421 -26.062393 -46.646606 158.71545 -46.841961 146.87843 -11.251109 -161.02797
16520000000 -8.2171926 -28.57629 -46.733166 121.55138 -48.095314 109.10683 -10.497363 -163.17343
16540000000 -7.8261957 -30.854198 -46.654446 84.433197 -48.276451 73.270035 -10.476925 -172.35098
16560000000 -7.4824381 -33.270164 -46.350021 41.451706 -48.831928 32.070271 -10.499621 -178.48271
16580000000 -7.2684588 -35.010067 -46.935574 0.60144097 -49.228336 1.4747245 -10.416154 -179.92354
16600000000 -7.093257 -36.660755 -47.781998 -37.312965 -49.694202 -33.322277 -10.6245 174.22821
16620000000 -6.8438153 -39.1306 -47.595192 -74.383652 -49.274609 -68.083138 -10.625764 166.8085
16640000000 -6.3634601 -40.455078 -48.296391 -110.96123 -49.638912 -100.04145 -9.2747698 169.21414
16660000000 -5.9416022 -43.00872 -48.766041 -145.13649 -49.725105 -138.18323 -9.6128063 156.56163
16680000000 -5.6282463 -45.438103 -49.151466 172.90938 -49.675976 -173.75665 -9.8164892 150.95293
16700000000 -5.3980947 -47.508629 -50.208824 140.43065 -49.999493 153.25505 -10.362252 146.13217
16720000000 -5.0849471 -49.230671 -50.434284 110.3291 -49.454105 123.87031 -10.173945 140.80745
16740000000 -4.7950568 -53.26902 -50.532539 74.635658 -49.142086 82.235916 -8.9737034 150.59669
16760000000 -4.3219638 -55.462639 -50.931438 30.360403 -49.479324 39.815548 -9.9956369 133.15247
16780000000 -3.9700494 -58.460922 -51.235222 7.0627317 -49.397045 6.3500409 -10.15309 119.40631
16800000000 -3.6395547 -61.197319 -50.28952 -32.332565 -48.925255 -35.950008 -10.914264 111.6069
16820000000 -3.3437424 -63.89386 -50.772778 -75.419647 -49.871075 -78.367157 -11.131944 108.18539
16840000000 -3.0126567 -67.068062 -51.478626 -110.82693 -50.452175 -117.42045 -11.625942 98.47683
16860000000 -2.8269458 -71.674622 -51.388096 -144.34409 -51.605431 -148.42404 -12.335274 83.659302
16880000000 -2.45066 -73.998299 -51.750416 172.26796 -51.454689 166.52185 -12.405723 85.337906
16900000000 -2.1323707 -77.15995 -52.044415 133.54945 -52.229881 127.78709 -12.702412 72.773552
16920000000 -1.9061888 -80.518158 -53.424614 88.232094 -53.396877 84.519241 -14.056904 67.158661
16940000000 -1.6766707 -84.068855 -55.261703 46.789738 -55.510723 41.844963 -14.528521 64.10553
16960000000 -1.4968808 -87.641434 -57.204926 20.297016 -57.002926 13.032189 -15.014147 50.027481
16980000000 -1.2654245 -90.985886 -56.201393 -18.912979 -58.393463 -26.832872 -14.66806 38.072041
