!Keysight Technologies,P9374A,MY57211810,A.19.30.04
!Date: Friday, May 09, 2025 09:19:27
!Correction: S11(Cdelta 2-Port  ) 
!S21(Cdelta 2-Port  ) 
!S12(Cdelta 2-Port  ) 
!S22(Cdelta 2-Port  ) 
!S2P File: Measurements: S11, S21, S12, S22:
# Hz S  dB   R 50
13000000000 -19.388416 -84.525307 -46.707058 28.201582 -46.892952 30.236412 -19.684986 -25.745773
13020000000 -20.660553 -85.900269 -47.303276 -16.151196 -47.193996 -10.799385 -18.549427 -32.079525
13040000000 -20.971109 -77.42691 -48.851463 -50.590843 -47.01368 -45.048721 -17.244299 -44.18391
13060000000 -20.61694 -80.173981 -47.877926 -79.999214 -47.173389 -84.389648 -14.956362 -43.753483
13080000000 -20.723005 -82.960098 -47.859329 -125.4283 -47.090611 -122.74834 -14.306176 -53.471436
13100000000 -20.903795 -85.1073 -48.512726 -160.72101 -47.50053 -159.88766 -13.211034 -58.715099
13120000000 -20.852768 -81.242523 -49.200035 166.69424 -47.523666 160.3082 -12.385406 -63.15551
13140000000 -20.088026 -78.77758 -49.060238 130.54945 -48.966919 118.07859 -11.276832 -68.99205
13160000000 -19.558601 -87.046692 -49.72678 88.616272 -49.834579 83.882698 -10.637936 -77.699738
13180000000 -20.845675 -93.822136 -48.94389 58.943584 -48.832298 51.175346 -9.5087214 -80.498444
13200000000 -21.632231 -89.033112 -50.020935 25.60714 -50.723629 8.019453 -9.1567764 -89.178154
13220000000 -20.160557 -87.543098 -50.467575 -15.037013 -53.617462 -21.969793 -8.7907648 -100.12663
13240000000 -19.378572 -95.957878 -49.742462 -46.729694 -52.880455 -47.96339 -8.3195591 -98.549988
13260000000 -20.172064 -103.65713 -50.580727 -94.811615 -52.188831 -85.020584 -7.4785199 -110.84171
13280000000 -21.174351 -102.47296 -51.818062 -122.45245 -52.938751 -121.0284 -7.2081165 -118.05018
13300000000 -21.284004 -100.48458 -51.534046 -164.76805 -53.25174 -154.23535 -7.0304351 -125.72832
13320000000 -20.057642 -105.20889 -52.988277 162.16919 -55.315708 176.81369 -6.9373751 -132.95078
13340000000 -20.577471 -118.14902 -53.569614 122.37492 -55.085995 143.94983 -7.9874177 -141.17426
13360000000 -22.142948 -114.8746 -55.321877 67.945984 -53.802971 97.746178 -6.8957567 -146.97414
13380000000 -21.876707 -108.31687 -59.984074 46.496189 -57.219669 65.614845 -7.1014309 -155.85707
13400000000 -21.234825 -115.16632 -59.350578 -2.9971964 -57.182995 32.147186 -7.1399503 -162.33609
13420000000 -22.356108 -127.29115 -66.841492 -31.682974 -58.6166 -6.5616159 -7.5635896 -168.64972
13440000000 -23.786785 -129.10056 -68.452415 35.312447 -64.744324 -35.378685 -7.9703193 -175.83138
13460000000 -24.850117 -119.62044 -61.951958 55.087223 -67.098282 20.836916 -9.1075106 -177.14861
13480000000 -23.607172 -118.2638 -57.895351 -10.248229 -62.581402 -39.229229 -8.7179241 172.18785
13500000000 -24.090822 -133.45706 -57.325909 -50.461094 -61.714432 -54.854992 -8.9461069 165.47978
13520000000 -27.113884 -142.11327 -55.481224 -81.145042 -60.217312 -88.206741 -9.517684 159.80559
13540000000 -29.061474 -128.96497 -53.078754 -116.59753 -55.886497 -115.91551 -9.9869452 156.03398
13560000000 -26.86808 -127.795 -51.566856 -157.89594 -54.345295 -141.38303 -10.552748 146.2608
13580000000 -27.173775 -136.03889 -50.776958 158.06458 -52.5163 175.26433 -11.187426 146.25905
13600000000 -28.882864 -137.29221 -51.38179 114.95334 -51.964687 128.05714 -11.411974 137.90552
13620000000 -31.324617 -127.31418 -51.515354 80.940865 -51.64119 96.004761 -12.09019 131.14923
13640000000 -29.463337 -116.28098 -50.697922 49.812077 -50.636734 64.570587 -12.462069 125.62698
13660000000 -28.391441 -128.34697 -50.459755 1.4751712 -49.210922 21.026367 -13.175 124.48432
13680000000 -30.174463 -136.89647 -51.470921 -32.625404 -49.79023 -18.965668 -14.124127 115.47894
13700000000 -30.907711 -113.13393 -52.820923 -76.34201 -50.291782 -63.38303 -14.340231 110.71977
13720000000 -28.460228 -109.854 -54.090542 -85.468552 -50.835819 -94.388184 -15.107434 99.550278
13740000000 -28.187582 -126.95102 -52.690937 -116.15508 -50.790825 -127.59139 -15.585805 93.292961
13760000000 -29.859413 -133.78076 -52.590443 -156.13318 -50.247356 -165.28571 -16.195635 88.82753
13780000000 -30.637985 -125.62807 -53.513882 178.98732 -50.974129 153.99467 -17.501541 83.601402
13800000000 -28.188988 -123.41936 -51.668575 150.90298 -52.287556 119.47702 -17.641687 73.745453
13820000000 -27.265781 -130.44751 -50.029125 118.94308 -53.974876 101.52438 -18.227016 64.764641
13840000000 -28.906015 -145.91434 -49.151108 74.989311 -52.172436 71.660355 -19.254953 47.068951
13860000000 -32.319996 -143.51382 -49.089077 40.368229 -51.432545 36.370972 -19.013174 38.194027
13880000000 -31.88003 -138.40898 -47.5872 9.5622616 -50.943237 12.22085 -20.018379 26.570419
13900000000 -29.33202 -166.64432 -47.191483 -32.698521 -48.905369 -19.323875 -19.899416 11.155633
13920000000 -29.034517 174.82651 -47.167027 -71.144844 -47.935158 -60.025047 -19.431177 -4.4569664
13940000000 -30.352062 161.76906 -46.949074 -111.55519 -47.907501 -95.514488 -19.712896 -12.734651
13960000000 -32.399879 171.50438 -47.418575 -145.09602 -46.269371 -132.92419 -17.903244 -26.992809
13980000000 -31.472336 165.951 -47.016708 179.60759 -46.294277 -169.96976 -17.438978 -38.505894
14000000000 -29.404228 135.66759 -47.358269 145.25706 -46.413849 151.29494 -16.991251 -52.784637
14020000000 -29.052256 112.0099 -46.872852 106.28779 -45.975746 116.56617 -16.066891 -63.782036
14040000000 -31.840227 105.9207 -47.149311 74.014114 -45.323383 77.868744 -14.71301 -70.683029
14060000000 -31.502686 114.84056 -47.16819 36.670528 -45.498859 35.805248 -15.472011 -79.383453
14080000000 -30.129425 103.03242 -47.206722 5.5658207 -46.07122 -1.3889158 -13.663881 -87.937546
14100000000 -28.759726 72.247543 -46.407219 -29.051258 -45.786629 -33.572411 -13.166072 -98.873154
14120000000 -28.6968 54.780235 -46.186543 -67.869347 -45.541027 -71.82074 -12.856309 -107.09956
14140000000 -29.458977 46.894707 -46.496971 -95.635086 -46.152679 -105.6206 -12.017401 -116.58041
14160000000 -28.682222 48.336384 -45.030148 -137.54474 -46.113026 -144.06001 -11.851004 -122.7394
14180000000 -27.206573 44.970295 -45.064411 -172.4527 -46.119343 176.85654 -11.695274 -131.16557
14200000000 -26.194208 25.91375 -44.512569 150.56488 -46.145439 149.37039 -10.67523 -140.01349
14220000000 -27.042171 20.275028 -43.863754 113.75014 -45.029015 114.61619 -10.793999 -148.58356
14240000000 -26.219084 24.575636 -44.384823 72.106552 -45.57523 72.976952 -10.691768 -157.76511
14260000000 -24.969175 16.328493 -44.030308 38.405533 -45.850956 42.306213 -10.100948 -164.40659
14280000000 -25.31255 7.9711843 -44.20771 -2.5779672 -45.188435 7.5827231 -10.543324 -169.0117
14300000000 -26.649225 3.9794607 -44.211864 -39.615444 -44.174042 -30.728434 -9.9392557 -179.97595
14320000000 -26.061321 8.6461573 -44.38723 -78.249596 -44.928524 -72.857735 -9.9821873 170.43614
14340000000 -24.954481 3.1506152 -44.261826 -115.64678 -44.405178 -102.66135 -10.436791 162.3688
14360000000 -24.572475 -5.4796538 -45.102539 -151.77168 -44.002296 -145.04056 -10.364528 154.88345
14380000000 -25.787361 -12.512404 -45.353069 173.17151 -44.117138 177.091 -10.354042 150.7343
14400000000 -26.639513 -5.2071943 -44.824158 134.67316 -44.054966 140.8569 -10.639371 142.73337
14420000000 -25.484585 -6.8860083 -46.069622 101.18433 -44.216007 100.55863 -11.623216 135.19005
14440000000 -24.941261 -9.3337421 -44.972866 69.829041 -44.697968 60.490444 -10.979652 125.24017
14460000000 -25.035177 -14.326703 -44.930508 29.277988 -44.908253 27.355486 -11.631483 118.32158
14480000000 -24.918936 -13.424122 -45.464508 -11.383172 -45.121235 -16.320023 -11.932758 112.16814
14500000000 -25.079824 -12.761982 -45.654816 -46.351551 -45.692123 -52.128201 -12.365083 107.27072
14520000000 -24.477968 -13.824262 -46.178722 -86.032173 -46.228916 -90.658836 -13.017706 100.67937
14540000000 -24.298975 -11.459338 -46.377209 -119.4655 -47.716995 -121.5163 -13.739317 88.254272
14560000000 -23.560827 -12.347976 -47.178757 -161.09174 -48.120975 -160.29968 -13.251361 83.194603
14580000000 -22.648645 -15.249608 -47.850201 160.34294 -48.35144 165.93629 -14.033998 75.727631
14600000000 -22.724182 -16.771048 -49.841526 126.57471 -49.292229 127.8082 -14.798742 69.849464
14620000000 -22.995991 -16.778629 -49.957218 104.53632 -51.144093 103.29476 -14.827707 63.374027
14640000000 -22.267952 -16.472677 -49.713596 64.054749 -49.963371 73.597351 -16.408051 51.87199
14660000000 -21.550028 -15.873876 -50.92524 41.41547 -50.45182 41.122051 -15.375266 46.48241
14680000000 -20.500298 -22.450502 -49.792923 6.1869349 -50.281338 1.7293839 -16.328136 37.124641
14700000000 -20.296431 -28.301268 -50.259293 -32.424995 -50.930325 -23.032021 -17.382402 27.89167
14720000000 -21.059095 -31.377586 -49.318565 -62.38694 -49.26807 -57.28936 -17.409081 21.539879
14740000000 -21.351896 -28.139776 -49.729244 -99.793854 -50.038364 -95.983223 -18.333483 12.509522
14760000000 -20.132586 -28.824314 -50.85688 -139.50298 -50.805485 -130.27295 -18.740435 -12.182017
14780000000 -19.094122 -36.134563 -49.817871 -165.35329 -49.35886 -161.17838 -18.578188 -6.2566047
14800000000 -19.084352 -47.082123 -51.036755 149.14742 -50.136646 154.37888 -19.219099 -26.620817
14820000000 -19.998943 -50.186615 -52.039532 131.2211 -51.558548 125.63951 -19.908556 -33.245407
14840000000 -20.339125 -50.354691 -50.579853 91.536873 -50.507198 89.891655 -19.92412 -39.00927
14860000000 -19.751713 -50.58823 -51.429356 46.383301 -50.577686 48.420605 -20.474964 -57.2645
14880000000 -19.076038 -54.817612 -53.224022 23.520597 -53.615162 20.125292 -18.542042 -76.823395
14900000000 -18.717655 -61.773319 -55.462025 -18.78573 -54.729473 -23.240047 -19.251419 -85.975899
14920000000 -19.295942 -68.268471 -53.793186 -35.19664 -53.97821 -34.972672 -19.649271 -116.14986
14940000000 -20.000671 -70.87075 -54.445881 -61.165657 -54.415871 -68.005035 -20.99695 -109.65778
14960000000 -20.658428 -71.009865 -53.961624 -93.026711 -54.181953 -92.046249 -21.233948 -116.44521
14980000000 -20.750067 -68.34388 -54.579796 -113.73088 -55.405273 -114.4277 -20.215298 -132.19547
15000000000 -20.156282 -71.251068 -52.305958 -145.03847 -52.443192 -140.47905 -19.313059 -142.09097
15020000000 -20.119823 -80.569267 -49.955654 177.2029 -50.602528 178.69412 -19.947689 -144.90288
15040000000 -21.742096 -87.786873 -50.227692 140.73845 -50.405659 145.57813 -17.287561 175.15042
15060000000 -23.417177 -86.957825 -48.532196 107.3008 -48.653469 110.28336 -21.108217 172.09941
15080000000 -23.581774 -77.392357 -47.867352 63.3475 -48.068077 66.7995 -21.843691 164.17044
15100000000 -22.633497 -77.161751 -47.943527 25.865181 -47.678864 29.033001 -21.73102 156.68163
15120000000 -21.961208 -84.763008 -47.351257 -14.489612 -47.12693 -12.355672 -21.515202 141.72083
15140000000 -23.24086 -91.643524 -47.703426 -55.25124 -47.524578 -55.788815 -26.862858 120.96815
15160000000 -25.138903 -86.692551 -47.991524 -95.903786 -47.867882 -95.920341 -19.015606 109.62408
15180000000 -24.497 -77.419601 -48.509911 -134.59586 -48.306835 -132.38068 -22.783947 81.117195
15200000000 -23.612858 -74.863213 -48.793198 -173.65466 -48.623466 -169.63731 -23.850121 66.602531
15220000000 -22.904961 -79.062294 -50.911079 161.91953 -51.140156 151.05504 -22.188942 59.936275
15240000000 -22.671652 -84.220055 -50.464928 127.44409 -51.612793 130.25389 -23.164532 39.337509
15260000000 -23.109377 -84.876678 -49.96508 81.045448 -50.790077 90.903946 -20.106148 -4.3325758
15280000000 -23.576635 -87.422745 -52.043255 48.1222 -51.588135 54.456211 -20.174593 22.202608
15300000000 -23.315603 -82.274742 -52.544144 32.593201 -52.388763 24.321333 -19.939449 -8.8521404
15320000000 -22.452784 -84.401016 -50.08284 -2.2677276 -51.407124 -1.0429138 -19.694715 -13.623843
15340000000 -21.699995 -91.074448 -50.96452 -49.40316 -50.875263 -31.924482 -19.075899 -18.621965
15360000000 -22.066442 -101.2747 -52.026779 -75.373558 -50.532078 -74.93856 -18.206587 -38.5172
15380000000 -23.755354 -105.28599 -50.088593 -102.38234 -49.164707 -109.063 -15.59756 -48.860443
15400000000 -24.083452 -105.54504 -50.457462 -155.50145 -50.519588 -154.49663 -16.224943 -55.22649
15420000000 -24.056553 -108.50825 -51.568916 171.71942 -50.991314 179.30901 -16.2346 -69.821022
15440000000 -23.199732 -114.85545 -50.918449 144.69743 -49.938938 141.39708 -16.192137 -65.454712
15460000000 -22.936882 -125.43288 -51.035858 109.39914 -50.365368 101.42755 -15.626525 -72.145508
15480000000 -24.35743 -135.31853 -50.548992 64.790802 -50.690025 66.026985 -14.373595 -84.459503
15500000000 -25.756891 -144.34676 -51.789875 32.032608 -50.511848 27.05335 -13.700073 -89.372681
15520000000 -26.881027 -147.36255 -52.541748 -8.9874496 -52.615479 -17.155128 -13.162034 -89.152222
15540000000 -26.958485 -154.60966 -52.197815 -34.905609 -54.120796 -44.093945 -14.13865 -113.12831
15560000000 -26.866013 -155.2907 -52.758343 -68.731323 -54.072983 -75.705612 -13.75407 -108.15878
15580000000 -26.401176 -165.44824 -53.09127 -104.33604 -55.388775 -94.403435 -13.218409 -115.5291
15600000000 -27.596201 170.50963 -52.902401 -144.07764 -53.614925 -138.2962 -12.362023 -122.19292
15620000000 -29.729168 148.08737 -53.734524 -170.23082 -55.554501 -160.23264 -12.106756 -128.34824
15640000000 -31.553526 126.75818 -54.642036 158.6433 -54.527462 168.95561 -12.724311 -125.54104
15660000000 -32.246304 126.67943 -55.306076 132.46379 -56.578171 141.81747 -12.495046 -147.14642
15680000000 -30.869392 132.67337 -52.887783 108.87875 -51.887859 122.95509 -12.443582 -149.18149
15700000000 -28.592997 110.11133 -52.972889 61.803459 -51.387928 69.466217 -12.076325 -156.10863
15720000000 -27.423096 86.151787 -52.048862 46.685974 -51.081219 38.932255 -11.963207 -166.30905
15740000000 -26.595547 64.10537 -51.273399 2.0926552 -51.21352 1.3329262 -12.185701 -169.52536
15760000000 -25.730429 57.018711 -50.09219 -35.938747 -49.654755 -33.514465 -9.8684206 162.16481
15780000000 -25.997412 56.644646 -50.333424 -69.510139 -49.748592 -67.563034 -12.530936 170.77567
15800000000 -25.717297 58.003307 -49.110718 -108.27853 -48.478897 -108.92227 -13.149581 165.16939
15820000000 -24.327553 58.244274 -48.799767 -155.80406 -48.894463 -160.58495 -13.033669 153.82716
15840000000 -22.884521 47.311398 -48.894718 168.66905 -49.225285 167.77625 -13.176626 143.3342
15860000000 -21.847647 38.150951 -48.26466 121.26132 -48.255737 126.23817 -14.749581 137.65599
15880000000 -22.008675 32.564972 -49.732319 84.036507 -49.362186 79.863808 -11.965275 115.27805
15900000000 -22.934118 34.366245 -50.071537 52.822346 -50.086624 45.169701 -16.339958 114.729
15920000000 -22.172518 40.042164 -50.421486 8.6119175 -51.753307 3.6483819 -17.232428 107.23872
15940000000 -21.08017 36.399387 -50.327461 -21.712393 -51.179024 -14.637302 -16.696161 92.022446
15960000000 -20.010542 29.778805 -50.469887 -66.559425 -50.603188 -64.176529 -17.590492 78.350021
15980000000 -19.6241 25.829699 -51.866917 -101.92851 -51.920532 -101.81946 -19.869963 52.817188
16000000000 -19.540421 25.210419 -51.874855 -142.05672 -52.977798 -144.09496 -19.688957 35.555019
16020000000 -19.512505 25.023899 -53.485752 -176.52419 -55.048836 -175.95566 -26.275047 17.634907
16040000000 -18.74815 26.690357 -52.42931 148.56163 -54.852764 161.83736 -22.093939 10.582194
16060000000 -17.826536 24.154398 -53.901543 109.88832 -54.036377 117.5947 -19.021706 0.77672851
16080000000 -16.743774 21.754406 -54.573078 76.593224 -54.394814 82.712318 -18.510078 -20.257458
16100000000 -16.260042 17.928259 -53.581047 35.548138 -54.637642 41.102306 -16.914171 -37.673161
16120000000 -16.041742 15.744582 -54.903576 -14.257381 -55.060947 -0.59009224 -15.784066 -45.626682
16140000000 -15.988106 16.966923 -56.634048 -34.340893 -57.255249 -18.233173 -18.529406 -85.17717
16160000000 -15.163311 17.098709 -55.442505 -73.007362 -54.827858 -62.267406 -16.774981 -64.062759
16180000000 -14.15372 12.91197 -56.644852 -124.97382 -55.557369 -110.48079 -15.126557 -69.366699
16200000000 -13.589163 9.1198883 -55.880135 -159.57161 -54.315922 -153.75937 -13.857936 -79.345779
16220000000 -13.267429 6.0744209 -56.458771 154.89267 -54.859383 159.86084 -13.346304 -88.234009
16240000000 -13.051699 5.197382 -59.134312 112.37582 -56.093784 108.60603 -12.403267 -86.634247
16260000000 -12.719395 4.1572785 -63.306961 63.657684 -59.994293 62.956894 -14.247085 -105.93607
16280000000 -12.360459 0.92028326 -65.932594 54.179245 -57.935623 29.957893 -12.608519 -102.19051
16300000000 -11.675449 -2.1652503 -69.228592 8.2530203 -58.915695 -42.466019 -11.98038 -108.58415
16320000000 -11.18056 -5.6915126 -65.642586 -38.809879 -62.483582 -90.147034 -11.740916 -119.44885
16340000000 -10.853337 -8.9113369 -66.796753 -105.93704 -60.904995 -144.89537 -11.098757 -122.60809
16360000000 -10.680309 -10.964291 -64.551849 -135.29059 -60.779446 172.61177 -10.982203 -120.80713
16380000000 -10.53868 -11.739878 -64.439903 170.69345 -60.754795 123.85816 -11.545577 -133.76784
16400000000 -10.019992 -14.041847 -63.895073 125.99957 -62.182812 71.421783 -10.735257 -134.56789
16420000000 -9.4505978 -17.480309 -60.092663 83.420303 -60.052139 16.775576 -10.267712 -141.24287
16440000000 -9.1840105 -21.606901 -59.011356 13.056811 -62.264782 -45.704693 -10.510963 -150.01378
16460000000 -9.0981941 -23.237013 -57.299301 -16.620762 -60.081013 -60.032753 -10.148441 -150.6353
16480000000 -8.8532057 -23.654415 -53.708488 -67.252998 -59.804607 -88.206985 -10.374057 -153.31702
16500000000 -8.5577593 -25.5121 -52.931988 -137.73436 -58.295685 -140.65849 -10.076649 -159.49408
16520000000 -8.1020641 -28.439674 -55.620979 -178.46294 -60.708649 -177.1757 -9.5039482 -162.15842
16540000000 -7.7935348 -31.536549 -52.927589 153.57112 -57.637764 151.21097 -9.5633297 -171.17598
16560000000 -7.5642185 -33.447109 -52.464409 97.729393 -56.598045 115.53103 -9.6563015 -177.41367
16580000000 -7.3081298 -34.387928 -55.922871 62.800484 -56.730915 94.073662 -9.6337528 -179.27304
16600000000 -7.0701709 -36.164299 -52.868004 34.449188 -54.034702 54.014256 -9.9245443 174.93404
16620000000 -6.8553963 -38.766045 -52.322887 -15.33909 -51.998653 5.8651795 -9.9925785 167.61914
16640000000 -6.3356843 -40.446957 -52.542778 -46.660603 -50.760834 -32.87513 -8.7666626 169.47978
16660000000 -5.9631209 -43.323544 -51.259163 -85.447296 -49.751179 -79.112755 -9.2119207 157.02818
16680000000 -5.6838083 -45.519539 -52.259201 -122.88004 -50.190552 -120.52509 -9.4565449 151.60764
16700000000 -5.4558401 -47.337681 -51.600437 -160.2896 -50.820717 -156.46664 -10.05922 146.44177
16720000000 -5.1020627 -48.907017 -50.574738 163.63123 -48.543125 165.55713 -9.9799728 141.14615
16740000000 -4.7230101 -53.126251 -50.539604 123.75179 -49.123573 118.53635 -8.8747063 150.69589
16760000000 -4.2717395 -55.942768 -49.505882 79.823013 -49.500183 76.774651 -9.9403954 133.25455
16780000000 -4.0098715 -58.843384 -48.807827 43.705517 -48.582314 39.16552 -10.187426 119.40491
16800000000 -3.6873035 -60.917782 -48.497185 -1.017602 -47.842144 -5.984303 -11.002628 111.48106
16820000000 -3.3177199 -63.52253 -49.087704 -38.562214 -49.251297 -45.264069 -11.295346 107.7808
16840000000 -2.974206 -66.95266 -48.518559 -79.222481 -48.810612 -85.218933 -11.868537 97.804276
16860000000 -2.7943516 -71.848335 -48.203728 -117.32293 -49.36285 -123.04911 -12.592896 82.202423
16880000000 -2.4658971 -74.111801 -48.336456 -158.34532 -49.393581 -166.29218 -12.745057 83.6353
16900000000 -2.1368723 -77.014503 -47.629028 159.26508 -48.924305 156.54498 -13.103386 70.039619
16920000000 -1.9014301 -80.456497 -48.18438 115.06725 -50.127537 115.7921 -14.552692 63.545296
16940000000 -1.6948136 -83.913734 -49.056896 75.316414 -50.332394 80.977341 -15.115639 59.60323
16960000000 -1.4750208 -87.43013 -48.433159 35.639416 -49.438042 37.004059 -15.618383 43.909775
16980000000 -1.2397406 -91.030174 -48.688499 -8.623867 -50.108639 -0.43013045 -15.112146 31.018129
