!Keysight Technologies,P9374A,MY57211810,A.19.30.04
!Date: Friday, May 09, 2025 09:20:51
!Correction: S11(Cdelta 2-Port  ) 
!S21(Cdelta 2-Port  ) 
!S12(Cdelta 2-Port  ) 
!S22(Cdelta 2-Port  ) 
!S2P File: Measurements: S11, S21, S12, S22:
# Hz S  dB   R 50
13000000000 -19.884268 -81.319519 -45.872612 38.744701 -42.298344 48.573353 -15.009155 7.0224957
13020000000 -20.020033 -84.699265 -46.159954 -1.2556908 -42.461025 9.3345232 -14.604981 -1.7332805
13040000000 -20.978762 -85.189888 -46.909065 -42.050194 -43.13644 -30.154175 -14.271338 -15.355099
13060000000 -21.823973 -79.767235 -47.825008 -75.286942 -43.892776 -64.024025 -12.695292 -21.969688
13080000000 -20.540956 -77.03862 -48.581635 -117.61922 -43.892197 -101.40286 -12.450634 -32.971085
13100000000 -19.831217 -85.438873 -49.19331 -156.97099 -44.649994 -139.73718 -11.679216 -40.791901
13120000000 -20.179075 -88.773033 -51.880985 166.2516 -45.498009 -172.81367 -11.204789 -48.521656
13140000000 -21.27178 -84.609314 -52.636894 126.8037 -45.108067 148.22693 -10.281776 -55.778957
13160000000 -20.441959 -78.924576 -56.6451 99.312599 -46.450905 113.59824 -9.9608192 -66.22271
13180000000 -19.666061 -84.521217 -58.277855 69.212257 -46.746471 79.958878 -8.9939318 -71.389389
13200000000 -19.864662 -95.162323 -60.244545 67.228035 -47.308445 44.077454 -8.8586617 -81.303658
13220000000 -20.936985 -97.727257 -57.887749 35.933033 -48.414715 3.464788 -8.5814047 -93.650078
13240000000 -20.817814 -91.521896 -61.91431 24.937679 -48.896729 -25.28236 -8.3587599 -92.881889
13260000000 -19.830124 -93.531502 -59.984806 -14.906097 -49.029385 -71.035675 -7.6369185 -106.14162
13280000000 -19.721115 -100.63979 -63.995506 -19.663473 -50.799168 -109.05573 -7.499577 -114.27929
13300000000 -20.832792 -109.7225 -60.720299 -28.621229 -52.298508 -139.37488 -7.387804 -122.41267
13320000000 -21.612522 -108.88583 -58.481953 -57.160927 -53.117344 -173.95259 -7.3638506 -130.22469
13340000000 -21.466507 -108.35715 -57.018085 -65.088196 -57.531525 135.74059 -8.4255629 -138.97818
13360000000 -20.972597 -109.50486 -53.7813 -104.95349 -59.657097 107.4148 -7.3914194 -144.89717
13380000000 -21.551271 -115.84485 -51.079437 -142.70926 -73.037392 143.0132 -7.6408305 -154.24544
13400000000 -22.217987 -119.30811 -50.469063 -179.13171 -60.630577 -178.00177 -7.6615353 -161.29156
13420000000 -22.905113 -124.95234 -48.392731 140.81078 -55.602596 121.12019 -8.0661268 -168.1347
13440000000 -23.563551 -128.14417 -47.668171 107.1517 -53.423874 96.27179 -8.4469223 -175.68282
13460000000 -24.408331 -125.1287 -46.541725 75.130386 -51.409782 64.374695 -9.5624962 -177.802
13480000000 -24.263876 -121.21135 -45.107792 29.82089 -47.822227 7.6929922 -9.157259 170.97592
13500000000 -24.005945 -127.55228 -45.097191 -5.6647229 -49.179855 -34.118481 -9.342248 163.46141
13520000000 -25.236509 -138.32886 -43.907093 -47.473591 -47.905151 -70.777496 -9.8786097 157.03081
13540000000 -28.038612 -144.38394 -43.292114 -88.53614 -46.647839 -117.11823 -10.305398 152.63252
13560000000 -29.651857 -127.97552 -43.485844 -129.57877 -47.76461 -166.87634 -10.784149 141.99727
13580000000 -27.430872 -117.66511 -42.961742 -165.00261 -49.066841 161.06281 -11.395263 141.2191
13600000000 -26.336784 -128.81839 -42.421494 150.25394 -48.295361 124.41874 -11.595066 131.81941
13620000000 -29.166605 -145.60281 -43.53104 108.10618 -50.416153 70.687859 -12.176057 124.02373
13640000000 -32.095631 -132.03534 -43.581059 76.218941 -52.694706 40.338657 -12.461174 117.8231
13660000000 -31.134987 -108.57616 -43.48793 36.020111 -54.931309 10.765816 -13.187636 115.8877
13680000000 -28.608427 -117.75401 -44.490643 -4.016995 -59.21431 -12.78425 -13.864719 106.25665
13700000000 -28.711494 -120.76311 -44.607441 -40.040348 -57.339119 -7.4667339 -14.070374 100.05725
13720000000 -29.597601 -126.34161 -44.873737 -79.625839 -55.743286 -46.428005 -14.631319 87.583824
13740000000 -30.641882 -121.50535 -45.935024 -119.05425 -55.519634 -66.105492 -14.894067 80.528419
13760000000 -30.03713 -127.0744 -46.841724 -151.0351 -52.825005 -88.366592 -15.415929 74.966354
13780000000 -30.243952 -126.61036 -49.315857 168.19778 -52.282917 -120.46903 -16.505493 68.420807
13800000000 -28.412418 -130.83084 -50.652699 142.06387 -49.731461 -155.69577 -16.389584 58.8484
13820000000 -27.760063 -128.94719 -52.385288 124.82555 -49.806747 164.90102 -16.682112 49.587513
13840000000 -27.792173 -143.17201 -51.91016 100.23028 -49.858101 125.7984 -17.195299 33.281639
13860000000 -29.984428 -153.17993 -50.828236 73.222672 -49.714577 92.452972 -16.690548 25.797377
13880000000 -32.957333 -160.71388 -50.459457 52.684483 -49.017769 60.177948 -17.249552 14.912744
13900000000 -31.818867 -158.65691 -49.205345 20.126122 -48.225361 22.380947 -16.955599 2.7282712
13920000000 -28.824518 -165.84088 -48.094994 -7.641602 -48.887852 -8.3087273 -16.563011 -9.7050762
13940000000 -27.550459 175.91708 -47.045086 -50.962784 -48.385136 -44.178631 -16.858534 -17.383623
13960000000 -29.766132 155.10939 -46.798462 -83.063217 -47.861614 -79.341354 -15.365577 -28.210714
13980000000 -34.893093 138.21606 -46.663174 -118.16543 -48.642262 -110.07358 -15.057968 -38.257713
14000000000 -33.398003 146.52931 -46.431458 -150.06955 -47.356892 -139.46172 -14.90226 -50.463764
14020000000 -30.331209 131.2849 -46.831516 175.02005 -47.629009 -176.98476 -14.244248 -60.757908
14040000000 -29.223034 114.05412 -45.976761 149.7224 -48.033241 158.68152 -13.16604 -68.087898
14060000000 -30.232746 97.485878 -45.422634 114.27608 -48.197601 128.14981 -14.051532 -76.500938
14080000000 -32.101608 88.459068 -44.445652 84.283241 -46.377869 102.94723 -12.485846 -84.674507
14100000000 -30.271172 77.685371 -43.904076 47.433929 -45.563595 68.449844 -12.168015 -95.705086
14120000000 -27.767651 65.939873 -43.113773 16.379299 -44.237591 37.524555 -12.034328 -104.15243
14140000000 -27.535372 45.776699 -42.401844 -21.592358 -43.2547 5.1720896 -11.379841 -113.81145
14160000000 -28.865915 38.619411 -41.926498 -57.554684 -42.246365 -29.076519 -11.309636 -120.53017
14180000000 -29.034306 52.34026 -41.262707 -84.707428 -40.512749 -63.758259 -11.27613 -128.66866
14200000000 -26.067427 39.85231 -40.254574 -123.46246 -39.096867 -102.82265 -10.392095 -137.67117
14220000000 -25.276443 23.195141 -39.404434 -159.64546 -37.9193 -142.53758 -10.593829 -146.41248
14240000000 -26.059584 10.507036 -39.0033 165.01685 -37.293922 177.73972 -10.602947 -155.61424
14260000000 -27.178267 8.8155031 -37.974407 126.88364 -36.535351 138.33908 -10.03943 -162.43379
14280000000 -26.834349 22.896687 -37.695042 88.63652 -36.3652 99.209023 -10.496819 -167.02875
14300000000 -24.952339 12.469585 -36.954994 50.136391 -35.558376 59.501583 -9.9540558 -177.88748
14320000000 -24.198099 -0.35808149 -36.18359 -1.4279824 -34.908417 19.754622 -10.046936 172.75705
14340000000 -25.458197 -12.442257 -36.113796 -40.829948 -34.829388 -19.583456 -10.477958 164.71217
14360000000 -26.444637 -4.0477519 -35.699417 -78.309074 -34.66597 -59.082298 -10.37052 156.80988
14380000000 -25.830013 -0.17668363 -35.51651 -116.57886 -34.38409 -96.582291 -10.360047 152.50731
14400000000 -25.036051 -1.491307 -35.41634 -153.96669 -34.187157 -135.29456 -10.628165 144.96767
14420000000 -24.471285 -12.168769 -35.04007 168.42781 -34.208881 -173.70082 -11.544714 137.49751
14440000000 -25.064577 -15.211836 -34.890854 129.30275 -33.968822 147.71471 -10.907967 126.96133
14460000000 -25.625198 -13.152421 -34.97245 91.400688 -33.767551 110.44405 -11.502402 120.01121
14480000000 -25.254822 -10.676121 -35.106998 54.701519 -33.731014 71.155258 -11.691845 113.55814
14500000000 -24.928291 -6.3303919 -34.990623 17.197226 -33.704418 34.340965 -12.135509 108.60245
14520000000 -23.744543 -9.4861069 -34.824978 -20.844242 -33.476704 -3.3522236 -12.734826 102.09286
14540000000 -23.494921 -14.946196 -35.137394 -57.72654 -33.684139 -41.391754 -13.384254 90.059982
14560000000 -23.900742 -17.249594 -35.207085 -93.414177 -33.551865 -80.497383 -12.810697 84.261673
14580000000 -23.936483 -15.591244 -34.972916 -129.416 -33.336601 -116.93266 -13.462565 76.210564
14600000000 -23.349794 -9.411355 -34.881878 -168.18945 -33.464481 -157.38898 -14.118439 70.165703
14620000000 -22.397087 -10.3365 -34.990799 156.15945 -33.568699 166.11662 -14.179417 63.866585
14640000000 -21.148888 -18.106716 -35.103199 118.02067 -33.603275 129.15582 -15.591269 53.278687
14660000000 -21.528366 -24.532175 -35.089211 81.677658 -33.649014 90.304237 -14.514126 47.173725
14680000000 -21.61875 -26.240894 -35.043144 45.553936 -33.80706 53.54903 -15.276671 37.611168
14700000000 -21.322718 -24.123299 -34.957935 7.7356753 -33.909569 15.339014 -16.229033 28.123596
14720000000 -20.682425 -22.993752 -34.853962 -29.568384 -33.839169 -21.074656 -16.218807 22.52047
14740000000 -20.009182 -28.956949 -34.945522 -67.006058 -34.136223 -58.631664 -17.052834 13.992648
14760000000 -19.551867 -36.216145 -34.941879 -104.37514 -34.020641 -95.64225 -17.554766 -7.8997126
14780000000 -19.79524 -42.1987 -35.138802 -142.36044 -34.113106 -133.41072 -17.221046 -4.1187892
14800000000 -19.911182 -43.0723 -35.249374 -179.22879 -34.25555 -170.274 -17.759798 -22.622971
14820000000 -19.972504 -43.96764 -35.140095 144.23381 -34.13747 152.03116 -18.32395 -29.01223
14840000000 -19.647192 -46.15657 -35.30648 105.59571 -34.3923 113.68599 -18.499325 -34.953659
14860000000 -19.233559 -51.104431 -35.322445 67.299408 -34.602592 76.020493 -19.31321 -51.289043
14880000000 -19.028498 -58.167599 -35.562901 30.053232 -34.615585 39.644787 -17.798672 -71.126877
14900000000 -19.465364 -64.326981 -35.664955 -8.0982208 -34.582962 0.79716241 -18.534946 -79.429596
14920000000 -20.055067 -66.250793 -35.822575 -46.679604 -34.655315 -37.54171 -19.288628 -107.62806
14940000000 -20.641851 -66.598007 -36.204891 -84.942825 -34.984177 -76.611465 -20.314762 -101.7144
14960000000 -20.078068 -66.119881 -36.519833 -122.93319 -35.253292 -113.97834 -20.844744 -109.49348
14980000000 -19.819071 -72.239059 -36.825214 -159.9749 -35.572372 -151.17047 -20.261526 -126.95969
15000000000 -20.281555 -81.296829 -36.980736 162.69319 -35.444439 170.53836 -19.408634 -137.40178
15020000000 -21.490681 -83.204414 -37.30616 123.23742 -35.674732 130.83948 -20.0462 -139.692
15040000000 -22.620874 -81.692574 -37.858276 85.624184 -36.092224 91.622292 -17.700991 177.89555
15060000000 -22.463621 -76.351944 -38.163567 48.071365 -36.228832 54.09182 -21.612196 174.45744
15080000000 -21.877392 -80.539406 -38.542465 11.134901 -36.581043 15.295067 -22.538532 163.23018
15100000000 -22.200212 -88.753815 -38.756111 -26.164709 -37.046875 -23.903011 -22.625446 153.52539
15120000000 -23.631807 -91.691216 -39.348286 -64.71505 -37.651485 -63.060493 -22.290968 139.31883
15140000000 -24.44487 -81.847267 -39.473621 -101.49928 -37.495121 -100.43248 -27.780636 113.78339
15160000000 -24.075993 -76.653389 -40.063572 -142.50597 -37.882786 -142.20587 -19.375509 105.19563
15180000000 -22.989782 -77.344711 -41.075233 -179.00116 -38.711964 178.85756 -22.412987 73.138863
15200000000 -22.986277 -82.309845 -41.310844 148.05702 -39.039547 140.13095 -22.904041 57.116066
15220000000 -24.10644 -85.482849 -41.319355 108.85778 -39.55629 98.700996 -21.464832 51.534351
15240000000 -24.494106 -77.747864 -41.775265 70.772812 -40.61998 58.96423 -22.215935 31.68272
15260000000 -23.358086 -73.659126 -42.403656 31.412573 -40.514462 19.681284 -19.145039 -5.614871
15280000000 -22.545309 -82.173134 -42.487652 -5.2617097 -41.492424 -24.831974 -19.200148 17.696177
15300000000 -22.287546 -89.05352 -42.920887 -45.109287 -42.609154 -62.792469 -18.779917 -9.9377937
15320000000 -23.084667 -96.324936 -43.387604 -83.956741 -43.224907 -104.16875 -18.544903 -13.747979
15340000000 -23.6478 -95.034416 -43.404575 -122.70947 -43.868038 -145.29582 -17.974798 -18.283813
15360000000 -23.081465 -90.808853 -44.174515 -165.50098 -45.047516 170.61411 -17.327826 -37.052639
15380000000 -22.362593 -96.784584 -44.355923 154.46532 -45.296013 131.58266 -14.924778 -46.583542
15400000000 -22.208445 -109.60834 -44.842468 110.53436 -47.475975 85.717697 -15.354546 -51.905632
15420000000 -23.244356 -120.33815 -46.283463 67.444336 -48.038525 48.499573 -15.439055 -65.703438
15440000000 -24.514284 -122.82616 -46.367401 33.852219 -47.481026 13.290847 -15.437124 -62.295513
15460000000 -24.59096 -117.90836 -46.641113 -12.702825 -48.310436 -39.552414 -15.072831 -68.607399
15480000000 -24.194866 -122.0462 -47.062553 -52.36945 -48.931442 -67.36216 -13.94944 -80.763474
15500000000 -24.25049 -137.91339 -47.709969 -95.036858 -48.190926 -114.08943 -13.278235 -85.709694
15520000000 -25.586174 -152.58481 -47.561714 -135.05644 -47.952099 -158.55701 -12.660952 -85.215782
15540000000 -26.955812 -164.73589 -48.543297 -174.37637 -49.161968 165.12782 -13.799446 -108.23182
15560000000 -28.426176 -161.25488 -48.320366 144.84244 -47.312355 124.85271 -13.414685 -103.86681
15580000000 -28.279716 -163.43753 -47.755394 100.29459 -45.998352 78.380325 -13.015162 -111.54121
15600000000 -28.550852 178.0907 -48.992489 57.065388 -46.651897 33.413422 -12.173173 -118.28333
15620000000 -29.636078 155.41072 -47.880802 27.504795 -46.090855 -6.6277966 -11.892322 -124.30515
15640000000 -30.439922 132.61819 -46.895485 -17.660063 -44.691654 -45.648506 -12.391754 -121.3188
15660000000 -29.229633 125.33221 -46.628372 -60.465309 -45.063011 -89.061844 -12.448715 -143.32675
15680000000 -29.272442 113.33315 -46.251534 -99.987366 -44.715458 -128.72542 -12.463571 -145.36197
15700000000 -29.231045 96.309586 -45.973946 -133.53473 -44.301914 -166.01727 -12.133212 -152.40688
15720000000 -29.419655 84.164223 -44.900677 -175.20059 -43.757214 152.65654 -12.014815 -162.77658
15740000000 -28.28196 73.402077 -43.766983 146.26587 -42.930428 114.26997 -12.202635 -165.59138
15760000000 -25.435108 71.241905 -43.152225 100.68824 -42.598202 73.438942 -10.073015 165.06226
15780000000 -24.206276 63.012341 -42.717697 60.383881 -42.416016 34.423737 -12.637889 173.91943
15800000000 -24.271315 48.380611 -42.598789 21.863434 -42.406563 -4.7912474 -13.336044 167.65353
15820000000 -25.37748 45.40448 -41.829231 -17.188263 -41.785328 -42.84515 -13.28492 156.14528
15840000000 -24.757408 47.082806 -41.154629 -58.75708 -41.287914 -82.621056 -13.381574 145.66978
15860000000 -22.47612 45.168793 -41.084263 -100.44164 -41.308651 -120.93772 -14.868937 140.30432
15880000000 -21.327999 39.405201 -40.702766 -142.71835 -40.987061 -161.59689 -12.076917 116.15582
15900000000 -21.24509 31.827848 -40.770103 178.60289 -40.81691 161.53961 -16.484243 114.24206
15920000000 -22.080063 30.208668 -40.59922 138.20882 -40.799725 120.26962 -17.33416 105.20974
15940000000 -21.793144 32.880547 -40.641472 99.731911 -40.701649 82.667046 -16.580557 89.909172
15960000000 -20.577599 33.982742 -40.599689 60.193974 -40.611851 42.912407 -17.35141 75.493286
15980000000 -19.346024 30.863758 -40.492146 20.840042 -40.380417 4.409462 -19.185669 49.356632
16000000000 -18.827597 27.142956 -40.834167 -17.389215 -40.554607 -34.530315 -18.614689 32.91687
16020000000 -18.810799 23.158186 -40.356903 -54.25563 -40.301109 -73.880791 -23.385462 13.826243
16040000000 -18.718969 22.623486 -40.543255 -95.733063 -41.483185 -113.68127 -20.176306 7.7490659
16060000000 -18.394314 24.396183 -40.670132 -133.40775 -40.940445 -152.37956 -17.405149 -0.24309698
16080000000 -17.069256 25.013424 -40.602478 -169.96284 -41.046993 168.59386 -16.97464 -18.545889
16100000000 -15.965626 22.554504 -40.362091 150.99544 -41.287186 129.52621 -15.523682 -34.43013
16120000000 -15.492002 15.866579 -40.79557 109.04886 -41.910416 88.233261 -14.388122 -42.14043
16140000000 -15.817066 13.423333 -41.024002 70.894882 -43.924171 49.731831 -17.302021 -75.624733
16160000000 -15.763184 15.112702 -41.042397 36.254314 -43.81673 20.869553 -15.415544 -57.548737
16180000000 -14.612573 14.865943 -41.073605 -4.7057705 -43.666199 -20.966774 -13.820635 -64.090553
16200000000 -13.445868 11.870443 -41.692448 -44.857178 -44.57338 -55.775013 -12.760521 -73.75679
16220000000 -12.91269 6.075851 -42.227631 -80.534546 -45.000557 -90.559204 -12.347082 -82.236694
16240000000 -12.852794 2.6278102 -42.439011 -118.13303 -44.943947 -126.65781 -11.346057 -81.577652
16260000000 -12.943929 2.4175038 -43.356487 -156.26767 -47.020058 -159.15773 -13.399836 -98.583939
16280000000 -12.47977 1.3389039 -43.067741 167.75427 -45.937698 169.68237 -11.696105 -95.159088
16300000000 -11.594965 -1.1155688 -43.769882 129.89316 -46.026234 130.3898 -11.107877 -102.46909
16320000000 -10.998631 -4.7619996 -44.353905 93.207939 -46.684017 94.76194 -10.966777 -113.11694
16340000000 -10.602781 -9.013546 -44.657589 60.823246 -46.261578 63.688255 -10.353895 -116.00256
16360000000 -10.556307 -11.659137 -44.601498 24.019886 -46.527012 25.742672 -10.149219 -114.98112
16380000000 -10.650996 -12.277159 -45.364979 -15.484344 -47.697815 -3.4359438 -10.983896 -126.75964
16400000000 -10.153636 -13.079676 -45.646725 -50.484596 -46.79929 -42.374439 -10.029735 -128.13266
16420000000 -9.4725065 -16.00918 -46.476898 -85.118744 -47.160973 -78.327095 -9.6859045 -135.15358
16440000000 -8.9791374 -20.827902 -46.380798 -121.0379 -47.165234 -116.05337 -10.013604 -143.98473
16460000000 -8.9623775 -24.359886 -46.246811 -158.53185 -46.767231 -149.36336 -9.5993824 -144.34799
16480000000 -9.037632 -24.701612 -46.921329 165.1779 -46.697887 170.46968 -9.7561102 -146.69905
16500000000 -8.7331762 -24.71282 -47.048405 130.12024 -46.313538 131.79585 -9.562602 -153.25662
16520000000 -8.0982428 -27.411917 -47.385445 91.413872 -47.013374 92.388687 -9.0776234 -156.63074
16540000000 -7.6201029 -31.296282 -47.349632 50.415268 -47.053352 51.212921 -9.1792536 -165.51161
16560000000 -7.5173745 -34.366219 -48.700123 9.388608 -47.528561 12.654235 -9.3295393 -171.62047
16580000000 -7.4079747 -34.912632 -49.920727 -24.192028 -47.628277 -28.127661 -9.2880278 -173.4838
16600000000 -7.1745543 -35.729408 -50.220062 -62.696514 -48.130249 -71.078369 -9.5894909 -179.07742
16620000000 -6.7824349 -38.505787 -51.277203 -96.53392 -49.263153 -112.77689 -9.6980724 173.66901
16640000000 -6.3136625 -40.692539 -52.647491 -130.98256 -50.295441 -146.94951 -8.5459595 174.46994
16660000000 -5.932673 -43.391445 -52.895737 -169.41954 -51.665211 160.88124 -9.0374851 161.76563
16680000000 -5.677484 -45.699604 -54.916203 161.11665 -52.967121 118.27493 -9.3281279 156.31624
16700000000 -5.4201899 -47.332047 -54.27425 128.12082 -54.462955 80.268661 -9.9845381 151.42316
16720000000 -5.0952868 -49.031193 -55.478729 84.265526 -56.602062 33.549889 -9.9536591 145.7636
16740000000 -4.7578301 -53.033966 -55.873592 58.011475 -60.113297 1.8501422 -8.789485 153.89313
16760000000 -4.2600293 -55.380779 -56.840508 17.1113 -61.360802 -52.845356 -9.9836254 136.97757
16780000000 -3.9380255 -58.723652 -58.28973 -12.08624 -69.537285 -112.44614 -10.359311 122.64456
16800000000 -3.6896639 -61.21529 -60.596703 -43.72506 -76.805443 -175.50288 -11.171244 114.33482
16820000000 -3.3763599 -63.465122 -59.607185 -59.333778 -70.370865 76.976517 -11.519645 110.60595
16840000000 -3.0099499 -66.651398 -60.15353 -116.58904 -69.946533 -21.002008 -12.174525 99.987366
16860000000 -2.7870407 -71.555206 -62.891506 -144.44637 -67.123238 -21.474264 -12.942472 82.6203
16880000000 -2.4378414 -74.2061 -64.023003 172.77295 -65.481735 -29.799788 -13.058173 83.935966
16900000000 -2.1536355 -77.266556 -67.020012 142.20039 -60.883614 -95.84935 -13.391432 69.303375
16920000000 -1.943733 -80.381256 -71.615952 98.396866 -59.939377 -135.04391 -14.788467 61.17358
16940000000 -1.680037 -83.775505 -70.111504 91.080795 -60.038002 -170.2462 -15.308756 55.82579
16960000000 -1.4671581 -87.515144 -72.815498 176.09972 -58.587242 141.81622 -15.689693 38.592041
16980000000 -1.2551787 -91.08725 -66.91526 109.96329 -57.875851 105.67963 -14.900434 24.482094
