!Keysight Technologies,P9374A,MY57211810,A.19.30.04
!Date: Friday, May 09, 2025 09:21:21
!Correction: S11(Cdelta 2-Port  ) 
!S21(Cdelta 2-Port  ) 
!S12(Cdelta 2-Port  ) 
!S22(Cdelta 2-Port  ) 
!S2P File: Measurements: S11, S21, S12, S22:
# Hz S  dB   R 50
13000000000 -20.520407 -87.114738 -47.018185 39.437847 -46.799145 53.945202 -18.507343 -37.043217
13020000000 -20.950285 -83.159203 -48.02895 7.4119983 -48.514614 26.001497 -17.628899 -40.574123
13040000000 -20.924608 -75.960205 -49.788254 -25.641409 -49.356571 5.4468112 -16.492481 -49.920876
13060000000 -20.03915 -81.938774 -50.891911 -55.437412 -49.062084 -25.534689 -14.408344 -48.071056
13080000000 -20.721289 -86.640152 -52.211704 -83.796707 -49.957821 -54.088551 -13.754709 -56.812977
13100000000 -21.036451 -87.725967 -54.916653 -111.78955 -50.769939 -84.117783 -12.752392 -60.843395
13120000000 -20.637232 -80.985283 -57.393665 -124.53924 -51.075809 -108.3766 -12.014065 -63.870506
13140000000 -20.149237 -82.641701 -56.965805 -123.04964 -50.574429 -131.70638 -10.929189 -69.046799
13160000000 -20.173771 -83.77681 -51.983116 -148.37068 -48.654587 -159.94189 -10.360226 -77.211502
13180000000 -20.092669 -88.598053 -52.93729 174.63321 -48.706638 171.08141 -9.2611809 -80.025536
13200000000 -20.426605 -92.334953 -50.433247 156.85831 -47.449753 143.66069 -8.9206705 -88.333405
13220000000 -20.615501 -94.95565 -48.065647 120.48629 -47.257336 108.41328 -8.5571575 -98.747719
13240000000 -20.454189 -94.773613 -47.25703 88.913239 -45.806999 88.039886 -8.1647568 -96.639549
13260000000 -20.348757 -95.610924 -46.606037 52.786694 -43.838783 49.7962 -7.3565631 -108.86388
13280000000 -19.976572 -98.056015 -45.702877 21.525627 -42.746788 13.565448 -7.1285305 -115.8763
13300000000 -20.339695 -107.06892 -44.191383 -12.856738 -41.863503 -23.734505 -6.9476399 -123.18039
13320000000 -21.090088 -111.92183 -43.007225 -48.186691 -40.979053 -62.644588 -6.873548 -130.14238
13340000000 -21.879017 -112.93393 -42.812901 -87.083427 -41.975121 -103.29567 -7.9388251 -138.10638
13360000000 -21.860426 -108.39303 -41.170116 -124.11948 -40.423904 -136.38455 -6.8775506 -143.2123
13380000000 -21.363955 -110.8282 -40.528797 -163.06567 -40.060619 -175.67026 -7.125042 -151.80585
13400000000 -21.333693 -118.35292 -39.757683 158.91795 -39.819767 146.86342 -7.1612773 -158.0406
13420000000 -22.412708 -130.86452 -39.557938 117.91181 -39.790897 110.99553 -7.5617361 -163.89902
13440000000 -24.000196 -131.13045 -39.426102 81.697533 -39.526749 76.377563 -7.9658022 -170.59447
13460000000 -24.97224 -125.31303 -39.653702 46.632526 -40.355118 42.252113 -9.1454868 -171.74568
13480000000 -24.344673 -117.28004 -39.685375 6.7884936 -39.776733 2.5646186 -8.7104044 178.06601
13500000000 -23.611004 -124.86723 -39.342213 -26.972584 -39.344948 -29.101452 -8.9551058 171.12007
13520000000 -24.366314 -139.62218 -38.835335 -63.906898 -38.531826 -66.285385 -9.5284891 165.52794
13540000000 -27.511564 -152.30339 -38.794598 -102.128 -38.468697 -103.17702 -9.9596529 162.05032
13560000000 -30.711872 -135.00157 -39.151379 -137.72803 -38.374874 -138.00435 -10.641371 153.04536
13580000000 -28.376257 -109.29551 -38.621635 -169.99086 -38.085789 -172.70891 -11.294975 153.44452
13600000000 -25.77178 -122.97742 -38.641895 152.33122 -37.708851 147.55867 -11.587904 145.06187
13620000000 -27.271093 -142.06898 -38.511936 116.10332 -37.474808 110.37129 -12.293271 138.77719
13640000000 -31.754662 -154.17242 -38.230682 79.865639 -37.244328 73.381859 -12.645767 134.07378
13660000000 -33.247154 -103.86423 -38.280968 43.398319 -37.346371 35.953686 -13.197036 133.9693
13680000000 -28.431786 -107.39444 -38.579998 8.6244297 -37.946041 1.8294939 -14.352487 124.81884
13700000000 -27.708834 -120.18972 -38.310261 -27.356302 -37.556015 -37.555359 -14.46044 120.39906
13720000000 -29.071234 -131.57872 -37.982948 -62.663845 -37.612152 -77.790176 -15.332581 109.50411
13740000000 -31.54052 -127.92136 -37.99107 -97.572487 -38.136131 -110.64021 -15.925796 102.34532
13760000000 -30.287045 -120.1743 -37.545937 -132.92882 -38.089455 -145.27768 -16.486084 98.085335
13780000000 -29.087425 -127.98132 -37.784206 -170.81592 -38.127434 179.29604 -17.987457 93.63932
13800000000 -28.612263 -135.70122 -37.636742 154.86224 -38.273178 144.11581 -18.432379 83.606003
13820000000 -28.531889 -129.49654 -37.543396 121.0505 -38.319832 110.78382 -19.245905 73.879135
13840000000 -28.143986 -135.87794 -36.990402 85.537453 -38.209778 73.795509 -20.777555 54.418995
13860000000 -28.572155 -151.09703 -36.734299 47.305386 -37.797718 38.997719 -20.698021 45.602215
13880000000 -31.609715 -165.93156 -36.694756 11.936279 -37.523518 4.6428137 -22.021482 34.94722
13900000000 -32.052883 -171.22292 -36.242912 -25.992649 -36.885735 -34.545467 -22.085426 16.917376
13920000000 -30.497051 -166.87209 -36.308411 -64.01506 -37.023052 -72.873512 -21.539072 -1.5481346
13940000000 -28.821548 -177.16255 -35.931908 -100.78373 -37.317413 -112.73572 -21.466675 -8.7729578
13960000000 -28.901848 169.73907 -35.891052 -137.33492 -37.258415 -149.10052 -19.024149 -26.733202
13980000000 -31.363832 146.47583 -35.786911 -176.7462 -37.411236 172.65884 -18.358267 -39.509857
14000000000 -31.150579 124.26081 -35.952972 146.75685 -37.808552 134.70979 -17.858891 -54.537785
14020000000 -32.531338 111.30292 -35.622471 107.66274 -37.925812 96.048798 -16.67333 -66.682449
14040000000 -32.169674 120.9014 -36.223808 68.942497 -38.634132 59.433498 -15.076749 -74.244789
14060000000 -30.849129 117.07798 -36.538944 30.849983 -40.189503 23.807423 -15.882241 -82.666512
14080000000 -29.091217 100.5535 -36.726822 -5.6031289 -40.15839 -5.9880419 -14.031972 -90.733765
14100000000 -27.805754 67.170723 -36.820625 -44.353497 -40.361942 -43.420105 -13.493941 -101.38578
14120000000 -28.424332 51.219303 -37.348267 -81.777542 -41.251297 -77.802101 -13.178877 -108.83041
14140000000 -29.745008 42.965679 -37.960976 -118.75954 -41.746113 -106.46058 -12.301208 -117.51636
14160000000 -29.341749 53.087883 -38.595078 -158.40834 -41.825409 -137.17271 -11.956935 -122.93472
14180000000 -27.3617 53.397869 -39.331207 169.34619 -41.005013 -172.83829 -11.667206 -130.79175
14200000000 -25.768923 33.928238 -39.484631 135.41621 -40.648628 149.60532 -10.602868 -139.2384
14220000000 -25.852863 19.916382 -39.861668 95.087914 -40.783611 110.51486 -10.684023 -148.23595
14240000000 -26.895164 13.61758 -41.401718 59.330391 -41.727917 70.284111 -10.564139 -157.27068
14260000000 -26.70363 17.579645 -42.153919 30.118036 -42.618694 37.111279 -9.9414225 -163.7106
14280000000 -25.697037 14.856326 -43.151955 0.22074249 -44.264179 5.7244372 -10.420259 -168.03438
14300000000 -25.717134 7.0108452 -43.195442 -29.41188 -44.781631 -26.961628 -9.8171911 -178.18817
14320000000 -25.335226 1.7478174 -42.724155 -59.389854 -44.91671 -50.934273 -9.8808928 173.24503
14340000000 -25.560507 -2.9596219 -43.327541 -97.235367 -45.038895 -82.648972 -10.308615 165.90784
14360000000 -25.069542 -2.8001838 -43.78162 -124.37339 -45.627441 -115.62437 -10.130407 158.3795
14380000000 -25.076416 -8.0716829 -42.910244 -152.28102 -45.205086 -141.18025 -10.088484 154.6226
14400000000 -26.197634 -9.439187 -42.257965 170.31664 -44.888966 -173.20198 -10.341254 147.45755
14420000000 -25.762117 -5.9147058 -42.712574 135.46118 -45.430038 158.89937 -11.366323 140.49884
14440000000 -24.59024 -4.4946251 -42.447769 102.03924 -44.33358 131.5282 -10.748823 130.63193
14460000000 -24.170351 -14.518983 -42.467007 69.325523 -42.814636 99.926949 -11.434324 124.18322
14480000000 -25.119146 -15.981265 -41.994511 34.89064 -41.830578 62.012711 -11.675184 118.8129
14500000000 -25.496378 -11.022524 -41.868889 0.60847789 -41.429321 24.113098 -12.085984 114.52336
14520000000 -24.76148 -5.9794779 -41.536629 -36.635189 -41.366009 -14.147281 -12.710903 109.12121
14540000000 -23.347303 -9.0052624 -42.007027 -73.603912 -41.866417 -47.060005 -13.591905 97.997124
14560000000 -23.397068 -15.9225 -42.071095 -105.86808 -41.210316 -81.935364 -13.0672 91.457092
14580000000 -23.383511 -16.759699 -41.212105 -144.21886 -40.341461 -119.97598 -13.904684 84.5867
14600000000 -23.459211 -13.485879 -42.315746 175.35077 -40.844059 -158.6626 -14.608364 80.081322
14620000000 -22.706367 -12.244494 -42.725388 141.8127 -40.905453 167.50058 -14.852403 74.449532
14640000000 -21.813324 -16.627583 -43.224777 107.14156 -40.680279 132.30023 -16.593056 66.256119
14660000000 -21.58449 -19.049185 -43.537495 73.965767 -41.174297 92.262756 -15.395824 58.969212
14680000000 -20.902065 -23.306192 -44.518036 39.219681 -41.493347 61.560265 -16.446957 49.902721
14700000000 -20.69338 -27.012531 -44.485111 8.588295 -41.37096 25.653458 -17.70945 41.370274
14720000000 -20.828737 -28.715414 -45.384056 -23.601103 -41.56015 -5.337481 -17.674601 35.684406
14740000000 -21.159075 -29.818485 -45.586052 -49.992542 -40.859333 -41.45089 -18.984938 28.057028
14760000000 -20.055162 -29.757786 -45.454609 -84.330055 -41.467369 -76.747772 -20.585436 1.875694
14780000000 -19.234312 -36.538452 -45.333218 -113.11716 -41.205078 -108.84521 -19.619291 9.3716536
14800000000 -18.908966 -44.351757 -44.720943 -145.58914 -40.995586 -147.22496 -20.699398 -12.589093
14820000000 -19.78134 -51.085392 -44.82515 177.64465 -41.587452 177.16753 -21.469879 -18.696569
14840000000 -20.653875 -49.563549 -45.202442 147.35867 -42.175003 146.30215 -21.514126 -24.942989
14860000000 -19.970884 -47.008003 -45.078239 120.57346 -41.737682 117.47901 -22.716013 -45.872459
14880000000 -18.892569 -51.48283 -44.219795 91.251198 -41.055031 81.771767 -20.416126 -73.260811
14900000000 -18.536634 -63.46331 -43.266281 55.893559 -41.008751 46.717716 -21.087175 -82.827332
14920000000 -19.714022 -70.172256 -42.736305 20.93681 -40.466835 10.832122 -21.23398 -117.50784
14940000000 -20.735353 -71.169792 -42.728306 -16.74626 -40.79755 -25.158331 -22.614239 -108.04806
14960000000 -21.181616 -67.471474 -42.76627 -46.289944 -40.857647 -58.913326 -22.776438 -117.44405
14980000000 -20.151796 -66.900635 -42.184799 -77.590454 -40.861889 -91.176018 -21.210899 -135.79633
15000000000 -19.906935 -76.505333 -41.134941 -113.80273 -40.299721 -123.98499 -19.810112 -145.18881
15020000000 -20.620882 -83.074936 -40.458221 -151.6322 -39.461472 -158.67386 -20.227221 -147.69965
15040000000 -22.124136 -86.53125 -40.545273 169.03716 -39.136711 163.10368 -17.130013 173.13428
15060000000 -23.294561 -82.994522 -40.394325 135.54004 -38.950478 125.82558 -20.657692 168.81201
15080000000 -22.898378 -78.794502 -40.099709 99.285896 -38.919617 87.347176 -21.229433 158.34341
15100000000 -22.671963 -80.860359 -39.919296 62.972725 -39.105499 52.559772 -21.066177 150.80434
15120000000 -22.416201 -84.861595 -39.812023 25.895977 -38.832077 14.285625 -20.639666 140.48178
15140000000 -23.135645 -87.335823 -39.600235 -10.127861 -39.022823 -25.042353 -25.086866 123.21535
15160000000 -24.362514 -87.905617 -39.60215 -47.471951 -39.577087 -61.271721 -18.31003 110.97676
15180000000 -25.107889 -79.314804 -39.635643 -85.304832 -40.10548 -97.248482 -21.61272 85.667404
15200000000 -23.754522 -69.844284 -40.039825 -119.54092 -40.831005 -129.90248 -22.630505 74.093506
15220000000 -22.610559 -76.102142 -40.101933 -153.09506 -40.751137 -159.67609 -21.360332 67.63768
15240000000 -22.582333 -84.6147 -39.822941 168.19841 -40.680233 162.98421 -22.916164 51.389557
15260000000 -23.659262 -88.18222 -40.721218 133.01979 -40.696503 130.51421 -21.045822 4.2749419
15280000000 -24.832857 -84.486168 -40.676987 102.96605 -40.386765 96.958664 -20.12854 32.019424
15300000000 -23.069958 -77.282768 -40.098866 68.9888 -39.868294 57.013954 -20.528645 0.94564432
15320000000 -21.984909 -86.850357 -40.190235 31.596828 -40.807072 18.355923 -20.261974 -2.9434805
15340000000 -21.913395 -97.493462 -40.469021 -3.5625854 -41.664371 -18.507092 -19.854071 -8.454217
15360000000 -23.015205 -102.45013 -40.490631 -36.966255 -42.6544 -47.232166 -19.378944 -30.661402
15380000000 -23.791605 -102.0274 -40.444775 -69.296715 -42.401436 -77.42041 -16.520622 -43.882526
15400000000 -23.707411 -104.09351 -39.983234 -104.21034 -42.733921 -108.3856 -17.182081 -49.373592
15420000000 -23.164557 -109.68756 -40.2761 -141.12553 -42.51754 -135.94083 -17.326023 -64.459206
15440000000 -23.055103 -118.95037 -40.274857 -173.99237 -41.622356 -165.24733 -17.212574 -59.582466
15460000000 -23.638176 -125.57832 -39.996735 153.00659 -40.367554 155.87712 -16.850065 -66.258797
15480000000 -24.606071 -130.82732 -39.47781 116.53553 -40.025539 116.57704 -15.450262 -80.496185
15500000000 -25.702986 -141.0862 -39.664238 81.277794 -40.065063 77.838509 -14.569963 -85.775848
15520000000 -26.646435 -144.06645 -39.447235 47.799706 -40.237747 40.773895 -13.844558 -84.621223
15540000000 -26.489702 -154.63071 -39.059528 10.79208 -40.923473 1.884823 -14.96007 -110.11746
15560000000 -26.7148 -166.94504 -39.337772 -25.295031 -39.831398 -28.557655 -14.599651 -105.45239
15580000000 -28.420816 -172.37444 -39.109123 -58.227547 -39.867256 -61.77486 -14.077233 -113.33279
15600000000 -29.677187 171.02284 -38.599567 -94.627785 -39.42075 -98.55117 -13.093222 -120.05414
15620000000 -30.743301 160.2213 -38.438942 -130.58136 -39.569218 -132.6438 -12.672324 -125.99477
15640000000 -30.154659 139.06256 -38.083958 -168.28479 -39.150696 -168.07141 -13.176552 -122.36254
15660000000 -28.899851 120.36417 -38.214745 152.87575 -39.782246 156.90344 -13.029156 -145.62144
15680000000 -30.923088 111.04842 -38.828644 114.93137 -39.852936 121.02639 -13.02099 -147.65965
15700000000 -29.686371 106.28502 -38.507027 82.688873 -39.145027 86.538124 -12.593847 -155.04559
15720000000 -28.512157 91.939644 -38.254204 45.502941 -39.126022 48.615059 -12.355675 -165.20134
15740000000 -26.335403 72.684456 -38.49263 5.328938 -39.07135 11.865446 -12.47119 -167.81677
15760000000 -24.995388 60.994232 -38.853718 -30.043171 -39.06797 -22.659836 -10.084309 162.944
15780000000 -25.538193 53.966297 -39.086327 -65.745354 -39.296871 -57.141266 -12.65366 171.36195
15800000000 -26.215002 55.543087 -39.407154 -101.28478 -39.1735 -94.188026 -13.303131 164.95244
15820000000 -24.991982 59.433834 -39.618446 -138.6869 -39.055229 -131.18907 -13.096289 153.43317
15840000000 -22.835646 49.664055 -40.156231 -171.2757 -39.720196 -169.47687 -13.09246 143.33533
15860000000 -21.745546 37.870373 -40.410778 154.01076 -39.649055 156.95491 -14.540503 138.46703
15880000000 -21.662708 31.747492 -40.426136 121.62648 -39.793346 120.16993 -11.754584 115.52843
15900000000 -22.834642 30.861124 -40.290627 85.109612 -39.96357 84.212753 -15.93123 113.44164
15920000000 -22.403566 40.025478 -40.595325 46.416904 -40.791504 43.493946 -16.721054 104.8654
15940000000 -20.832497 37.372238 -41.429741 17.889431 -41.497414 14.64393 -15.981856 90.764542
15960000000 -19.826508 30.872957 -40.920147 -17.2798 -41.767052 -21.880501 -16.679314 77.795494
15980000000 -19.301109 26.326818 -41.308243 -51.907394 -41.908707 -51.896683 -18.570635 54.668949
16000000000 -19.428438 24.376066 -41.232132 -81.895081 -42.015591 -84.258598 -18.195763 38.768986
16020000000 -19.38677 24.961086 -40.639618 -119.96561 -42.049225 -120.14856 -23.017242 25.758713
16040000000 -18.799976 26.768345 -41.437485 -154.4446 -43.566013 -150.85057 -20.039858 17.176086
16060000000 -17.785925 26.161663 -40.694695 176.20911 -42.132866 -176.35196 -17.366449 8.7475901
16080000000 -16.65493 23.166647 -40.200943 138.04686 -41.251804 146.49045 -17.231407 -9.5897169
16100000000 -15.976173 18.455164 -40.360115 102.37179 -40.833549 111.63148 -15.999668 -26.707102
16120000000 -15.97076 13.913176 -40.112309 67.824455 -39.992664 77.071381 -14.886744 -34.845718
16140000000 -16.368782 16.649864 -40.064404 30.137711 -40.846954 34.947506 -18.537348 -67.931801
16160000000 -15.347791 18.836355 -39.850876 -5.445004 -40.415329 4.731174 -16.139742 -49.303337
16180000000 -14.05213 14.887343 -39.755787 -43.720371 -39.575432 -36.692287 -14.396266 -55.670479
16200000000 -13.240061 8.2743692 -40.367847 -79.024773 -39.464329 -72.012131 -13.399071 -66.625809
16220000000 -13.313195 3.4739673 -40.349575 -112.79959 -39.294289 -110.1393 -12.975111 -75.47403
16240000000 -13.363212 4.3753772 -39.835522 -146.97121 -38.626877 -148.07001 -11.752223 -74.850723
16260000000 -12.800028 6.2680449 -39.928326 172.98488 -40.138367 172.63835 -14.026473 -92.062721
16280000000 -11.981555 1.6938158 -39.905609 137.09651 -39.565224 137.04924 -12.225913 -88.215042
16300000000 -11.405698 -3.523335 -40.225945 102.09541 -39.790371 97.227509 -11.517367 -96.01207
16320000000 -11.246383 -6.9244642 -39.945965 66.245819 -39.927723 60.144337 -11.398696 -107.04345
16340000000 -10.979175 -8.1475983 -39.711418 28.00403 -40.060501 23.151146 -10.742045 -110.39043
16360000000 -10.578224 -9.4637442 -40.111473 -10.161832 -40.720661 -13.996541 -10.361725 -109.38244
16380000000 -10.340385 -11.425223 -40.616817 -47.591511 -41.479179 -43.76804 -11.353999 -121.68771
16400000000 -9.9735594 -14.581272 -40.752796 -83.869011 -40.896141 -84.246986 -10.301414 -122.95279
16420000000 -9.5496874 -17.416494 -41.03783 -118.92157 -41.318619 -119.47127 -9.9929523 -130.52998
16440000000 -9.2333956 -21.12928 -41.32452 -155.20702 -41.527958 -156.17805 -10.335953 -139.83772
16460000000 -9.0854673 -22.848639 -41.211735 169.43481 -41.14077 167.94034 -9.8718843 -140.37318
16480000000 -8.8616219 -23.553625 -41.557728 135.29642 -41.384094 129.30212 -10.026258 -142.79066
16500000000 -8.5377159 -25.318817 -41.403965 97.28775 -41.551899 92.596565 -9.8293543 -149.66917
16520000000 -8.0822582 -28.596941 -41.795116 62.692421 -42.282372 55.972542 -9.2968712 -153.49812
16540000000 -7.7887583 -31.972256 -41.94173 26.155367 -42.555836 18.886301 -9.421278 -162.71498
16560000000 -7.6855845 -33.412785 -41.836956 -8.9430199 -42.582226 -17.093275 -9.5629349 -169.16116
16580000000 -7.3160601 -33.785988 -41.823364 -49.127819 -42.750931 -57.886482 -9.4568195 -170.98508
16600000000 -7.0105023 -35.783649 -42.236946 -85.97525 -43.757744 -96.154602 -9.7599688 -176.61189
16620000000 -6.7270608 -39.384415 -42.744694 -123.04066 -44.573601 -130.61491 -9.8948536 175.91907
16640000000 -6.3983588 -41.194641 -42.593311 -158.75191 -45.27121 -163.27 -8.7042265 176.20976
16660000000 -6.0642233 -43.257454 -43.19051 162.61259 -45.662796 162.18474 -9.199214 163.34061
16680000000 -5.699122 -44.710327 -43.735416 125.23309 -45.698322 128.68466 -9.5071688 157.83936
16700000000 -5.324307 -46.976158 -44.348705 88.121696 -46.659252 92.619843 -10.128175 152.73897
16720000000 -5.0067625 -49.414299 -45.271244 51.414291 -47.151154 61.765728 -10.09973 146.97505
16740000000 -4.7823434 -53.664066 -45.846817 23.038372 -47.77047 32.645531 -8.885128 154.93259
16760000000 -4.3546968 -55.470772 -44.870552 -18.810816 -46.835506 -2.9444072 -10.115999 138.05547
16780000000 -3.9878876 -58.191196 -46.284103 -54.504009 -47.334854 -37.752453 -10.458761 123.15878
16800000000 -3.6456904 -60.874191 -46.561024 -91.797195 -46.834137 -71.903503 -11.271255 115.03664
16820000000 -3.3342648 -63.489048 -48.222771 -128.88193 -47.077148 -108.35548 -11.634876 111.17646
16840000000 -2.9784768 -66.813644 -49.075726 -160.57024 -47.240505 -145.25397 -12.286658 100.49239
16860000000 -2.8030844 -71.894241 -49.79945 174.52124 -47.616283 -175.96774 -13.026484 83.19397
16880000000 -2.5002701 -74.208138 -50.294621 145.05618 -47.33395 141.97763 -13.122304 84.473366
16900000000 -2.1906617 -76.894165 -49.27536 113.66965 -47.447357 105.22086 -13.418503 69.695709
16920000000 -1.9037613 -80.050751 -48.908905 81.27858 -48.09782 68.432198 -14.765647 62.111759
16940000000 -1.6213238 -83.898834 -48.583382 50.453964 -48.752117 36.077808 -15.302014 57.158253
16960000000 -1.4716334 -87.872406 -47.700066 12.076706 -48.557373 -3.6892102 -15.691601 39.830093
16980000000 -1.3055232 -91.105896 -46.913345 -27.498224 -49.250977 -33.046829 -14.892964 26.047224
