!Keysight Technologies,P9374A,MY57211810,A.19.30.04
!Date: Friday, May 09, 2025 09:21:51
!Correction: S11(Cdelta 2-Port  ) 
!S21(Cdelta 2-Port  ) 
!S12(Cdelta 2-Port  ) 
!S22(Cdelta 2-Port  ) 
!S2P File: Measurements: S11, S21, S12, S22:
# Hz S  dB   R 50
13000000000 -20.167143 -78.434372 -44.270634 29.246197 -43.6036 80.08316 -18.24926 -14.078453
13020000000 -19.867783 -82.17881 -44.978878 -11.422129 -44.26133 40.44474 -17.471649 -20.742807
13040000000 -20.409771 -84.339325 -46.664524 -56.208809 -44.680717 6.418076 -16.491467 -32.970352
13060000000 -21.514233 -85.668587 -49.333904 -96.752075 -44.721489 -26.140156 -14.322925 -35.633907
13080000000 -21.18445 -78.662849 -51.096104 -131.52101 -44.215683 -60.938354 -13.784117 -45.540386
13100000000 -20.567896 -82.900757 -54.375069 -171.30029 -44.75465 -100.46912 -12.719739 -51.359314
13120000000 -19.986771 -82.745415 -61.969433 134.82751 -45.145432 -131.4449 -11.971361 -56.284077
13140000000 -20.174471 -86.022583 -70.526115 30.860905 -44.916664 -168.09035 -10.912722 -62.202316
13160000000 -20.489838 -85.307816 -57.007477 -89.270096 -45.394066 157.40654 -10.407345 -71.435417
13180000000 -20.461262 -86.583115 -52.128838 -143.21013 -45.947708 124.10796 -9.2749157 -75.266563
13200000000 -20.248577 -91.065063 -48.993587 172.61171 -46.073746 95.728531 -8.9716511 -84.275398
13220000000 -20.578077 -94.253281 -47.496555 126.25932 -46.013439 53.896381 -8.584446 -95.488617
13240000000 -20.117931 -93.653938 -46.237411 93.637932 -46.354477 31.29101 -8.2230701 -93.955627
13260000000 -20.2409 -96.881859 -44.771717 54.365574 -45.705307 -3.2759554 -7.4355206 -106.50361
13280000000 -20.111061 -99.766624 -43.314003 14.827967 -45.43549 -32.502262 -7.2103853 -114.04401
13300000000 -20.767107 -107.03516 -42.57198 -25.716063 -44.9244 -67.497467 -7.0190377 -121.9174
13320000000 -21.385941 -109.01032 -42.048672 -65.162781 -44.488659 -102.66624 -6.9405594 -129.04129
13340000000 -21.555805 -108.56675 -41.751244 -104.17053 -44.800915 -140.3376 -7.9726324 -137.45497
13360000000 -21.140902 -109.70089 -40.591789 -143.16318 -43.578442 -177.16315 -6.9035635 -143.04303
13380000000 -21.022844 -113.71323 -40.090565 176.25621 -44.07497 144.60239 -7.1543703 -152.149
13400000000 -22.010668 -122.00028 -39.722965 138.82861 -43.767239 112.55106 -7.20542 -158.7421
13420000000 -23.455328 -126.41499 -39.3489 98.081734 -43.702034 73.585388 -7.5936289 -165.03029
13440000000 -23.911194 -122.60867 -39.17907 58.688251 -43.76918 36.646221 -7.9887896 -172.05014
13460000000 -23.686438 -121.6851 -39.365826 24.441607 -45.118698 2.5032248 -9.1490431 -173.55621
13480000000 -23.358082 -124.58441 -38.944061 -17.226274 -44.948437 -34.065182 -8.7722855 175.76302
13500000000 -24.706779 -134.43248 -38.838558 -57.589737 -44.866848 -69.749336 -9.0204573 168.52489
13520000000 -26.654522 -137.53835 -38.636898 -96.749069 -45.779408 -105.53185 -9.5642815 162.774
13540000000 -28.164465 -130.51971 -39.265495 -138.0177 -46.734516 -142.28888 -9.9913712 159.04375
13560000000 -27.416569 -127.46531 -39.144001 -172.46027 -46.947075 -166.41595 -10.620336 149.53233
13580000000 -27.144524 -127.61607 -39.002056 148.74998 -47.510197 167.21341 -11.257315 149.49821
13600000000 -27.454576 -136.23889 -39.609467 107.12897 -47.471844 130.35133 -11.551528 140.79546
13620000000 -30.50379 -132.43439 -40.460323 72.58989 -47.36557 107.51085 -12.196769 133.63873
13640000000 -31.477154 -121.55978 -40.167736 32.379581 -46.365261 73.909973 -12.535097 128.02412
13660000000 -29.580242 -111.95305 -41.574902 -6.1689529 -46.405663 49.253532 -13.264975 127.50162
13680000000 -28.898846 -123.34418 -41.744881 -37.784142 -45.225746 17.315557 -14.314004 118.25859
13700000000 -28.74159 -125.8582 -41.988319 -79.621315 -44.390076 -20.947626 -14.520695 113.24644
13720000000 -30.676508 -125.60795 -43.157227 -118.1095 -43.673626 -56.19669 -15.357069 101.69942
13740000000 -30.566116 -117.23732 -44.48111 -152.037 -43.02816 -91.839081 -15.915033 94.582458
13760000000 -29.581354 -121.13666 -45.274387 173.67761 -42.634762 -128.94283 -16.512787 90.505486
13780000000 -28.583439 -127.39014 -46.708775 145.00252 -41.834309 -164.59355 -17.858864 85.880142
13800000000 -28.045313 -133.28465 -46.870682 108.80676 -41.922157 157.24451 -18.183231 75.197617
13820000000 -28.585985 -133.92413 -49.191162 82.597252 -42.429634 122.51514 -18.883076 65.956726
13840000000 -29.22809 -138.42531 -50.188911 66.629997 -42.154289 87.434509 -19.860838 46.04295
13860000000 -30.354696 -144.05815 -49.219761 33.663593 -41.267101 49.821583 -19.598616 37.41325
13880000000 -31.463633 -150.68987 -49.149448 14.309183 -41.261219 14.021744 -20.719557 25.231432
13900000000 -30.474268 -164.74826 -47.787342 -14.104149 -41.091068 -21.820011 -20.636879 9.0286331
13920000000 -28.935392 -174.59741 -47.784256 -40.283936 -40.59964 -57.780464 -20.084507 -6.9129701
13940000000 -28.802109 173.22766 -45.352638 -73.042923 -41.374718 -98.06295 -20.323338 -14.92043
13960000000 -29.994434 159.65962 -44.455635 -105.34698 -40.813416 -129.61748 -18.151573 -29.897623
13980000000 -33.552425 146.54387 -43.445145 -137.95793 -40.686169 -167.61076 -17.628565 -39.946289
14000000000 -33.344868 140.74982 -42.066231 -176.66257 -40.563324 156.06604 -17.265976 -53.883003
14020000000 -30.725775 138.97546 -41.867947 141.49608 -40.773705 119.84 -16.267241 -65.805374
14040000000 -28.71983 118.36382 -41.520977 109.72952 -40.719154 84.514366 -14.765373 -72.309158
14060000000 -29.043375 99.824364 -41.145897 68.983727 -41.518047 44.863865 -15.57476 -79.998703
14080000000 -30.896038 77.129044 -40.646229 34.219357 -41.20068 16.66341 -13.691974 -87.783318
14100000000 -32.119408 60.511978 -39.774796 -4.2744713 -40.854965 -20.805527 -13.129871 -98.828278
14120000000 -31.01174 71.564911 -39.630661 -45.993416 -41.037132 -57.955418 -12.886178 -106.59939
14140000000 -27.438297 63.875248 -40.411964 -82.102875 -41.233044 -88.178131 -12.0219 -115.82767
14160000000 -26.290585 44.306423 -40.081043 -121.28871 -41.287884 -128.22092 -11.682872 -122.20506
14180000000 -27.317207 35.70549 -40.349094 -154.81828 -41.679817 -160.58881 -11.536612 -130.04555
14200000000 -27.686037 21.894827 -40.353245 172.31979 -40.820683 166.0573 -10.581567 -138.18742
14220000000 -28.010466 27.173182 -40.079571 131.03671 -40.779499 127.12215 -10.643691 -147.16113
14240000000 -26.177866 30.088589 -40.658756 96.656601 -41.049118 91.427368 -10.546737 -156.13652
14260000000 -24.677347 17.896061 -40.829899 63.051289 -41.275406 58.554672 -9.9097881 -162.54765
14280000000 -25.258762 6.2544312 -41.058323 28.788704 -41.196037 26.836802 -10.342515 -167.13747
14300000000 -26.457268 -1.9163415 -40.398945 -5.1143169 -40.143532 -14.987315 -9.755559 -177.5782
14320000000 -26.754889 4.7437057 -40.350643 -41.644791 -40.606167 -54.823341 -9.8160753 173.8
14340000000 -25.467787 4.0760536 -40.488258 -73.947296 -41.441219 -85.940887 -10.28226 165.54651
14360000000 -24.435625 -1.3569393 -39.715736 -110.83152 -41.180237 -123.92757 -10.212747 158.10379
14380000000 -24.662943 -11.785307 -39.771107 -148.05937 -41.354431 -156.23412 -10.13008 154.70828
14400000000 -26.053322 -14.509692 -39.557091 177.18657 -41.073109 166.5938 -10.445521 147.24745
14420000000 -26.104122 -7.3154092 -39.487419 140.57057 -42.09977 130.81738 -11.508408 140.60689
14440000000 -24.939682 -4.6415868 -39.077736 103.80344 -41.766445 96.559708 -10.87302 130.94162
14460000000 -24.297194 -10.248231 -39.244198 64.536057 -42.03091 63.056622 -11.5355 124.37666
14480000000 -24.422316 -16.659124 -39.433834 30.089348 -42.16885 26.812809 -11.820103 118.76267
14500000000 -25.758787 -14.500357 -39.155518 -6.1091652 -42.123741 -8.1110334 -12.20788 115.1222
14520000000 -25.00193 -7.3729129 -39.007431 -47.30389 -42.543282 -43.761227 -12.856672 110.20971
14540000000 -23.667507 -8.2006311 -39.54845 -84.244423 -43.463795 -78.699478 -13.818771 99.235809
14560000000 -23.129055 -15.123992 -39.656784 -121.73354 -43.436672 -108.52203 -13.203637 92.865913
14580000000 -23.303299 -18.117313 -40.21743 -159.98329 -42.964443 -141.72911 -13.95999 86.711128
14600000000 -23.489994 -14.710322 -40.722809 161.17847 -43.536995 -178.97903 -14.613894 82.418884
14620000000 -22.954731 -11.347718 -42.150265 127.94332 -44.427536 148.26521 -14.764706 76.796051
14640000000 -21.185087 -15.695348 -41.782715 98.033859 -43.998493 125.79344 -16.495731 69.010178
14660000000 -21.219006 -22.726851 -42.213875 52.80608 -43.780952 83.299141 -15.341708 61.432636
14680000000 -21.470795 -26.051189 -44.625793 25.589487 -45.100258 62.061668 -16.43638 52.943523
14700000000 -20.978321 -23.557693 -44.285851 -0.57348973 -43.132484 32.000965 -17.474739 45.591984
14720000000 -20.516893 -25.715466 -44.172546 -33.571484 -42.273926 -5.1301537 -17.349092 40.085796
14740000000 -20.139469 -29.651552 -45.431446 -64.844254 -42.58823 -38.215294 -18.595924 33.052666
14760000000 -19.84034 -36.82407 -44.887711 -88.245613 -41.389866 -70.845215 -20.343805 8.181654
14780000000 -20.131948 -38.27993 -44.300793 -118.68727 -40.8964 -107.80779 -19.122005 13.192309
14800000000 -19.619991 -40.703629 -43.389645 -153.38046 -40.158112 -146.00836 -20.471611 -7.9281907
14820000000 -19.381084 -44.697723 -42.783264 176.66614 -40.305035 179.55586 -21.369923 -12.361231
14840000000 -19.54228 -50.277515 -41.997478 143.51146 -39.382698 142.88046 -21.200537 -18.584307
14860000000 -19.674242 -54.5616 -41.232182 108.08517 -39.239285 106.35575 -22.883448 -38.949192
14880000000 -19.855206 -55.751736 -41.062279 67.376457 -39.354996 65.922783 -20.848671 -67.968803
14900000000 -19.308895 -59.159378 -40.52095 34.293385 -38.810593 31.97315 -21.404972 -78.195587
14920000000 -19.152805 -63.775581 -39.867416 -3.7223828 -38.223713 -5.9542203 -22.017065 -114.10612
14940000000 -19.732681 -70.562668 -39.711029 -41.567657 -38.266926 -45.330154 -23.211142 -103.30696
14960000000 -20.30592 -73.232903 -39.210102 -79.942261 -38.241425 -82.489197 -23.593639 -115.18385
14980000000 -21.130486 -72.707169 -39.615879 -120.01428 -38.551292 -121.35046 -22.012434 -134.63588
15000000000 -20.741161 -71.771317 -39.493515 -152.12117 -38.340527 -154.02525 -20.556406 -144.52013
15020000000 -20.3046 -77.429741 -39.063099 167.97763 -38.097641 165.13457 -20.949326 -145.36687
15040000000 -21.294394 -85.527504 -39.658234 130.86252 -38.446327 128.54187 -17.547377 172.73729
15060000000 -22.628017 -87.497055 -39.351154 96.354248 -37.956631 92.499657 -21.318592 167.72168
15080000000 -23.701965 -84.482559 -39.239346 57.004677 -38.185051 52.710121 -21.872213 157.31062
15100000000 -23.172762 -76.795395 -39.5467 20.734499 -38.326267 14.970514 -21.295559 149.77376
15120000000 -22.149351 -80.796425 -39.124733 -14.433488 -38.544376 -22.370199 -20.674732 138.71703
15140000000 -22.508135 -86.703751 -39.046406 -54.60788 -38.630154 -56.973301 -25.178129 120.17102
15160000000 -24.420843 -90.379494 -39.598179 -92.846924 -38.372929 -97.827858 -18.244776 109.51615
15180000000 -25.252335 -79.451622 -39.867001 -127.56221 -39.0914 -135.12373 -21.064587 85.639069
15200000000 -23.864016 -70.224541 -39.386581 -163.31987 -38.81963 -172.05588 -21.607092 72.710747
15220000000 -22.580923 -76.528763 -39.752411 156.92757 -39.393867 147.4236 -20.447794 65.894142
15240000000 -22.685061 -84.221443 -39.203178 120.36311 -39.232376 112.45893 -21.680853 51.263546
15260000000 -23.294077 -87.60041 -39.680332 76.789429 -39.230892 67.908401 -20.142879 7.1714811
15280000000 -24.431572 -85.722946 -40.672909 40.173561 -40.592625 31.594385 -19.25432 32.004242
15300000000 -23.04723 -78.067749 -40.357048 6.6557145 -40.219551 -3.4704652 -19.495983 4.9490542
15320000000 -21.943724 -86.904846 -40.668831 -36.604256 -41.111374 -46.607742 -19.189804 0.63843644
15340000000 -22.006367 -95.902702 -41.291393 -71.671616 -41.949593 -84.345436 -18.789295 -4.6113625
15360000000 -22.712795 -101.48817 -41.498867 -113.15759 -42.10088 -122.00576 -18.425314 -25.440374
15380000000 -23.821249 -102.7981 -42.38588 -148.18111 -43.071457 -159.87625 -15.869262 -39.521408
15400000000 -23.821154 -103.33228 -42.061924 171.88193 -42.625488 160.54701 -16.432655 -44.675175
15420000000 -22.867403 -108.4003 -42.854095 127.84186 -43.68528 113.01527 -16.649965 -58.859867
15440000000 -22.889091 -120.35 -44.793907 90.387253 -46.588017 75.114861 -16.503609 -54.459846
15460000000 -23.661249 -125.74765 -44.573544 58.013092 -46.994133 45.805103 -16.170023 -61.542362
15480000000 -24.968885 -131.00328 -44.890446 9.5520926 -46.971855 -0.79613703 -14.980928 -76.199646
15500000000 -25.802364 -137.42091 -47.678886 -33.734894 -49.137604 -48.701298 -14.083092 -81.373558
15520000000 -26.130625 -141.735 -48.020557 -69.436844 -51.183453 -89.54985 -13.313748 -80.813095
15540000000 -26.014534 -156.85664 -49.250965 -109.63047 -52.991146 -132.76645 -14.579659 -105.77738
15560000000 -27.114351 -165.40541 -50.86092 -152.88177 -56.506359 178.47453 -14.218215 -100.90421
15580000000 -28.433752 -169.35909 -51.626385 152.26489 -54.579128 123.1614 -13.725064 -109.17075
15600000000 -29.055107 176.25406 -54.651924 97.736313 -56.505451 48.744923 -12.81294 -117.03554
15620000000 -30.109066 157.53818 -56.566055 46.302803 -60.02663 1.2302879 -12.395249 -123.04449
15640000000 -30.035732 136.45407 -54.935955 -16.444054 -53.661514 -52.946434 -12.839324 -119.39053
15660000000 -29.169523 119.9857 -55.199623 -86.104729 -53.96476 -113.20076 -12.942426 -142.55298
15680000000 -31.157608 112.42871 -53.894138 -134.67307 -51.555264 -147.68626 -12.827862 -144.6001
15700000000 -30.229183 106.63727 -51.738266 179.57634 -50.331337 163.78322 -12.38406 -152.65694
15720000000 -28.610214 92.679359 -49.887825 135.94002 -48.549614 126.00346 -12.233316 -163.17447
15740000000 -26.375179 73.083748 -48.787159 88.145523 -47.538494 75.484825 -12.368748 -165.91243
15760000000 -24.828577 60.580936 -48.600418 48.794182 -47.807858 41.395863 -10.111453 164.4881
15780000000 -25.871788 53.868229 -47.174763 14.675358 -46.933495 12.15526 -12.728539 173.15469
15800000000 -25.871046 52.290867 -45.697002 -25.854071 -45.457634 -28.978264 -13.404293 167.03737
15820000000 -25.24398 57.997684 -44.994377 -71.383377 -44.468586 -71.536858 -13.105455 155.27222
15840000000 -22.967314 51.650963 -45.114273 -105.24853 -44.893764 -109.9866 -13.101901 144.94083
15860000000 -21.4527 37.506931 -44.283329 -142.38281 -43.478298 -145.89093 -14.637987 140.00542
15880000000 -21.902544 30.010937 -43.580425 176.65755 -42.816166 173.76605 -11.85466 116.59031
15900000000 -22.676527 31.902407 -42.772614 138.17175 -42.371166 137.02753 -15.965386 115.02114
15920000000 -22.473866 38.792816 -42.03091 100.3404 -41.988155 96.343277 -16.75527 106.39933
15940000000 -20.717358 38.973736 -41.897247 58.894924 -41.2826 57.561398 -15.98343 92.530571
15960000000 -19.493698 30.74164 -41.521954 19.952305 -41.182858 16.713926 -16.620108 80.474831
15980000000 -19.392391 22.617924 -40.932167 -18.180105 -40.6782 -22.581408 -18.677298 58.136208
16000000000 -20.077446 24.674809 -40.875362 -58.550343 -40.700733 -61.507 -18.345314 41.716923
16020000000 -19.543102 29.244291 -40.382668 -97.749924 -40.11964 -101.21038 -23.236712 31.317631
16040000000 -18.348166 28.12439 -40.234341 -137.64818 -40.980869 -143.22267 -20.150412 21.0035
16060000000 -17.322241 23.492189 -40.191578 -178.92317 -40.515247 178.68747 -17.486137 11.897999
16080000000 -16.858379 17.60475 -40.74316 141.45235 -40.820644 137.41757 -17.452511 -6.7926674
16100000000 -16.922319 18.864885 -40.747776 105.88747 -40.836479 100.97587 -16.264912 -24.558722
16120000000 -16.089909 19.987152 -40.499973 65.103752 -40.660709 58.819546 -15.064149 -33.151623
16140000000 -15.457615 18.872829 -40.547409 24.362312 -42.294582 19.011993 -18.815155 -66.974304
16160000000 -14.878117 14.307714 -41.119545 -15.054786 -42.255009 -15.957759 -16.400839 -47.549068
16180000000 -14.479817 9.7695265 -41.052147 -52.611073 -42.177204 -55.574829 -14.618169 -54.296265
16200000000 -14.072218 9.5915003 -41.686638 -93.047729 -42.090717 -94.377846 -13.647158 -65.782578
16220000000 -13.30881 8.8546181 -42.072594 -130.66072 -42.585796 -136.88548 -13.188126 -74.776138
16240000000 -12.606337 5.5878224 -42.660065 -167.67792 -43.527691 -172.91331 -11.938769 -74.099373
16260000000 -12.504745 1.8703492 -43.298687 154.80347 -45.589432 152.88011 -14.316833 -91.571091
16280000000 -12.459617 -1.2235259 -42.74865 119.04465 -45.115017 118.77399 -12.491181 -87.545059
16300000000 -11.895452 -2.0758924 -43.810741 73.18924 -45.431248 76.597313 -11.777122 -95.296715
16320000000 -11.170893 -3.7740321 -45.127728 41.094376 -46.516712 41.529041 -11.684509 -106.76536
16340000000 -10.60948 -8.1623354 -45.601482 3.8155384 -47.339024 3.8632286 -10.991138 -109.90917
16360000000 -10.510756 -10.426738 -46.348709 -30.578461 -42.044197 -20.11566 -10.643929 -108.29788
16380000000 -10.415175 -11.979169 -46.993435 -63.404633 -43.366684 -55.527637 -11.687483 -120.7853
16400000000 -10.043201 -14.720099 -47.566784 -101.09676 -43.273243 -97.473846 -10.551339 -121.75945
16420000000 -9.5928831 -17.07119 -48.878292 -138.32382 -43.850307 -139.70258 -10.186413 -129.60225
16440000000 -9.2027998 -20.26696 -49.590069 -169.51285 -45.186069 -178.41815 -10.507275 -138.68594
16460000000 -8.9986401 -22.91703 -50.362301 158.73575 -45.968746 149.85326 -9.9629135 -139.06999
16480000000 -8.8169298 -23.7708 -50.579182 135.58434 -46.244217 109.69256 -10.072174 -141.30933
16500000000 -8.6012411 -26.148146 -50.243576 101.34837 -47.309429 73.404823 -9.8492422 -148.1873
16520000000 -8.2066479 -28.362909 -51.527462 72.784653 -49.038506 40.595142 -9.3427429 -152.26358
16540000000 -7.8120718 -31.225672 -51.692455 46.002647 -49.770607 6.4001493 -9.4587526 -161.35593
16560000000 -7.5527372 -33.558182 -49.416317 16.002375 -50.488331 -23.835865 -9.5621586 -167.94324
16580000000 -7.3144774 -34.440418 -49.275848 -24.705761 -51.837597 -54.116302 -9.4306726 -169.76752
16600000000 -7.0775771 -36.186672 -49.054749 -55.720276 -51.864838 -73.613495 -9.7505865 -175.38039
16620000000 -6.7810988 -39.018646 -48.6702 -88.713333 -50.56815 -108.96944 -9.8567142 177.13144
16640000000 -6.3917613 -40.903923 -46.949898 -123.08704 -52.315937 -137.38788 -8.6482067 177.06412
16660000000 -6.0133061 -43.375652 -46.756283 -168.94676 -49.484169 -162.28082 -9.1810303 164.07288
16680000000 -5.6661935 -44.911469 -46.968586 157.2323 -49.385201 156.20877 -9.4721632 158.46121
16700000000 -5.3485718 -47.260387 -46.285072 119.08596 -48.69215 127.91968 -10.088189 153.55711
16720000000 -5.02601 -49.413235 -46.418182 76.322205 -47.380001 91.195107 -10.046728 147.862
16740000000 -4.8133664 -53.46785 -46.423244 45.304386 -47.481831 53.513763 -8.8520727 155.3674
16760000000 -4.3390489 -55.362328 -45.948139 0.098236188 -46.317589 13.092836 -10.076739 138.52316
16780000000 -3.9661775 -58.142151 -46.389984 -32.170238 -46.832798 -29.736311 -10.432146 123.7297
16800000000 -3.6167762 -61.072746 -45.635303 -73.390663 -45.613674 -60.714283 -11.245065 115.72059
16820000000 -3.3408854 -63.77063 -46.240707 -114.84588 -45.10236 -105.34205 -11.597459 111.8548
16840000000 -3.0407269 -66.829735 -46.232182 -148.1633 -45.234264 -146.8522 -12.25779 101.47294
16860000000 -2.8253667 -71.531349 -45.434044 170.86647 -45.565475 176.99025 -13.002609 84.269981
16880000000 -2.4422433 -73.961029 -45.964535 130.91617 -45.003883 134.55449 -13.081803 85.013321
16900000000 -2.1424031 -77.1791 -45.95488 92.123863 -44.792698 93.061218 -13.347013 70.664063
16920000000 -1.9253964 -80.422684 -45.582043 54.597137 -44.814835 51.940781 -14.659654 63.500893
16940000000 -1.6926526 -83.766495 -45.504192 11.086388 -45.208324 12.576999 -15.227702 58.220062
16960000000 -1.4703106 -87.459221 -45.621044 -30.725504 -44.963455 -30.551651 -15.610356 41.068165
16980000000 -1.2519691 -91.034843 -45.772873 -71.01725 -44.76144 -69.623436 -14.801826 27.454653
