!Keysight Technologies,P9374A,MY57211810,A.19.30.04
!Date: Friday, May 09, 2025 09:19:03
!Correction: S11(Cdelta 2-Port  ) 
!S21(Cdelta 2-Port  ) 
!S12(Cdelta 2-Port  ) 
!S22(Cdelta 2-Port  ) 
!S2P File: Measurements: S11, S21, S12, S22:
# Hz S  dB   R 50
13000000000 -19.949146 -79.538765 -49.418346 48.366879 -49.470181 73.774918 -19.481693 -32.895302
13020000000 -20.082119 -81.488876 -50.712776 2.3115313 -49.115894 31.222242 -18.343283 -38.291004
13040000000 -20.785147 -82.519775 -51.71682 -35.125717 -50.046116 -11.176077 -17.001196 -49.146317
13060000000 -21.333363 -82.046944 -52.741447 -59.968994 -49.835098 -44.465076 -14.807235 -47.638676
13080000000 -21.310541 -79.279938 -53.435791 -89.057892 -49.597794 -86.623726 -14.151564 -57.02322
13100000000 -20.753601 -80.059227 -53.85778 -110.76796 -49.895924 -110.53748 -13.09714 -61.683987
13120000000 -20.066479 -81.935654 -51.987091 -146.13525 -49.93914 -160.6498 -12.320176 -65.500496
13140000000 -20.327869 -85.584793 -53.052376 165.32784 -50.678215 164.19901 -11.235276 -71.028999
13160000000 -20.677319 -86.28614 -54.361996 156.04117 -50.872787 123.75453 -10.601091 -79.190979
13180000000 -20.705519 -85.54921 -50.995079 123.35182 -51.855793 91.515518 -9.4641085 -81.6819
13200000000 -20.478102 -88.364342 -51.203938 75.222351 -53.577374 53.419987 -9.1117582 -90.158966
13220000000 -20.134104 -92.363716 -52.139656 37.472183 -54.528801 17.981361 -8.7534819 -100.8216
13240000000 -19.89702 -95.938774 -51.665943 7.8230996 -55.364979 2.7153242 -8.2746077 -99.050056
13260000000 -20.142559 -98.611191 -53.088284 -32.336845 -56.090038 -20.668247 -7.4357524 -111.23799
13280000000 -20.414133 -99.56353 -51.846676 -68.808945 -54.685993 -53.986771 -7.1792545 -118.27248
13300000000 -20.711979 -103.60252 -52.599911 -107.86279 -53.995522 -85.55452 -6.9949541 -125.71984
13320000000 -20.922625 -106.97849 -52.785637 -143.17145 -54.657642 -121.75507 -6.895072 -132.82062
13340000000 -20.900637 -111.00758 -56.415821 -177.46713 -54.300129 -157.49678 -7.9452934 -140.97276
13360000000 -21.210581 -111.09649 -57.289558 156.22667 -55.925144 -174.46417 -6.8582649 -146.70367
13380000000 -21.469845 -112.53062 -57.330803 156.95522 -52.877396 154.32533 -7.0770898 -155.49597
13400000000 -22.230509 -117.06564 -55.162182 117.76843 -51.453602 110.15678 -7.116848 -161.72189
13420000000 -23.236938 -121.15906 -54.232384 89.473099 -52.607616 65.070267 -7.5333686 -167.99207
13440000000 -23.472055 -122.50853 -53.275505 51.243656 -53.485806 36.285305 -7.954596 -175.05768
13460000000 -23.738989 -122.28787 -53.055046 19.054176 -55.069641 12.541314 -9.1021643 -176.23383
13480000000 -24.200695 -125.56216 -54.031475 -16.177822 -53.639149 -17.463951 -8.6994324 173.21581
13500000000 -25.443092 -129.58214 -53.078323 -44.367558 -52.588718 -58.019062 -8.9444666 166.64679
13520000000 -26.616777 -132.62401 -51.769226 -82.399857 -53.42197 -92.590714 -9.5240068 161.17165
13540000000 -27.120228 -133.76077 -51.504147 -114.83968 -53.842323 -123.86711 -9.9754295 157.53592
13560000000 -27.576838 -133.12495 -50.372322 -157.03818 -52.841724 -151.68336 -10.554565 147.97374
13580000000 -27.746559 -129.56467 -51.030666 173.54773 -52.480682 -179.63651 -11.17197 148.11777
13600000000 -27.885178 -130.16235 -50.49382 129.98387 -53.281517 141.19418 -11.397052 139.80092
13620000000 -29.309414 -134.95193 -51.258217 96.136749 -53.117561 119.56943 -12.093442 133.28682
13640000000 -30.948849 -124.24467 -50.954227 64.59449 -50.630943 86.757133 -12.445739 127.88898
13660000000 -29.65704 -112.08554 -50.164913 24.052483 -49.307285 47.679615 -13.119055 126.86977
13680000000 -28.216059 -119.07798 -51.625469 -12.382243 -50.261211 4.9479203 -14.116443 117.91991
13700000000 -28.441544 -123.91358 -52.373676 -36.520439 -49.184296 -30.872927 -14.29038 113.23095
13720000000 -30.441431 -123.18491 -50.883804 -74.925766 -49.196571 -66.974426 -15.076485 102.07559
13740000000 -30.979959 -110.87562 -51.974632 -104.2814 -49.00346 -101.16272 -15.589488 95.766869
13760000000 -29.192423 -111.47841 -51.489964 -137.70422 -49.132774 -143.09398 -16.226789 91.287521
13780000000 -27.825472 -124.32687 -53.213825 -172.08086 -50.010727 -177.83734 -17.536654 86.636185
13800000000 -27.790251 -139.08429 -53.056904 177.10106 -51.015167 148.0757 -17.649693 76.40303
13820000000 -30.321489 -136.94821 -50.511757 134.24152 -50.554901 117.22816 -18.308912 67.300591
13840000000 -30.322243 -125.18286 -50.239365 98.150711 -51.409885 72.831497 -19.427916 49.076347
13860000000 -29.274565 -133.34096 -50.607197 67.736916 -52.581665 47.537788 -19.260908 40.098301
13880000000 -29.910898 -156.73895 -49.381405 39.266953 -52.944271 32.106014 -20.344992 28.111929
13900000000 -30.144957 179.48792 -48.100769 5.9063935 -51.20348 10.275376 -20.322678 12.476348
13920000000 -31.030642 -179.96996 -46.495651 -32.311878 -49.217464 -29.800625 -19.808668 -3.7502213
13940000000 -29.657722 179.7352 -47.334171 -75.048752 -49.106426 -66.764717 -20.061888 -11.788014
13960000000 -29.670097 171.11967 -47.253399 -102.66628 -48.229118 -90.936867 -18.173668 -26.745905
13980000000 -31.036726 145.88684 -46.24733 -142.61987 -46.96299 -129.06653 -17.67293 -38.657433
14000000000 -32.620361 129.03642 -46.149834 -175.13441 -45.848267 -165.58109 -17.23204 -53.254719
14020000000 -31.722624 132.26323 -45.365593 145.84343 -44.683971 155.67795 -16.25606 -64.082497
14040000000 -29.930672 124.55553 -45.625782 109.67804 -44.297398 117.45838 -14.822128 -71.08815
14060000000 -28.508345 104.52989 -45.981663 72.359322 -45.136814 79.551559 -15.620374 -79.780876
14080000000 -30.29335 75.326523 -45.133381 42.244968 -43.772453 46.804935 -13.778714 -88.064751
14100000000 -31.943083 58.739403 -44.385231 7.5505743 -42.898346 2.2274954 -13.23749 -98.962219
14120000000 -31.827806 70.460281 -43.615395 -31.865858 -43.230427 -37.716187 -12.894871 -107.03836
14140000000 -28.137276 65.239029 -44.074791 -67.234596 -43.601776 -72.386055 -12.02194 -116.6276
14160000000 -25.792936 43.773113 -43.469124 -107.98622 -43.995979 -108.89177 -11.865966 -122.86469
14180000000 -26.720711 28.629908 -43.774712 -143.2159 -43.980835 -143.80598 -11.709833 -131.20178
14200000000 -28.084913 19.372864 -43.436401 -177.49382 -43.364815 -177.48192 -10.687341 -139.87306
14220000000 -28.077456 31.268877 -42.818558 141.33411 -42.949596 140.05049 -10.799992 -148.47401
14240000000 -25.191038 31.490301 -43.190079 102.21529 -43.862373 101.33987 -10.69379 -157.57169
14260000000 -23.927538 14.688607 -43.85952 70.782433 -44.434174 73.653214 -10.09218 -164.28142
14280000000 -25.584124 3.0205758 -43.539406 33.441498 -43.844257 40.091934 -10.547279 -168.81902
14300000000 -27.450804 5.3481727 -43.416534 -1.5220568 -42.940292 -0.15427475 -9.9595308 -179.66667
14320000000 -26.399603 12.379898 -43.452133 -40.121025 -43.290051 -36.500477 -9.988306 170.94609
14340000000 -24.768723 5.3841696 -43.947926 -72.66098 -42.924713 -72.052147 -10.419401 162.8233
14360000000 -24.612698 -8.0328417 -43.858482 -106.04605 -43.364159 -110.58461 -10.352188 155.29597
14380000000 -26.048597 -13.253523 -43.719475 -139.82375 -42.963451 -145.13164 -10.358879 151.12436
14400000000 -27.339296 -3.9975731 -43.317471 -176.89952 -43.382999 174.73715 -10.651568 143.1812
14420000000 -25.240562 -5.3484492 -43.148479 149.93871 -44.020386 144.97946 -11.651438 135.69247
14440000000 -24.56946 -11.895087 -42.512474 111.2605 -43.002064 110.14797 -11.00198 125.7627
14460000000 -24.869495 -20.38905 -42.267845 75.797539 -42.921745 70.490013 -11.66423 118.69263
14480000000 -25.916763 -13.462448 -42.127991 34.516998 -43.711143 29.916952 -11.991308 112.48772
14500000000 -25.014557 -5.7056398 -42.444561 -3.6882393 -44.214386 0.12612623 -12.461818 107.72322
14520000000 -23.277239 -12.387102 -42.4953 -37.692562 -44.055309 -34.953205 -13.143385 101.18713
14540000000 -23.530359 -17.929062 -43.053314 -78.454071 -45.016758 -68.237602 -13.87755 89.051163
14560000000 -24.46805 -16.43446 -43.433918 -112.37593 -44.356583 -103.0471 -13.343104 83.806641
14580000000 -23.426741 -8.2577219 -43.570671 -149.37924 -44.703724 -136.74274 -14.16009 75.951347
14600000000 -22.12698 -10.128052 -44.240589 172.70062 -43.946384 -167.69136 -14.973553 69.86676
14620000000 -22.019175 -18.950014 -45.228199 140.35429 -43.780434 156.16422 -15.093312 63.506416
14640000000 -22.39609 -23.584843 -45.460075 109.04758 -43.273952 119.77956 -16.74885 52.328434
14660000000 -22.552114 -16.856689 -45.030376 77.594238 -42.642212 80.559456 -15.643242 46.756927
14680000000 -20.786638 -16.239122 -45.432343 43.146355 -43.424255 40.455757 -16.603012 37.311512
14700000000 -19.809795 -26.439081 -45.322479 11.606846 -43.675488 7.001977 -17.675238 27.324045
14720000000 -20.697866 -34.64999 -45.338818 -20.915125 -43.683193 -29.373137 -17.785471 20.602297
14740000000 -21.766754 -32.223663 -45.314552 -50.128689 -43.888218 -64.179092 -18.868767 11.522864
14760000000 -20.593267 -27.702795 -44.02359 -84.947983 -44.264366 -99.533722 -19.239298 -13.717509
14780000000 -19.036789 -33.616455 -43.818813 -126.68269 -44.131161 -138.82303 -19.036768 -6.5006332
14800000000 -18.61623 -46.67329 -44.298717 -162.93323 -45.426422 -174.09033 -19.528059 -28.030941
14820000000 -19.894197 -54.42033 -44.079948 168.0388 -45.210793 161.24133 -20.167789 -35.748631
14840000000 -21.003519 -50.916008 -43.007854 131.31255 -44.66502 124.16077 -20.300072 -42.376659
14860000000 -19.625834 -46.288033 -42.5686 94.199112 -44.690983 91.292267 -20.92173 -61.101849
14880000000 -18.294855 -54.182495 -41.920029 51.311085 -44.860806 53.016533 -18.865232 -79.605545
14900000000 -18.45857 -66.114853 -42.900452 9.4325981 -44.347607 25.635876 -19.51898 -87.986595
14920000000 -19.791393 -70.363884 -43.458641 -20.352308 -43.568958 -13.34722 -19.619417 -117.5832
14940000000 -20.680553 -66.604454 -43.048798 -54.532692 -43.370289 -49.680866 -20.799175 -112.3317
14960000000 -20.186979 -64.952927 -42.248981 -95.56958 -43.431923 -88.841072 -21.039911 -120.12606
14980000000 -19.855906 -71.351547 -43.527496 -134.20871 -43.450943 -120.74298 -20.09519 -135.51138
15000000000 -20.54748 -79.307259 -43.42815 -170.00719 -42.803322 -156.60844 -19.294561 -144.46654
15020000000 -21.353621 -78.915413 -43.369877 153.26656 -42.544128 162.89359 -19.85663 -145.95728
15040000000 -21.789591 -79.721893 -43.839523 115.19218 -42.664921 122.8579 -17.086008 175.55058
15060000000 -22.196095 -85.79995 -44.028835 82.700127 -42.49268 83.88755 -20.590721 172.40465
15080000000 -23.193335 -85.674934 -43.705345 44.866196 -43.078156 46.992741 -21.283102 163.25626
15100000000 -23.588034 -81.270378 -44.545048 -0.31301931 -43.605171 7.8954358 -21.366024 155.33842
15120000000 -22.492287 -78.95562 -46.094059 -28.687061 -44.190651 -30.474447 -21.344398 141.72481
15140000000 -22.116261 -86.596413 -45.525303 -58.067673 -44.207462 -65.109825 -26.708948 124.85781
15160000000 -24.077829 -95.225449 -45.109344 -101.87873 -44.540375 -103.86577 -18.914658 112.31365
15180000000 -25.780642 -81.822708 -45.860722 -137.04855 -44.575142 -142.97839 -22.543991 85.996178
15200000000 -23.689013 -67.959274 -46.908463 -174.38867 -45.79678 178.97603 -23.660627 70.23748
15220000000 -21.978189 -76.570763 -47.7313 156.73463 -47.038116 143.91589 -22.247837 61.986858
15240000000 -22.099495 -88.714844 -47.563 123.67174 -47.041199 109.89983 -23.556955 41.69915
15260000000 -23.959421 -89.822632 -45.757809 89.752876 -47.639523 72.967041 -20.674023 -4.3542752
15280000000 -24.406244 -80.441345 -47.149998 43.919724 -48.470634 35.975395 -20.56908 25.142435
15300000000 -22.43796 -76.606483 -46.896809 11.451698 -49.40715 4.2820544 -20.393789 -7.5281124
15320000000 -21.534098 -88.351494 -48.392704 -28.541714 -49.365841 -27.860563 -20.165333 -12.780955
15340000000 -22.098438 -97.514565 -48.997135 -55.330067 -50.839912 -60.667286 -19.555897 -17.955585
15360000000 -23.252234 -99.815605 -48.442215 -92.161026 -51.841049 -96.300949 -18.698021 -38.862309
15380000000 -23.635246 -98.831032 -47.426323 -129.91963 -51.475437 -120.56459 -16.020447 -48.952862
15400000000 -23.322483 -105.71091 -48.713631 -176.4252 -50.303169 -156.75565 -16.606796 -54.888233
15420000000 -23.519459 -112.91945 -49.942051 141.83952 -50.869514 166.1434 -16.561729 -70.085846
15440000000 -23.585144 -118.66603 -51.016644 111.18446 -52.261269 128.23308 -16.486807 -65.959915
15460000000 -23.399164 -123.62207 -52.668652 71.995399 -52.708611 101.30436 -16.000832 -72.622444
15480000000 -24.091129 -133.86288 -51.876465 26.941149 -53.33353 61.938869 -14.682302 -84.87075
15500000000 -25.325392 -146.14078 -57.161766 -12.67735 -52.573444 33.450043 -13.989717 -89.558708
15520000000 -27.124769 -147.4007 -58.980541 -34.369843 -52.727211 -7.7657537 -13.398269 -88.861565
15540000000 -26.904638 -150.27092 -60.248894 -86.931602 -55.310654 -58.958759 -14.280891 -113.47391
15560000000 -25.997648 -156.64766 -90.940994 -28.748827 -57.590073 -90.871391 -13.924363 -108.8555
15580000000 -26.434109 -170.46147 -62.694542 -31.489717 -60.287338 -89.386635 -13.439961 -116.13387
15600000000 -28.186893 166.70885 -58.536701 -48.416283 -58.965744 -124.58813 -12.573413 -122.34322
15620000000 -31.403461 149.26942 -55.729282 -92.466385 -62.426891 -162.23991 -12.256379 -128.17696
15640000000 -32.617176 137.91821 -54.220924 -133.81027 -67.208794 -146.91008 -12.796349 -125.26614
15660000000 -30.657543 135.02481 -54.829697 -159.88446 -60.758991 -151.18697 -12.512847 -147.4267
15680000000 -29.763575 121.96062 -51.227512 151.81601 -55.606895 171.68498 -12.516411 -149.7961
15700000000 -29.035988 101.82013 -51.389328 115.46288 -54.398113 128.32285 -12.185839 -156.4928
15720000000 -28.105011 84.197105 -50.280087 69.952965 -53.691517 91.511574 -12.059079 -166.25298
15740000000 -26.602093 67.099083 -50.536121 28.432709 -51.655128 54.561104 -12.200871 -169.27156
15760000000 -25.354872 63.492546 -50.697968 -1.3545252 -53.876831 15.522879 -9.8518229 162.16957
15780000000 -25.068176 58.302433 -49.964931 -31.519499 -52.840553 -20.388994 -12.4731 170.55501
15800000000 -25.419874 55.153236 -49.000797 -76.57682 -52.068768 -65.049026 -13.136422 164.74693
15820000000 -24.88714 57.821186 -49.782898 -119.82742 -53.263157 -96.98156 -13.036005 153.69023
15840000000 -22.969007 50.520828 -49.695 -151.91185 -50.483116 -120.38313 -13.160099 143.46811
15860000000 -21.797235 37.135139 -49.922733 165.34389 -49.882992 -161.85661 -14.697088 137.97812
15880000000 -22.212496 31.926456 -50.812424 137.80571 -49.671333 160.13039 -11.894963 115.54317
15900000000 -23.177017 35.665386 -49.36713 92.845589 -48.821484 110.98089 -16.231001 115.00464
15920000000 -22.103069 41.918423 -51.319454 49.001263 -50.121498 75.975441 -17.143492 107.51255
15940000000 -20.711622 35.965553 -52.136604 24.727928 -50.589344 48.403404 -16.621782 92.566109
15960000000 -19.853748 26.610605 -53.289867 -2.7340198 -48.60754 15.896632 -17.526438 79.278732
15980000000 -20.139282 23.507875 -52.753952 -38.420033 -47.25066 -31.750097 -19.833261 54.273266
16000000000 -19.96619 28.851286 -52.366024 -81.456085 -47.953438 -74.881042 -19.626812 36.839626
16020000000 -18.920034 29.264898 -53.94997 -93.977028 -48.561069 -108.91135 -26.402451 19.608122
16040000000 -18.141283 24.382143 -52.169323 -137.51131 -49.026428 -152.46237 -22.261568 11.571172
16060000000 -17.865776 20.534452 -52.985714 -166.70261 -49.419018 171.45688 -19.197979 1.6320944
16080000000 -17.348015 21.094019 -51.028503 162.12115 -49.013569 133.64445 -18.768259 -19.496269
16100000000 -16.403379 22.44611 -50.692558 118.84783 -48.790794 86.153458 -17.135639 -37.22681
16120000000 -15.53423 17.775349 -50.250561 82.789154 -51.17767 42.219749 -15.956333 -45.517998
16140000000 -15.639903 14.973373 -50.8885 41.602837 -53.27227 13.253763 -18.726574 -85.875755
16160000000 -15.495862 14.076161 -50.813328 1.6158314 -52.831566 -25.555387 -16.995508 -64.424805
16180000000 -14.59023 14.634 -51.176044 -36.385738 -55.318592 -65.606171 -15.358727 -69.557266
16200000000 -13.483779 11.178559 -51.904305 -73.851601 -55.844662 -107.7281 -14.063339 -79.613564
16220000000 -13.011652 6.3780351 -52.168766 -117.28226 -59.153656 -146.84343 -13.542972 -88.595757
16240000000 -13.022223 3.4610972 -53.346958 -152.84283 -70.696884 -152.80606 -12.598457 -86.845543
16260000000 -12.992497 4.1097169 -54.115139 178.9919 -65.812004 -114.59998 -14.449674 -106.66516
16280000000 -12.379898 2.3069394 -54.139267 126.80875 -59.679085 -145.33472 -12.844903 -102.52586
16300000000 -11.467101 -2.2465303 -59.707783 76.115242 -59.095875 -166.38324 -12.187751 -108.66234
16320000000 -11.172878 -6.8376856 -62.964474 71.813255 -54.880112 151.27838 -11.920058 -119.69012
16340000000 -11.044482 -9.0571003 -61.323833 70.28067 -53.947662 104.01952 -11.267949 -122.78544
16360000000 -10.681817 -9.464983 -64.414787 27.280409 -54.037495 73.074165 -11.156728 -120.92426
16380000000 -10.285921 -11.575973 -63.409306 53.465149 -53.927128 40.52599 -11.711564 -134.02734
16400000000 -9.914856 -15.491776 -57.573875 19.041569 -51.76107 -5.1845016 -10.887798 -134.71245
16420000000 -9.6655674 -18.361115 -54.935719 -19.21788 -50.662239 -47.305103 -10.427263 -141.41953
16440000000 -9.3315611 -20.108973 -53.713097 -64.741699 -51.338547 -94.649788 -10.664397 -150.20012
16460000000 -8.9602661 -21.946501 -54.003696 -102.2877 -52.058792 -125.81069 -10.292401 -150.75185
16480000000 -8.6686802 -24.144278 -53.539391 -133.05286 -52.37635 -169.44304 -10.531186 -153.27614
16500000000 -8.6105556 -26.96277 -51.611488 -177.8222 -52.279343 158.12274 -10.208767 -159.5504
16520000000 -8.3467016 -28.42499 -52.349693 143.20616 -53.336819 116.29259 -9.6284027 -162.18387
16540000000 -7.8263092 -30.081427 -52.519646 108.18792 -54.47348 86.783684 -9.6895208 -171.28345
16560000000 -7.4153275 -33.142658 -52.493233 70.363808 -53.98119 47.722466 -9.7913084 -177.34229
16580000000 -7.2680192 -35.28978 -51.454861 38.337502 -55.431774 12.758566 -9.7372208 -179.14108
16600000000 -7.1845145 -36.528206 -51.681324 -3.4323785 -56.372387 -20.223585 -10.034146 174.97466
16620000000 -6.900187 -38.2981 -51.271057 -44.49865 -54.636948 -43.052986 -10.095907 167.67342
16640000000 -6.3134146 -40.125092 -51.518898 -78.501625 -57.04977 -71.774979 -8.863101 169.68489
16660000000 -5.9059453 -43.528728 -52.203121 -117.31091 -55.415981 -95.582405 -9.2853699 157.21472
16680000000 -5.7389116 -45.896381 -52.693161 -151.96021 -56.07814 -127.72028 -9.5274572 151.80362
16700000000 -5.489223 -46.91124 -54.407051 173.4756 -55.872871 -155.19632 -10.114347 146.68163
16720000000 -5.0464272 -48.888023 -53.127274 153.08661 -52.082249 -178.30461 -10.025657 141.27548
16740000000 -4.7287478 -53.517895 -52.434387 110.88183 -53.049324 135.89017 -8.9029331 150.88655
16760000000 -4.311131 -55.84576 -53.855721 81.917236 -51.739475 108.34087 -9.9620581 133.46988
16780000000 -4.0276303 -58.605183 -51.917217 50.748692 -49.172913 64.514099 -10.202361 119.62647
16800000000 -3.6572125 -60.698643 -51.688854 15.904866 -48.831402 19.505398 -11.012119 111.70638
16820000000 -3.2913294 -63.635815 -50.498871 -17.569712 -48.843884 -13.86013 -11.284792 108.00603
16840000000 -2.9862657 -67.105736 -49.158772 -59.912766 -47.418976 -58.79776 -11.860715 97.999855
16860000000 -2.8281415 -71.733856 -49.756622 -105.78086 -48.233101 -102.99348 -12.582196 82.514999
16880000000 -2.4687164 -73.902557 -50.37672 -136.55791 -48.755749 -139.37166 -12.725054 84.002022
16900000000 -2.1267188 -76.961777 -49.150234 -176.10219 -47.783195 177.39459 -13.059652 70.575089
16920000000 -1.8995038 -80.428268 -48.882702 142.96286 -48.517006 132.64221 -14.487273 64.169235
16940000000 -1.6816293 -83.997818 -48.998543 99.493874 -49.249889 96.777641 -15.02542 60.185074
16960000000 -1.4937104 -87.504021 -49.444874 59.891731 -48.679604 52.389996 -15.537621 44.652672
16980000000 -1.2563804 -90.973122 -50.092529 17.390623 -49.265751 13.411597 -15.053613 31.840687
