!Keysight Technologies,P9374A,MY57211810,A.19.30.04
!Date: Friday, May 09, 2025 09:21:32
!Correction: S11(Cdelta 2-Port  ) 
!S21(Cdelta 2-Port  ) 
!S12(Cdelta 2-Port  ) 
!S22(Cdelta 2-Port  ) 
!S2P File: Measurements: S11, S21, S12, S22:
# Hz S  dB   R 50
13000000000 -19.284693 -85.899902 -42.782013 45.015327 -40.690369 59.037975 -16.884295 -61.457905
13020000000 -20.544945 -88.284134 -43.528545 3.586988 -41.261978 16.320183 -16.316008 -62.575073
13040000000 -21.653566 -80.691429 -45.830498 -35.075073 -42.754997 -19.437126 -15.32408 -68.280647
13060000000 -21.222889 -76.172318 -47.751343 -73.260765 -43.287491 -56.434441 -13.72676 -62.996441
13080000000 -20.252106 -79.047844 -49.935337 -97.051682 -43.743107 -90.372543 -13.089337 -69.911011
13100000000 -20.101294 -86.858223 -52.620602 -123.28213 -44.303326 -133.84956 -12.212397 -72.113968
13120000000 -20.696251 -88.034691 -56.899487 -129.57794 -47.511135 -171.55928 -11.66344 -73.008904
13140000000 -21.102936 -82.951416 -54.887459 -143.29788 -48.504799 147.83635 -10.663442 -77.113579
13160000000 -20.484015 -80.574509 -53.405064 -142.45026 -53.662758 125.03333 -10.119293 -83.71244
13180000000 -19.719648 -85.679321 -49.33099 -174.91798 -54.200966 105.39256 -9.0869436 -85.149918
13200000000 -20.024405 -95.123093 -46.567085 154.95938 -59.507275 87.678711 -8.733448 -92.383774
13220000000 -20.572863 -97.976738 -44.766628 112.19063 -59.525276 116.94299 -8.426959 -101.75483
13240000000 -20.711151 -95.079002 -43.907433 81.897598 -52.638824 118.81268 -7.9874296 -98.673851
13260000000 -20.262543 -93.906487 -42.995781 39.946896 -48.664063 71.75415 -7.1913486 -110.18987
13280000000 -19.846306 -98.213799 -41.826275 5.2790575 -45.669796 34.514648 -6.9460998 -116.52283
13300000000 -20.22797 -107.33022 -41.052448 -35.175335 -44.111694 -5.6955333 -6.7551613 -123.40736
13320000000 -21.229839 -112.51366 -40.554222 -73.748459 -42.244953 -45.916779 -6.67802 -129.8205
13340000000 -21.598999 -110.78836 -40.897678 -113.11678 -42.933613 -88.992065 -7.7554941 -137.50336
13360000000 -21.262423 -109.51957 -39.855957 -148.38857 -40.757717 -123.98801 -6.694952 -142.30382
13380000000 -21.305277 -112.4357 -39.774658 172.14226 -40.511543 -164.91167 -6.9664779 -150.66873
13400000000 -21.83116 -118.26656 -39.686424 136.96898 -39.684715 159.31148 -7.0418591 -156.59308
13420000000 -22.69138 -125.6879 -38.67387 101.39229 -38.852306 119.07272 -7.4895883 -162.16177
13440000000 -23.797958 -126.6747 -38.823837 59.928844 -38.583878 79.725479 -7.9485836 -168.41922
13460000000 -24.309177 -124.67624 -39.15593 26.629179 -39.144077 44.836174 -9.1802111 -169.27251
13480000000 -24.397863 -123.98879 -39.077618 -14.533917 -38.358917 1.0356584 -8.8367662 -178.78313
13500000000 -24.681589 -128.90532 -39.153431 -47.924286 -38.226131 -33.052479 -9.1443272 174.76566
13520000000 -25.716951 -135.99097 -38.52058 -85.98848 -37.745564 -72.348923 -9.7424603 169.82436
13540000000 -26.830942 -142.58905 -39.052044 -126.05654 -37.564587 -109.93947 -10.199618 167.19234
13560000000 -28.552063 -138.61632 -39.310978 -161.43489 -37.219124 -149.36298 -10.961998 158.85117
13580000000 -28.245514 -127.09497 -39.281799 165.9987 -37.520645 173.76585 -11.620176 159.89532
13600000000 -27.434135 -127.15397 -39.794079 128.60242 -37.65123 133.23283 -11.941719 151.96103
13620000000 -28.414928 -135.89352 -39.484489 96.472969 -37.7029 97.815865 -12.718983 145.85048
13640000000 -30.47645 -136.91978 -39.349632 57.228325 -37.599979 58.789242 -13.168103 141.36777
13660000000 -31.132513 -120.55765 -40.025513 20.357855 -37.790035 23.11664 -13.776011 142.42665
13680000000 -29.426722 -114.38909 -40.551991 -12.855084 -38.513756 -11.772985 -15.229721 133.7242
13700000000 -28.050367 -119.23637 -40.696201 -43.793781 -38.373577 -50.78236 -15.340646 130.69035
13720000000 -28.989683 -128.60735 -40.105869 -77.768318 -38.613525 -87.250137 -16.548531 120.90346
13740000000 -31.350004 -126.10374 -40.398201 -113.50201 -38.800583 -122.99146 -17.434624 114.25179
13760000000 -30.838039 -115.3205 -40.153442 -148.18964 -39.16172 -156.48167 -18.060141 112.12925
13780000000 -28.587635 -119.64176 -40.416542 179.40036 -39.017841 168.58237 -19.638388 111.18121
13800000000 -27.244099 -135.33217 -39.870483 142.53711 -39.124607 130.97397 -20.41016 100.43105
13820000000 -28.565149 -140.56622 -40.551773 111.06615 -39.892036 96.915924 -21.661619 90.922691
13840000000 -30.665478 -144.33914 -39.82267 77.44413 -40.241444 61.349113 -24.186115 68.258018
13860000000 -31.653606 -136.41042 -39.904819 39.077217 -40.100723 26.355247 -24.326618 54.756721
13880000000 -30.087294 -141.00134 -39.86084 7.4107299 -40.342724 -7.4346395 -26.852531 39.64851
13900000000 -28.094608 -172.09152 -39.809994 -27.167547 -40.330551 -39.462032 -26.973497 9.7615108
13920000000 -28.807615 169.66418 -39.201496 -61.835003 -39.907303 -76.403793 -25.082499 -16.427998
13940000000 -30.484827 163.27196 -39.05109 -100.48787 -41.337891 -112.28527 -24.951969 -25.065737
13960000000 -32.125374 172.22249 -38.981991 -133.13188 -40.256371 -141.66328 -21.131615 -41.986507
13980000000 -32.012871 168.95625 -38.62727 -170.71465 -40.23967 -177.50407 -19.950171 -53.014355
14000000000 -29.598051 148.34016 -38.711731 154.3983 -40.242966 146.66933 -18.974854 -67.505249
14020000000 -28.375069 121.47578 -38.401482 115.70898 -40.031246 108.22678 -17.477953 -77.455536
14040000000 -30.023216 99.613754 -38.846107 81.07988 -40.384666 76.81424 -15.635164 -81.632683
14060000000 -32.444374 97.88633 -38.759007 44.1064 -41.089672 40.501801 -16.283133 -88.913643
14080000000 -33.21302 101.02999 -38.593929 10.02526 -40.545021 8.3833008 -14.185449 -95.162231
14100000000 -30.343256 83.411842 -38.476894 -30.030802 -40.331749 -28.815466 -13.429469 -105.16376
14120000000 -27.992002 67.380814 -38.501503 -65.561104 -40.989216 -65.578896 -13.061307 -112.30455
14140000000 -26.805857 48.647789 -39.026863 -103.3892 -41.094269 -98.34819 -12.135681 -120.36621
14160000000 -27.68656 34.214382 -38.838047 -138.3454 -41.536472 -131.6848 -11.777711 -125.56767
14180000000 -28.863319 39.660847 -39.26355 -175.86734 -41.263851 -166.66608 -11.530836 -133.01581
14200000000 -27.447369 36.027706 -39.908482 150.42892 -41.142731 159.21771 -10.519374 -140.177
14220000000 -25.931841 30.034595 -40.317936 122.48076 -41.096516 121.67019 -10.537908 -148.72279
14240000000 -25.220243 21.044256 -40.506618 86.849014 -42.342812 84.926056 -10.412049 -157.23669
14260000000 -25.235086 12.940429 -41.082203 53.047211 -42.29723 57.751797 -9.8003197 -163.08478
14280000000 -26.180387 10.961312 -40.733162 22.504553 -42.1329 26.953634 -10.212832 -167.30165
14300000000 -26.46999 9.4817486 -40.62709 -15.561061 -41.840435 -10.717646 -9.6387148 -177.54221
14320000000 -25.645653 6.6224914 -40.806026 -45.236294 -41.827202 -41.177738 -9.7369432 174.22408
14340000000 -25.18202 -0.41916913 -41.257679 -80.268867 -42.063019 -78.671219 -10.220289 166.43358
14360000000 -25.269777 -4.6675434 -41.338333 -111.72754 -42.384083 -107.9623 -10.201767 159.25891
14380000000 -25.695807 -7.7514086 -41.048023 -140.83104 -41.777172 -136.22128 -10.182163 156.09648
14400000000 -25.736572 -6.3286419 -40.338821 -176.73701 -41.043812 -173.79309 -10.540996 148.92982
14420000000 -25.25853 -10.871758 -40.298035 149.21614 -41.307201 153.50748 -11.693019 142.77057
14440000000 -25.289776 -11.150141 -40.096115 114.52975 -40.197594 118.07612 -11.126706 133.32962
14460000000 -24.978233 -12.619186 -39.615177 82.027084 -40.484638 81.232323 -11.866854 126.9586
14480000000 -24.754198 -11.405795 -39.052803 44.26046 -40.114487 48.802849 -12.264812 121.86859
14500000000 -24.710258 -10.92149 -38.993656 7.2242913 -39.247711 12.633212 -12.719857 118.58569
14520000000 -23.946438 -14.131499 -39.168812 -29.951883 -39.264126 -24.508526 -13.483952 113.80193
14540000000 -24.240952 -14.098195 -39.222027 -66.255486 -39.541164 -62.30666 -14.663568 103.02145
14560000000 -23.859316 -10.699226 -39.336861 -100.80856 -39.22263 -99.078735 -14.048843 96.838615
14580000000 -22.804285 -11.539997 -39.216053 -136.23152 -39.175201 -133.81023 -15.034954 90.432983
14600000000 -22.352745 -14.253061 -39.384537 -175.88676 -38.84037 -171.45253 -15.874306 86.811142
14620000000 -22.609392 -16.32576 -40.172657 149.88737 -39.261997 149.12363 -16.136192 81.289078
14640000000 -22.062147 -18.35626 -39.86319 117.09939 -39.610065 113.97092 -18.362682 73.464378
14660000000 -22.006489 -17.326977 -40.064297 77.713615 -40.175148 77.12944 -17.114481 64.814583
14680000000 -20.976334 -18.941164 -41.128456 41.709652 -40.365444 45.024994 -18.607687 56.41687
14700000000 -20.165319 -24.82267 -41.165794 10.133211 -40.016411 11.065672 -20.114275 48.402081
14720000000 -20.632261 -30.920885 -40.968468 -25.521915 -40.066971 -26.055008 -20.131393 41.757137
14740000000 -21.027142 -32.709332 -41.628563 -61.460434 -40.736568 -60.166271 -21.890377 34.798912
14760000000 -20.594234 -32.398941 -41.940052 -92.214783 -40.769707 -92.7388 -24.147188 -2.1776857
14780000000 -19.842237 -34.594723 -41.60146 -126.7374 -40.614353 -128.81404 -22.716345 8.9624128
14800000000 -18.90296 -41.246426 -41.749584 -158.91904 -41.086212 -163.83563 -24.119324 -23.145815
14820000000 -19.124191 -49.859364 -41.850819 166.59248 -41.065166 165.50246 -25.297842 -30.385807
14840000000 -19.98995 -55.229836 -41.475784 131.78891 -40.733311 128.63931 -25.018024 -37.562943
14860000000 -20.368361 -52.548134 -42.215336 97.207535 -41.084599 93.708389 -25.511082 -68.720245
14880000000 -19.560436 -51.516365 -41.661484 67.158424 -41.130699 60.161839 -21.391371 -91.914757
14900000000 -18.647305 -57.11665 -41.128868 31.557516 -40.780376 26.233847 -21.66082 -102.59696
14920000000 -18.577072 -66.069557 -40.795979 -3.4920831 -40.671242 -9.728776 -20.419718 -134.36308
14940000000 -19.779799 -75.513313 -40.807163 -39.797375 -40.795052 -44.869534 -22.09148 -128.26694
14960000000 -21.559246 -74.184357 -40.88781 -76.984428 -40.58852 -79.931969 -22.097742 -137.4088
14980000000 -21.65473 -64.509071 -41.309475 -109.75987 -41.044209 -119.03082 -20.339798 -149.75758
15000000000 -20.160892 -66.503853 -40.797493 -141.43082 -41.359467 -152.95996 -18.990452 -155.21883
15020000000 -19.406269 -78.628448 -40.011055 -179.40791 -40.923534 175.12276 -19.447214 -156.61876
15040000000 -20.858088 -92.76049 -40.787083 141.92728 -41.06435 139.14261 -16.221752 170.66092
15060000000 -24.025717 -95.961372 -40.701771 110.93093 -41.007977 106.26299 -19.442446 166.71597
15080000000 -25.087893 -76.248985 -40.347622 73.695793 -40.841637 66.734474 -20.034594 159.16066
15100000000 -22.667233 -69.787628 -40.915901 34.548794 -41.853619 27.37015 -19.778185 153.74295
15120000000 -21.156389 -80.974411 -41.071587 1.3877487 -42.45768 -1.9973023 -19.438679 144.66003
15140000000 -22.02586 -94.459526 -40.854279 -36.524384 -41.662971 -36.27095 -23.646761 134.13405
15160000000 -25.262892 -99.636551 -41.441444 -73.329277 -42.504951 -74.916794 -17.823019 118.23418
15180000000 -26.228466 -76.099136 -41.303272 -107.15154 -42.700165 -104.56795 -21.446379 98.146599
15200000000 -23.270887 -66.342873 -41.382111 -146.08066 -42.80994 -141.94238 -22.793238 88.673576
15220000000 -21.965588 -78.293633 -42.148609 177.26511 -44.049995 -172.44746 -21.762167 80.074944
15240000000 -22.467155 -86.711884 -42.013783 140.81905 -43.537148 157.73625 -24.111092 66.654762
15260000000 -23.585335 -85.951042 -42.565685 101.09864 -43.505199 120.93169 -23.305384 6.4915147
15280000000 -24.021435 -82.8274 -42.641621 67.532967 -43.252583 90.202705 -21.783091 41.398701
15300000000 -22.623735 -79.94136 -42.836781 31.228748 -43.225533 57.639057 -22.908792 3.4950895
15320000000 -22.153675 -88.899712 -43.173912 -7.2148833 -43.070587 22.711586 -22.677624 -1.284163
15340000000 -22.615334 -94.86557 -43.97892 -44.500797 -43.275967 -10.002754 -22.468975 -7.5183735
15360000000 -23.361963 -96.262878 -45.031414 -75.865913 -42.839954 -44.258678 -21.710304 -35.168701
15380000000 -23.127796 -96.444489 -44.245838 -104.68153 -42.350464 -80.410286 -18.039188 -48.99268
15400000000 -22.60067 -106.23257 -44.671631 -143.11052 -42.405769 -116.01614 -18.808363 -55.857418
15420000000 -23.327084 -119.0041 -44.962513 -175.45251 -42.781986 -148.29704 -18.749676 -73.051575
15440000000 -24.452562 -123.92983 -44.799553 147.95726 -42.226135 179.29015 -18.797321 -66.535301
15460000000 -24.886761 -120.07429 -45.877201 117.36783 -42.49033 137.70465 -18.391111 -73.990257
15480000000 -24.405689 -122.70982 -46.052395 86.791557 -42.490639 105.45848 -16.604801 -88.230118
15500000000 -24.010799 -137.06984 -47.199352 58.789066 -42.710766 68.505142 -15.54514 -92.294479
15520000000 -24.738724 -152.76825 -46.910736 32.650501 -42.833878 33.366421 -14.813217 -89.998985
15540000000 -26.621212 -169.39262 -46.021465 9.5946608 -43.461479 2.0168021 -15.568272 -117.7355
15560000000 -29.665102 -166.14601 -45.873028 -24.925741 -42.875111 -34.856003 -15.470013 -111.80459
15580000000 -29.065792 -149.41531 -45.689316 -49.893093 -43.465149 -70.138725 -14.796696 -119.14899
15600000000 -27.399288 -167.50679 -44.115917 -83.138695 -43.196758 -100.65041 -13.687722 -125.32322
15620000000 -27.577728 163.16039 -44.030945 -116.03544 -43.113293 -140.15958 -13.146361 -130.62787
15640000000 -27.902979 124.85246 -43.027412 -149.20038 -44.092869 -172.06284 -13.690362 -126.53683
15660000000 -29.382345 102.11591 -42.902668 177.21404 -44.861706 160.55322 -13.243391 -149.87839
15680000000 -34.096161 95.892921 -42.674595 138.64047 -44.004581 124.43748 -13.248475 -151.56714
15700000000 -32.849049 117.49054 -42.582706 105.01564 -44.528584 93.129364 -12.693109 -158.57961
15720000000 -28.079882 102.09961 -42.110657 73.085381 -43.920883 65.112312 -12.37354 -168.2283
15740000000 -25.495758 73.670311 -41.896507 34.661755 -43.705353 28.401823 -12.452539 -170.304
15760000000 -24.291143 58.88401 -41.506004 0.71613115 -43.300636 -2.1930068 -9.890646 161.58328
15780000000 -25.021643 52.385239 -41.601044 -34.351456 -43.447609 -33.984371 -12.476367 169.64273
15800000000 -26.00408 51.756115 -41.108303 -67.816414 -42.643875 -65.113663 -13.0776 163.82236
15820000000 -25.271454 57.78838 -40.546265 -106.7339 -41.932854 -100.08564 -12.74623 153.14999
15840000000 -22.998976 52.393936 -40.418941 -145.39227 -41.709213 -136.0119 -12.725442 143.66548
15860000000 -21.757526 40.157726 -40.684235 -179.95078 -41.051254 -170.66093 -14.119315 139.63431
15880000000 -21.932669 32.917839 -39.663311 145.40593 -40.47047 153.4173 -11.449743 117.74645
15900000000 -22.654184 31.843206 -39.421337 106.84352 -40.110161 116.78118 -15.325635 117.56483
15920000000 -22.448359 37.005085 -39.153713 70.124855 -40.144875 79.385635 -16.043312 110.35851
15940000000 -21.17445 37.19183 -38.672089 32.274673 -39.555824 46.533978 -15.526607 97.976868
15960000000 -19.772392 31.009384 -38.976521 -5.6897974 -39.061134 7.0730062 -16.272137 87.654732
15980000000 -19.407051 24.377596 -38.838425 -39.743603 -38.898079 -30.432581 -18.68264 69.686646
16000000000 -19.701252 23.726973 -38.862286 -74.468094 -38.952854 -66.482529 -18.808195 54.189899
16020000000 -19.517281 25.331568 -38.324444 -109.38597 -38.316101 -100.98119 -24.295717 56.480247
16040000000 -18.590971 27.488594 -38.493416 -148.213 -38.885632 -141.67215 -21.293272 37.036545
16060000000 -17.477016 24.881371 -38.37244 176.5827 -38.352375 -177.46532 -18.791418 24.293268
16080000000 -16.551409 19.697699 -38.497677 141.11551 -38.138523 144.93968 -19.395922 4.3048892
16100000000 -16.415716 17.346836 -38.37167 104.9809 -37.93779 107.21444 -18.41338 -17.531988
16120000000 -16.075233 16.610088 -38.452553 68.129768 -38.087437 70.276543 -17.10441 -27.736395
16140000000 -15.800775 18.458115 -38.50827 31.523382 -38.803055 32.689339 -22.085037 -69.253769
16160000000 -15.107363 16.659607 -38.455318 -5.2061892 -38.351067 -1.2148896 -18.804316 -44.614876
16180000000 -14.207023 12.969782 -38.68264 -42.145695 -37.882 -41.591003 -16.735025 -50.73563
16200000000 -13.626133 9.3907375 -38.648598 -79.543678 -37.786625 -79.841835 -15.547385 -64.354568
16220000000 -13.241624 6.5048819 -38.609539 -119.04587 -38.097996 -118.42094 -15.009132 -74.579063
16240000000 -12.929923 4.7276144 -39.252914 -155.07886 -37.912048 -154.04602 -13.537838 -73.0196
16260000000 -12.830731 3.6661613 -39.097172 168.0446 -39.109959 167.79095 -16.023081 -93.468018
16280000000 -12.383717 1.2950635 -38.789776 129.92314 -38.408585 132.11157 -14.134459 -88.454079
16300000000 -11.675974 -2.0491109 -39.340981 91.669273 -38.713066 90.250389 -13.220387 -95.86969
16320000000 -11.117459 -5.6100483 -39.323517 54.22646 -39.160423 51.099167 -13.022519 -108.43184
16340000000 -10.77009 -9.1710091 -39.970253 17.47608 -39.538937 14.850998 -12.237186 -111.63541
16360000000 -10.641375 -11.450563 -40.007542 -16.637333 -39.782959 -23.75334 -11.765468 -109.42381
16380000000 -10.577122 -12.284477 -40.30278 -53.17923 -41.203915 -56.892471 -12.705338 -123.87209
16400000000 -10.038314 -13.856903 -40.459324 -88.75602 -41.193821 -96.894051 -11.568994 -123.634
16420000000 -9.4530287 -16.922184 -40.860573 -123.7561 -42.292419 -129.96411 -11.096791 -131.83469
16440000000 -9.0509615 -20.891579 -41.384174 -156.67509 -42.641712 -165.92903 -11.329098 -141.50854
16460000000 -8.9807186 -23.997072 -41.5107 170.40982 -43.117874 162.4762 -10.793137 -141.70317
16480000000 -8.9528036 -24.296299 -41.569538 136.5961 -43.287739 128.0979 -10.934613 -143.6488
16500000000 -8.6689425 -24.986345 -41.464478 101.85127 -43.518864 93.264992 -10.626646 -150.64474
16520000000 -8.0718222 -27.460213 -42.05608 69.365486 -44.87944 63.375706 -9.994072 -154.60237
16540000000 -7.6401052 -31.428566 -41.783268 34.970509 -43.912758 31.953894 -10.08076 -163.86932
16560000000 -7.5316639 -34.275097 -41.541386 -2.2963202 -43.665379 -5.189898 -10.138977 -170.60794
16580000000 -7.4367137 -34.787296 -41.976994 -40.08316 -43.609852 -40.445065 -10.016258 -172.22519
16600000000 -7.1480427 -35.129398 -42.195145 -73.452568 -43.843391 -73.680374 -10.311372 -177.81219
16620000000 -6.6956286 -38.048347 -42.443111 -112.77506 -43.037132 -109.77187 -10.377124 174.72444
16640000000 -6.267231 -41.045761 -42.664936 -145.56044 -43.088745 -143.19923 -9.0832376 175.1591
16660000000 -6.0489421 -43.97192 -42.653816 179.41423 -42.772572 175.70943 -9.5357666 162.19182
16680000000 -5.8144264 -45.242336 -42.980129 141.01321 -43.143192 138.34708 -9.7781858 156.5713
16700000000 -5.4131436 -46.46365 -43.123642 104.91895 -43.426201 105.08147 -10.373225 151.57538
16720000000 -4.9656038 -48.989403 -43.192719 66.387383 -42.468777 68.360153 -10.2796 146.01932
16740000000 -4.7316437 -53.968769 -43.823818 32.447338 -43.953358 30.04393 -9.0155373 154.37967
16760000000 -4.3666697 -55.924488 -43.5947 -7.1735806 -43.503288 -8.1582088 -10.217484 137.28476
16780000000 -4.036303 -58.309605 -44.115776 -39.484455 -44.239841 -45.403416 -10.485863 122.63145
16800000000 -3.6265841 -60.624931 -43.572594 -78.429848 -43.511734 -79.464165 -11.243033 114.73762
16820000000 -3.2728138 -63.671242 -44.54002 -119.71603 -44.042553 -120.97254 -11.586692 111.07762
16840000000 -2.9831066 -67.148193 -44.785381 -149.33356 -44.786678 -156.60912 -12.199528 100.9826
16860000000 -2.8321424 -71.770821 -44.469971 172.79976 -45.433506 167.90353 -12.903969 84.334145
16880000000 -2.4648349 -73.896935 -45.368053 136.51379 -45.657085 131.02365 -12.980929 85.615868
16900000000 -2.1204979 -76.95488 -44.9128 99.018478 -45.33633 94.625725 -13.286299 71.900909
16920000000 -1.8978434 -80.371765 -45.166931 61.687618 -45.780331 54.835434 -14.581427 65.508232
16940000000 -1.6725874 -83.886009 -45.580063 24.771109 -46.474354 20.764067 -15.127171 61.281853
16960000000 -1.4849888 -87.470772 -45.868748 -12.450008 -46.305565 -17.12747 -15.627747 45.086857
16980000000 -1.2592328 -90.941902 -45.292477 -49.281029 -46.422878 -49.542267 -14.973088 31.639244
