!Keysight Technologies,P9374A,MY57211810,A.19.30.04
!Date: Friday, May 09, 2025 09:20:41
!Correction: S11(Cdelta 2-Port  ) 
!S21(Cdelta 2-Port  ) 
!S12(Cdelta 2-Port  ) 
!S22(Cdelta 2-Port  ) 
!S2P File: Measurements: S11, S21, S12, S22:
# Hz S  dB   R 50
13000000000 -19.540705 -80.32753 -44.22884 14.237694 -44.39307 8.5667477 -16.688604 -21.984526
13020000000 -19.619089 -83.352112 -44.71524 -25.979355 -44.714176 -30.279657 -15.939079 -28.150669
13040000000 -20.676195 -85.949585 -45.04195 -65.264076 -44.744209 -68.984734 -15.079714 -39.362343
13060000000 -21.706854 -83.451721 -45.120461 -105.16076 -44.550068 -109.28727 -13.276237 -40.972454
13080000000 -21.669399 -77.246902 -45.683685 -145.94908 -44.744114 -150.39146 -12.807898 -50.631504
13100000000 -20.29434 -77.932541 -45.413757 171.60622 -44.849487 166.44916 -11.91246 -56.053074
13120000000 -19.63587 -83.137596 -47.027092 130.48459 -46.290398 124.924 -11.37736 -60.810261
13140000000 -20.021769 -88.251053 -46.547207 91.644638 -46.269718 84.849335 -10.388375 -66.993507
13160000000 -20.996986 -88.814034 -47.204781 42.764107 -47.106258 40.360188 -9.9451323 -75.78112
13180000000 -21.172981 -85.656021 -47.600693 1.1542459 -47.846565 2.211494 -8.9632435 -79.137001
13200000000 -20.689253 -86.159424 -48.577263 -47.604759 -48.844543 -38.740318 -8.7839537 -87.860352
13220000000 -19.668167 -91.732559 -48.587574 -93.872322 -49.694344 -77.167526 -8.5040598 -98.716331
13240000000 -19.517832 -97.808975 -48.757042 -138.23341 -49.396858 -113.18551 -8.1933651 -96.950592
13260000000 -20.1367 -103.93124 -47.925056 172.43213 -47.56292 -159.52487 -7.4777241 -109.10218
13280000000 -21.249388 -102.77825 -48.585411 119.86862 -48.051197 155.4236 -7.2942915 -116.42048
13300000000 -21.367373 -100.53236 -49.467869 75.884041 -48.212753 116.13674 -7.1891656 -123.72083
13320000000 -20.435211 -102.22919 -48.455177 39.705772 -46.576149 75.930611 -7.1619115 -130.62439
13340000000 -20.134785 -112.58368 -47.904488 -7.2153521 -46.553349 26.412848 -8.2495556 -138.7195
13360000000 -20.833607 -118.46738 -46.753529 -54.987465 -45.187984 -23.843178 -7.1980295 -144.0108
13380000000 -22.549326 -117.83697 -46.472298 -101.08131 -45.251965 -69.672867 -7.488184 -152.59242
13400000000 -22.826914 -110.99073 -45.905987 -139.929 -44.398266 -113.32034 -7.5161886 -158.91342
13420000000 -22.497627 -115.87022 -45.628399 172.51367 -44.802498 -160.64938 -7.9639921 -165.04619
13440000000 -22.29212 -125.15039 -46.17358 139.76945 -45.017296 163.45432 -8.3585558 -171.68338
13460000000 -23.823864 -131.8902 -44.63876 104.75312 -44.39188 121.16129 -9.5333147 -173.37621
13480000000 -25.000175 -130.38362 -44.431568 55.965679 -44.450008 72.198616 -9.146863 176.4902
13500000000 -26.148994 -126.50547 -43.885223 20.336998 -44.081188 36.725353 -9.3463497 169.42038
13520000000 -26.112095 -129.24432 -43.538773 -22.225197 -44.230469 -5.7254124 -9.9641857 163.80067
13540000000 -26.46735 -135.86955 -44.232811 -59.032726 -45.010994 -40.218998 -10.371787 160.27441
13560000000 -27.196226 -139.42027 -43.448746 -92.944611 -44.183498 -73.787216 -10.996138 150.39534
13580000000 -28.229887 -135.83327 -42.348988 -133.40227 -43.690136 -111.91177 -11.62829 150.50446
13600000000 -28.957781 -132.31105 -42.698544 179.95139 -44.522835 -154.80019 -11.902856 141.61887
13620000000 -29.840321 -128.98848 -43.649872 145.91783 -44.122063 178.2757 -12.573903 134.56404
13640000000 -30.215315 -124.26344 -43.016361 108.91216 -42.778469 137.84665 -12.965314 128.96373
13660000000 -29.341146 -120.87964 -43.560791 70.507202 -42.704632 99.190079 -13.690042 128.4039
13680000000 -28.572647 -124.548 -44.675591 35.046776 -43.620068 68.348907 -14.714269 118.51382
13700000000 -28.639494 -128.40105 -44.201843 3.2806807 -42.221725 28.976326 -14.90277 113.67617
13720000000 -31.125925 -124.33163 -44.047489 -34.571346 -42.229912 -15.171418 -15.779101 102.02905
13740000000 -31.268856 -111.31167 -44.124355 -65.897118 -42.323502 -47.668049 -16.29623 94.546318
13760000000 -28.44379 -111.15085 -43.724682 -105.49275 -41.85685 -86.585739 -16.98473 90.12355
13780000000 -27.161755 -127.35188 -45.369358 -134.52292 -42.60601 -119.077 -18.36491 85.662666
13800000000 -27.358898 -144.83821 -44.381042 -164.45924 -41.558609 -155.93167 -18.465477 74.358437
13820000000 -30.968857 -144.66205 -43.153202 164.16914 -41.913933 166.3239 -19.0966 64.231934
13840000000 -32.425545 -124.56321 -43.60751 124.64352 -42.810581 129.86163 -20.015793 44.858479
13860000000 -29.275871 -124.33116 -43.280499 91.351318 -42.415386 98.017456 -19.677563 35.0135
13880000000 -28.307623 -149.33553 -43.295128 58.211285 -42.742798 64.22612 -20.673342 21.731058
13900000000 -27.777798 178.92917 -42.816147 25.172602 -42.280666 34.575127 -20.38921 6.3312898
13920000000 -29.702642 161.41357 -42.182869 -10.859151 -41.680119 -1.9621115 -19.610212 -9.5441513
13940000000 -31.935125 163.45615 -42.038357 -47.007423 -42.342838 -35.859932 -19.868706 -18.219517
13960000000 -32.512882 -175.74402 -41.597549 -77.538757 -41.13332 -63.708065 -17.819981 -30.921062
13980000000 -30.760847 175.13028 -41.44791 -112.74848 -40.513332 -99.417801 -17.193283 -42.212982
14000000000 -28.910261 145.34576 -41.06356 -147.2644 -40.071232 -131.85886 -16.779045 -56.21413
14020000000 -28.050741 118.82898 -40.875862 178.06503 -39.160393 -166.44652 -15.824229 -66.431847
14040000000 -29.784142 98.313683 -40.358971 144.39044 -38.470562 157.40268 -14.427926 -73.007103
14060000000 -32.812473 92.796875 -40.079742 109.11682 -38.494633 122.57238 -15.24017 -81.473824
14080000000 -34.688313 101.06873 -39.340088 76.146423 -36.826546 88.477623 -13.415967 -89.107628
14100000000 -31.299505 86.406776 -38.945137 38.168278 -36.229416 46.407524 -12.883945 -99.915924
14120000000 -27.992222 72.225395 -38.773815 5.1794028 -36.267246 10.752733 -12.67542 -108.15126
14140000000 -26.622511 51.30352 -37.596806 -29.502945 -35.348129 -24.77182 -11.873697 -116.96094
14160000000 -26.842112 35.534935 -37.171844 -70.892929 -35.469734 -64.829201 -11.667047 -123.00657
14180000000 -28.399031 30.967207 -37.389736 -100.47984 -35.094849 -98.376427 -11.571627 -131.24327
14200000000 -28.307755 27.440237 -36.308964 -137.505 -34.032944 -136.64514 -10.603883 -139.26949
14220000000 -27.42272 34.341324 -35.813427 -176.02666 -33.655865 -175.04272 -10.651269 -148.03499
14240000000 -25.06101 30.950378 -35.555367 147.89757 -33.578526 146.42044 -10.664627 -157.04965
14260000000 -24.124752 16.197599 -34.875576 111.21465 -32.912922 110.51593 -10.059986 -163.1821
14280000000 -25.066378 4.1888542 -34.557739 71.841545 -32.999111 72.831314 -10.478572 -167.68324
14300000000 -27.090366 -1.8224326 -34.049622 33.422092 -32.111351 33.713593 -9.9147921 -178.2551
14320000000 -27.295601 10.70494 -31.670124 -7.5617061 -31.641552 -4.7039585 -10.007063 172.69116
14340000000 -25.37751 9.925806 -31.744106 -47.766869 -31.496683 -43.692135 -10.420352 164.81447
14360000000 -24.065378 0.99676943 -31.556675 -86.36097 -31.193018 -82.571182 -10.344792 157.25363
14380000000 -24.42514 -11.417255 -31.663359 -124.42105 -31.006067 -120.72379 -10.361475 153.56769
14400000000 -26.297619 -15.37724 -31.590332 -163.70329 -30.862106 -160.82455 -10.605976 146.06091
14420000000 -26.550364 -12.136355 -31.72357 159.68611 -31.03005 160.787 -11.599235 138.6581
14440000000 -25.998333 -3.1584332 -31.581144 120.85175 -30.648605 121.37579 -10.994786 129.10004
14460000000 -24.444998 -6.486568 -31.63938 82.898979 -30.78763 82.88829 -11.592914 121.95824
14480000000 -23.757338 -13.417244 -31.925274 46.578239 -30.980713 44.503815 -11.917296 115.95261
14500000000 -24.413094 -18.857166 -31.850811 10.134942 -31.048689 6.9538708 -12.313663 111.91887
14520000000 -24.753361 -17.675102 -31.884249 -27.0529 -31.152119 -30.954765 -12.941426 105.45522
14540000000 -25.036177 -9.6517935 -31.76885 -63.436272 -31.474916 -67.878883 -13.779169 93.401115
14560000000 -23.591164 -6.5055428 -31.78974 -100.83346 -31.451998 -107.1441 -13.181838 88.131096
14580000000 -22.046032 -11.379635 -31.674519 -136.29729 -31.656719 -142.58466 -13.925581 80.441704
14600000000 -22.03446 -17.408573 -31.350895 -174.21129 -31.481716 -179.10924 -14.706863 74.558083
14620000000 -22.947548 -19.81732 -31.387486 148.7957 -31.620607 143.52075 -14.780044 68.581947
14640000000 -22.876177 -16.715059 -31.303831 111.36498 -31.655094 108.23501 -16.381418 58.104248
14660000000 -21.946213 -13.521405 -31.016279 73.762756 -31.534769 70.52079 -15.349695 51.584129
14680000000 -20.51965 -17.556578 -30.978844 35.262234 -31.478966 32.764519 -16.249466 42.295467
14700000000 -19.910227 -26.33522 -30.977913 -2.0166583 -31.476709 -3.8276789 -17.336136 32.777832
14720000000 -20.599083 -32.508533 -30.596514 -39.038895 -31.202246 -40.768917 -17.44302 26.660084
14740000000 -21.473137 -34.511059 -30.635378 -78.353371 -31.339146 -78.793556 -18.477755 18.333988
14760000000 -20.975893 -30.398024 -30.608641 -115.41005 -31.2272 -114.1026 -19.114021 -6.6769285
14780000000 -19.712734 -32.888931 -30.311272 -153.5271 -30.814421 -151.93744 -18.72127 -1.2643914
14800000000 -18.643456 -40.437031 -30.221416 166.04338 -30.683109 168.31522 -19.43084 -22.268929
14820000000 -18.957623 -51.429443 -30.425774 127.44129 -30.710978 130.48872 -20.066658 -29.21092
14840000000 -20.074501 -58.494137 -30.34214 89.307487 -30.651371 91.824562 -20.222578 -35.360538
14860000000 -20.770546 -53.472034 -30.269749 49.685429 -30.549292 53.378735 -21.082771 -54.016228
14880000000 -19.628574 -49.52013 -30.394573 10.993889 -30.361961 14.782406 -18.992548 -75.300827
14900000000 -18.421959 -56.046814 -30.327486 -28.783278 -30.127193 -25.395811 -19.685791 -84.187462
14920000000 -18.380409 -66.8862 -30.426949 -67.906136 -30.227283 -65.956215 -20.012075 -115.25836
14940000000 -19.798738 -76.59269 -30.643959 -105.94691 -30.318525 -104.28686 -21.265343 -108.68952
14960000000 -21.627916 -73.915665 -30.535353 -145.22409 -30.323784 -144.86916 -21.640545 -116.37235
14980000000 -21.448315 -64.146561 -30.71394 174.03497 -30.578424 174.90849 -20.606823 -132.70699
15000000000 -20.126326 -67.999001 -30.908651 134.91898 -30.745272 135.3647 -19.550753 -142.87416
15020000000 -19.793341 -78.793816 -31.022024 95.611137 -30.80368 95.831551 -20.219852 -144.44843
15040000000 -21.328733 -90.778709 -31.244635 55.875622 -30.937103 55.637276 -17.438953 176.09366
15060000000 -23.630152 -90.159821 -31.361111 16.851622 -31.148525 15.948794 -21.043848 172.20616
15080000000 -24.053551 -78.743469 -31.479702 -22.547268 -31.334337 -23.330761 -21.929024 162.59105
15100000000 -23.071941 -76.85041 -31.635851 -63.538559 -31.592709 -64.3554 -21.910839 154.92567
15120000000 -22.322268 -82.439713 -32.048496 -103.89635 -32.003548 -105.02035 -21.603733 141.77541
15140000000 -22.584717 -87.412422 -32.419121 -143.04927 -32.40202 -144.0513 -27.090004 122.78922
15160000000 -23.983494 -90.812889 -32.66637 177.16678 -32.625893 177.1041 -19.156221 110.72501
15180000000 -25.011036 -87.119942 -33.080036 138.04875 -32.846294 137.14758 -22.671816 82.390846
15200000000 -24.851341 -73.061317 -33.148705 99.265083 -33.004238 96.72937 -23.597034 66.875542
15220000000 -23.174673 -71.86409 -33.513271 59.082272 -33.60717 56.542221 -22.152851 60.307831
15240000000 -21.842361 -79.711731 -33.925854 20.270136 -34.254063 16.801302 -23.481258 40.235153
15260000000 -22.310953 -89.145966 -34.116493 -17.275021 -34.420132 -19.808882 -20.452965 -4.1643825
15280000000 -23.884457 -93.097054 -34.304016 -56.801323 -34.592461 -59.942116 -20.35429 23.838169
15300000000 -24.291245 -81.926575 -34.520718 -95.254044 -34.987873 -99.181946 -20.154251 -7.3542576
15320000000 -22.827223 -80.738411 -34.484264 -134.39117 -35.223011 -137.83788 -19.887133 -11.675905
15340000000 -21.793036 -87.816139 -34.714355 -173.37503 -35.411312 -176.56538 -19.271551 -16.561485
15360000000 -21.662672 -98.406845 -34.648949 147.32391 -35.694618 143.97437 -18.522963 -37.385918
15380000000 -22.930534 -108.64224 -34.860344 107.67912 -35.84808 105.75685 -15.856086 -47.761356
15400000000 -24.387699 -113.97354 -35.18211 69.966888 -36.211609 68.914619 -16.377199 -53.11945
15420000000 -25.381237 -110.11382 -35.098003 31.456959 -36.03886 31.258787 -16.384567 -67.928749
15440000000 -23.901266 -108.51468 -34.615257 -7.2428522 -36.146862 -5.6736622 -16.405392 -63.697395
15460000000 -22.570101 -117.49979 -34.682076 -48.925777 -35.93557 -45.387909 -15.986922 -70.051704
15480000000 -22.853607 -134.68173 -34.615749 -87.749626 -35.804764 -83.208321 -14.657135 -82.357758
15500000000 -24.866648 -154.7449 -34.706722 -127.35019 -35.586922 -121.92154 -13.914968 -87.330048
15520000000 -28.005339 -158.82799 -34.625435 -167.16289 -35.254723 -160.05934 -13.281274 -86.487808
15540000000 -28.907747 -146.25104 -34.874584 154.98161 -35.673901 160.50925 -14.341208 -110.52406
15560000000 -26.584688 -145.40758 -34.752544 114.42512 -34.991844 122.08429 -13.967762 -105.50546
15580000000 -25.542082 -161.39438 -34.67646 74.93026 -34.660999 80.899696 -13.461795 -113.18972
15600000000 -26.246271 169.47849 -34.667961 34.991558 -34.433342 40.212536 -12.577889 -120.00913
15620000000 -28.938131 138.90047 -34.883926 -2.6186271 -34.505939 0.2760267 -12.262833 -125.80569
15640000000 -31.801781 111.71667 -34.66119 -39.582832 -34.196903 -37.994537 -12.763005 -122.60214
15660000000 -33.894127 118.48116 -34.513149 -77.338882 -34.801769 -75.501221 -12.663077 -145.21646
15680000000 -32.679977 134.68327 -34.361225 -116.77013 -34.193523 -117.231 -12.703923 -147.09988
15700000000 -28.911057 120.74025 -34.18858 -154.97044 -34.272884 -156.96275 -12.328224 -154.02814
15720000000 -26.165007 93.839432 -33.888996 166.7724 -34.08815 165.05209 -12.204249 -164.39648
15740000000 -24.519445 63.775703 -33.526878 127.19846 -33.720329 125.06459 -12.36891 -166.85843
15760000000 -24.796682 47.127071 -33.684551 87.134682 -33.827312 85.151512 -10.076157 163.83766
15780000000 -27.27696 50.155624 -33.180115 49.050571 -33.731373 49.349895 -12.712805 172.46523
15800000000 -26.661282 66.723389 -33.265324 8.1289177 -33.65501 7.1023755 -13.412502 166.54059
15820000000 -23.620232 65.146233 -33.423817 -31.114141 -33.752316 -31.14459 -13.303603 155.36267
15840000000 -21.791454 48.13142 -33.117367 -68.892685 -33.602341 -69.790077 -13.415568 145.13673
15860000000 -21.555183 32.872395 -33.033905 -109.68822 -33.414204 -109.44451 -14.892726 140.10283
15880000000 -22.602306 30.052546 -33.130108 -150.6803 -33.294346 -150.40677 -12.074822 116.25586
15900000000 -23.229456 36.615475 -33.360462 170.62099 -33.593437 170.62344 -16.480482 115.2728
15920000000 -22.249287 41.933159 -33.470665 131.85594 -33.997627 130.24789 -17.351717 106.76556
15940000000 -20.769264 37.977783 -33.658527 93.674698 -33.816872 94.552376 -16.696705 91.836159
15960000000 -19.673048 29.322304 -33.730103 54.558895 -33.86776 53.655781 -17.482111 78.11544
15980000000 -19.494291 23.728685 -33.995052 15.580689 -33.917953 15.17986 -19.683727 52.568745
16000000000 -19.82144 23.000687 -34.309868 -21.278345 -34.238091 -23.468025 -19.19401 36.276306
16020000000 -19.761175 25.726446 -34.276283 -59.827614 -34.1534 -63.381329 -24.754576 18.546919
16040000000 -18.64835 28.293287 -34.727497 -97.606697 -35.422245 -102.30611 -21.100014 11.0195
16060000000 -17.324554 25.230547 -34.733185 -133.92905 -35.126366 -140.23679 -18.213655 1.8640519
16080000000 -16.424007 18.956446 -34.740963 -171.00966 -35.414055 -177.09682 -17.843382 -17.307755
16100000000 -16.467768 16.376781 -34.59634 149.94565 -35.422516 144.20499 -16.37569 -34.206482
16120000000 -16.30341 16.600809 -34.860245 111.64382 -35.662052 105.82614 -15.184864 -42.024464
16140000000 -15.854344 19.562696 -34.952461 72.322006 -37.200386 67.095398 -18.185423 -77.828339
16160000000 -14.899975 17.315083 -35.239506 34.379696 -37.183674 34.616039 -16.205757 -58.237309
16180000000 -14.007585 12.058062 -35.509937 -2.7217278 -36.864487 -4.8900638 -14.56327 -64.275925
16200000000 -13.588503 8.0570173 -35.619362 -40.930016 -37.114113 -41.70507 -13.384772 -74.16095
16220000000 -13.456102 6.2442937 -35.821651 -80.211403 -37.352318 -78.552757 -12.895534 -82.77282
16240000000 -13.128237 5.6586599 -36.366291 -118.11069 -37.238499 -114.27384 -11.841626 -81.620758
16260000000 -12.762423 5.6414318 -36.918892 -158.12152 -38.598637 -151.36578 -13.845519 -99.513687
16280000000 -12.059459 1.493983 -37.073559 164.84966 -37.786545 172.64349 -12.112379 -95.773727
16300000000 -11.466378 -3.8559868 -37.945568 127.70402 -38.096561 132.74193 -11.490491 -102.84503
16320000000 -11.366496 -7.463685 -38.389694 90.882858 -38.200455 92.359528 -11.265822 -113.69717
16340000000 -11.15715 -8.1857977 -38.789661 55.954353 -38.62989 56.846458 -10.624898 -116.62389
16360000000 -10.611624 -8.5752535 -39.261929 20.873131 -38.724106 17.924044 -10.406953 -115.37138
16380000000 -10.150812 -11.229747 -39.548752 -13.172009 -39.592789 -14.951544 -11.210357 -127.49493
16400000000 -9.8176451 -16.08461 -39.784801 -51.047516 -39.577259 -58.793613 -10.262881 -128.69032
16420000000 -9.7107096 -19.136311 -40.083038 -85.492859 -40.184017 -96.262413 -9.8921919 -135.56209
16440000000 -9.4314079 -20.317518 -40.103481 -120.09822 -41.131603 -136.05109 -10.18857 -144.4066
16460000000 -8.9832611 -21.546169 -39.93729 -157.64137 -41.716042 -169.27936 -9.7917852 -144.87892
16480000000 -8.6420536 -23.75428 -40.074059 165.32973 -41.797703 153.15172 -9.9604578 -147.03423
16500000000 -8.484561 -26.506685 -40.17804 124.52686 -42.319996 116.00303 -9.7159672 -153.49135
16520000000 -8.1974707 -28.969137 -40.812527 88.25032 -43.337509 81.876694 -9.2093744 -156.93083
16540000000 -7.830503 -31.22724 -41.10078 49.906925 -43.504131 44.95969 -9.3093519 -165.7513
16560000000 -7.5963898 -32.960087 -41.747059 10.844983 -43.85627 6.0557294 -9.4326544 -171.83453
16580000000 -7.292881 -33.887585 -42.264267 -24.188755 -44.215157 -26.674952 -9.3815355 -173.62146
16600000000 -7.0050244 -35.651196 -42.583725 -61.102116 -44.172432 -67.026466 -9.6697035 -179.30505
16620000000 -6.7110987 -39.381493 -43.082935 -96.273483 -44.808727 -105.44303 -9.7350187 173.34061
16640000000 -6.4322605 -41.54007 -43.247238 -131.98329 -45.635296 -139.14569 -8.5699987 174.28578
16660000000 -6.1346488 -43.067856 -43.814777 -167.03078 -45.889702 -178.43112 -9.0654821 161.61322
16680000000 -5.7056475 -44.410946 -43.936363 153.89996 -46.435154 140.49564 -9.3182573 156.13541
16700000000 -5.2858114 -46.809166 -44.538048 116.69158 -48.186962 99.738892 -9.9505339 151.14734
16720000000 -4.9721737 -49.855049 -44.828186 81.787186 -49.07317 68.898323 -9.9322224 145.4528
16740000000 -4.8305149 -54.180027 -44.640759 45.170048 -50.390938 36.586102 -8.7616005 153.59383
16760000000 -4.4176574 -55.444088 -44.933891 0.54067224 -50.843319 -1.2613313 -9.9384613 136.76044
16780000000 -3.982656 -58.033871 -45.821323 -38.419239 -52.327778 -41.300777 -10.274903 122.62863
16800000000 -3.5748813 -60.767197 -46.772629 -80.353783 -53.650066 -72.650635 -11.087121 114.1498
16820000000 -3.2729445 -63.925297 -48.121082 -114.76703 -54.624634 -96.704384 -11.449114 110.50921
16840000000 -3.0081494 -67.298332 -48.131084 -149.98036 -53.539768 -129.88077 -12.068702 100.26759
16860000000 -2.8547852 -71.7715 -48.804703 166.46422 -54.2505 -172.11909 -12.844976 83.107742
16880000000 -2.4776545 -73.836792 -51.557941 124.44704 -57.297062 153.57037 -12.992381 84.401566
16900000000 -2.1220713 -76.851608 -52.965115 98.891258 -55.89262 128.62862 -13.315739 70.204575
16920000000 -1.8773062 -80.334381 -53.378525 54.3447 -55.420044 72.511673 -14.748928 62.489231
16940000000 -1.652463 -84.087303 -56.80875 29.36087 -59.155739 39.018078 -15.286598 57.62225
16960000000 -1.493572 -87.702209 -55.618481 7.8944802 -59.500751 0.77477902 -15.657063 40.699036
16980000000 -1.290619 -91.005463 -54.917797 -29.344795 -62.075214 -38.119377 -14.987917 26.685841
