!Keysight Technologies,P9374A,MY57211810,A.19.30.04
!Date: Friday, May 09, 2025 09:14:41
!Correction: S11(Cdelta 2-Port  ) 
!S21(Cdelta 2-Port  ) 
!S12(Cdelta 2-Port  ) 
!S22(Cdelta 2-Port  ) 
!S2P File: Measurements: S11, S21, S12, S22:
# Hz S  dB   R 50
13000000000 -20.087593 -84.2323 -48.183117 76.07341 -48.059948 86.321602 -15.179788 -59.277977
13020000000 -20.428976 -82.638313 -49.435822 37.000668 -49.890156 46.117577 -14.608479 -61.231525
13040000000 -20.583866 -82.215424 -51.55822 6.6153598 -51.522854 11.627938 -13.735877 -67.228645
13060000000 -20.976368 -82.015076 -54.788498 -12.971078 -53.224808 -10.122761 -12.382086 -63.193951
13080000000 -20.965729 -81.538315 -55.838936 -24.80768 -55.517998 -36.97147 -11.834478 -70.263107
13100000000 -20.361557 -82.842377 -55.348106 -15.22588 -55.776093 -39.52961 -11.11691 -73.283913
13120000000 -20.280201 -86.103432 -51.643288 -33.978573 -54.471859 -56.020988 -10.730789 -75.020004
13140000000 -20.704132 -84.512581 -48.490723 -64.265678 -50.345974 -82.928253 -9.7943335 -79.785393
13160000000 -20.811541 -82.759323 -46.316422 -100.49618 -48.906765 -118.19518 -9.35744 -86.215363
13180000000 -19.901018 -84.653336 -45.237667 -140.73834 -47.684616 -154.00758 -8.5005627 -87.447678
13200000000 -20.102692 -92.739059 -43.965477 -177.78571 -46.433968 174.70538 -8.2557449 -94.554352
13220000000 -20.258022 -97.871246 -43.547268 139.43033 -45.448387 138.10463 -8.1224566 -104.1062
13240000000 -21.04701 -94.836784 -43.612041 110.15672 -44.183933 109.97607 -7.7033949 -100.73452
13260000000 -20.322317 -94.38987 -43.25415 72.098434 -43.120884 71.09333 -6.9841051 -112.19316
13280000000 -19.917782 -96.827789 -42.941143 36.013798 -42.333027 38.565754 -6.8128419 -118.0259
13300000000 -20.361446 -108.41698 -42.580338 -0.25851804 -40.822159 0.41497993 -6.6976938 -124.69029
13320000000 -21.223242 -112.27325 -41.557449 -35.637688 -40.071888 -36.816204 -6.698276 -131.13475
13340000000 -21.949829 -113.19124 -41.537651 -75.449333 -40.497311 -79.253693 -7.8455319 -138.72363
13360000000 -21.478987 -108.92645 -40.305054 -116.36069 -39.295162 -117.15144 -6.8205471 -143.63695
13380000000 -21.178837 -112.58477 -40.35601 -154.73569 -39.597424 -157.27432 -7.1409569 -151.91449
13400000000 -21.316481 -120.3431 -39.701057 168.65848 -39.887047 169.46861 -7.3043985 -157.56532
13420000000 -22.727381 -127.85819 -39.159088 131.12692 -39.220852 135.84003 -7.8422732 -163.0419
13440000000 -23.843559 -127.38972 -38.601536 91.823967 -38.726368 97.558144 -8.3969135 -169.55328
13460000000 -24.364065 -121.30706 -38.460049 56.438068 -39.113297 64.156464 -9.7084122 -170.23123
13480000000 -24.095961 -122.76971 -37.985168 13.339546 -38.101238 22.203899 -9.404644 -179.50055
13500000000 -24.503771 -129.84256 -37.908901 -24.91955 -37.83844 -17.966957 -9.7884064 174.39934
13520000000 -26.043875 -139.03938 -37.675339 -61.981667 -38.059242 -56.740597 -10.538836 169.91368
13540000000 -27.577635 -137.12245 -37.614677 -101.30592 -38.019283 -92.760719 -11.095695 167.48883
13560000000 -27.990911 -135.01053 -37.635609 -136.74306 -37.659081 -131.50378 -12.031956 158.6481
13580000000 -27.888603 -130.58171 -37.76421 -173.05737 -37.960873 -166.7509 -12.76072 160.35498
13600000000 -28.382051 -128.38605 -37.861687 148.48154 -37.608547 152.11902 -13.145238 152.54449
13620000000 -29.300301 -129.18909 -38.175247 113.77631 -37.953602 116.04169 -14.122699 146.99901
13640000000 -30.363424 -127.45023 -38.197338 80.195686 -38.010075 78.761002 -14.760869 142.89619
13660000000 -29.886715 -123.64034 -38.402294 44.277439 -38.163864 42.895359 -15.487605 144.66368
13680000000 -30.895935 -126.34399 -38.399467 12.324849 -39.015099 11.087903 -17.194941 134.1188
13700000000 -30.402311 -118.40703 -37.972477 -22.682308 -38.794014 -23.705564 -17.478546 133.20209
13720000000 -29.566809 -113.97166 -37.665234 -61.112129 -38.81934 -60.740414 -19.018803 122.75567
13740000000 -28.559797 -125.76758 -37.950634 -96.335617 -38.769291 -92.272705 -20.202326 115.64061
13760000000 -28.823692 -133.75224 -37.941219 -132.4122 -38.643948 -126.62733 -21.1984 114.18403
13780000000 -30.329786 -135.02095 -38.254063 -167.46312 -37.999496 -163.04587 -23.670799 114.62823
13800000000 -29.386963 -127.11308 -38.138298 157.12094 -37.70311 159.35959 -24.792524 100.35266
13820000000 -28.20973 -122.43957 -38.264717 120.50929 -37.737 117.45125 -26.400333 87.859573
13840000000 -27.573042 -136.48181 -38.936237 83.949562 -38.414845 77.376442 -29.725018 46.467396
13860000000 -29.269297 -154.31798 -39.118706 51.322956 -38.198551 43.573456 -29.233845 20.665855
13880000000 -32.28059 -164.34657 -39.065094 17.405838 -38.556934 5.6828775 -30.459591 -14.771966
13900000000 -31.954239 -168.78745 -38.933411 -17.146976 -39.436195 -24.327192 -26.687628 -37.405685
13920000000 -30.411871 -169.52934 -38.481339 -52.667263 -38.62233 -55.605862 -23.496555 -49.677673
13940000000 -28.822741 -179.93869 -38.64743 -91.527412 -39.594707 -93.871048 -23.602516 -55.126133
13960000000 -29.370596 167.97185 -38.721287 -126.1646 -38.543102 -120.75346 -19.876503 -61.328358
13980000000 -31.354832 143.34549 -38.671318 -164.14687 -37.721996 -158.99818 -18.747925 -70.138985
14000000000 -32.718826 125.64032 -38.687855 158.45003 -37.549702 159.2382 -17.499161 -80.690361
14020000000 -31.712622 121.9071 -38.948627 121.67924 -37.703926 119.60345 -16.266039 -87.271065
14040000000 -30.766529 116.47459 -39.270126 86.18364 -38.098579 82.355667 -14.757147 -89.363037
14060000000 -29.87047 105.80966 -39.587181 49.109161 -39.653656 44.560555 -15.468827 -96.729965
14080000000 -30.566103 91.724541 -39.886787 10.512633 -40.144657 8.7124176 -13.48056 -101.69433
14100000000 -29.569029 69.412102 -40.557079 -24.809698 -40.00544 -38.771053 -12.850615 -110.78675
14120000000 -29.0228 62.194038 -41.194656 -60.389687 -41.064632 -57.46413 -12.566523 -116.92821
14140000000 -28.039902 53.428555 -42.190891 -91.925957 -42.121162 -90.748268 -11.691625 -123.8137
14160000000 -27.743246 41.298031 -41.483299 -128.74669 -42.142441 -124.62784 -11.552699 -128.41405
14180000000 -28.21121 42.970192 -42.527355 -163.65898 -42.245014 -161.39867 -11.324694 -135.58003
14200000000 -27.194607 33.671089 -42.856697 164.75711 -42.612759 142.95866 -10.338692 -142.55032
14220000000 -26.099533 28.560652 -42.956829 129.44446 -42.295052 128.86505 -10.383797 -150.31337
14240000000 -25.414587 20.400135 -44.174286 93.160286 -43.572803 92.154686 -10.368093 -158.25049
14260000000 -25.578989 8.8661385 -45.100948 68.439011 -44.007099 63.74229 -9.7829628 -163.81218
14280000000 -26.614025 9.9294281 -44.711777 41.563175 -45.294125 28.605429 -10.244282 -167.97052
14300000000 -26.489685 9.3424053 -44.303776 8.355792 -45.804409 -3.7589984 -9.7325459 -177.8864
14320000000 -25.309177 5.9564781 -43.680618 -26.844633 -46.145367 -31.317114 -9.832509 173.71147
14340000000 -24.606873 -2.2773035 -44.838512 -61.563816 -45.913879 -54.214073 -10.306731 166.01071
14360000000 -24.756422 -7.9587903 -45.025845 -87.082558 -44.980602 -80.797783 -10.39677 158.9371
14380000000 -25.669226 -9.8730898 -44.324413 -119.12813 -43.629238 -112.39732 -10.467899 155.61885
14400000000 -26.165958 -4.662056 -43.706955 -149.98306 -42.815903 -148.52563 -10.854072 148.08376
14420000000 -25.139595 -6.105525 -43.293053 177.0795 -42.310001 179.84618 -12.058665 141.43883
14440000000 -25.03079 -7.1047068 -42.723972 142.7542 -41.617466 143.45702 -11.529938 131.94202
14460000000 -24.384924 -12.560791 -42.1861 107.36118 -41.412159 107.12871 -12.368584 125.42754
14480000000 -25.049147 -16.511286 -41.43372 72.521156 -41.450802 73.949226 -12.910643 119.8796
14500000000 -25.837639 -10.9939 -40.948578 35.152004 -40.781517 39.892422 -13.514453 116.33053
14520000000 -24.500193 -7.3387113 -40.579082 -4.6236539 -40.087376 3.5821538 -14.398158 110.43925
14540000000 -23.592945 -11.139634 -40.524513 -41.112614 -40.124958 -34.424458 -15.678235 98.05545
14560000000 -23.369961 -15.19869 -41.025383 -81.692757 -39.512352 -72.816086 -15.029457 93.223076
14580000000 -23.256338 -16.249956 -41.432522 -114.86997 -39.401131 -112.01519 -16.338875 85.744553
14600000000 -23.04574 -13.578946 -41.381405 -148.92224 -39.667713 -148.64523 -17.53355 81.328651
14620000000 -22.820652 -12.579169 -41.434269 175.58151 -39.78331 174.74127 -17.769091 74.567757
14640000000 -21.803419 -16.561171 -41.483253 141.19931 -39.693321 142.03477 -20.456888 63.226814
14660000000 -21.681318 -19.644718 -41.371758 106.73401 -39.572685 105.54971 -19.009445 56.014774
14680000000 -21.045858 -22.361921 -41.446259 71.965103 -39.647224 69.774803 -20.590246 45.101395
14700000000 -20.55879 -26.316641 -41.065006 35.424286 -40.109966 34.186138 -22.748981 32.517189
14720000000 -20.700764 -29.946228 -41.160973 -2.0622146 -40.299957 -1.8513646 -22.846087 25.166849
14740000000 -20.995554 -30.902573 -41.881084 -36.00219 -41.155663 -33.982544 -24.595978 11.894646
14760000000 -20.047791 -31.092661 -41.703327 -68.053329 -40.998501 -63.244171 -24.02648 -31.958797
14780000000 -19.286848 -35.262756 -41.468121 -101.41071 -40.5177 -99.399857 -24.320816 -16.128868
14800000000 -18.954342 -43.211391 -41.786842 -139.74841 -40.813744 -137.79558 -23.723412 -50.445717
14820000000 -19.674129 -48.971893 -41.728741 -170.66034 -40.563263 -173.7099 -24.303331 -61.559696
14840000000 -20.454132 -51.641708 -41.572407 153.77251 -40.607712 150.95944 -24.036726 -66.144821
14860000000 -20.164192 -48.911892 -41.629303 122.09669 -41.049305 116.219 -23.104591 -89.315926
14880000000 -19.120905 -52.086887 -41.268234 86.421173 -41.665886 81.977692 -19.687391 -101.11671
14900000000 -18.531595 -61.357166 -41.015369 51.692776 -41.995007 55.386738 -20.119665 -109.98016
14920000000 -19.230387 -69.825844 -41.141716 14.029587 -41.465504 20.243088 -18.762932 -136.31735
14940000000 -20.580845 -72.709465 -41.381165 -20.010214 -41.420231 -11.447686 -20.245533 -133.51477
14960000000 -21.185637 -66.363106 -42.086407 -53.600395 -41.823544 -46.428528 -20.317606 -139.40877
14980000000 -20.226906 -66.10025 -42.07901 -81.439102 -41.607368 -76.565514 -19.023401 -149.01158
15000000000 -19.916683 -74.413216 -41.352093 -116.12174 -40.809719 -115.33654 -18.050987 -154.75206
15020000000 -20.471992 -83.870064 -41.392704 -151.64024 -41.276871 -155.84999 -18.613754 -156.62001
15040000000 -22.316635 -88.487106 -40.975792 177.44353 -41.917915 174.61304 -15.787929 173.0511
15060000000 -23.554533 -82.706909 -40.263275 144.2915 -41.062195 140.27859 -18.824247 170.42072
15080000000 -22.79199 -77.481064 -39.859615 106.03317 -41.050121 103.0424 -19.612295 164.36885
15100000000 -22.242727 -81.415398 -39.580074 68.777374 -41.224632 69.349991 -19.736107 159.32776
15120000000 -22.28606 -85.873596 -40.049694 34.707397 -40.46693 38.52375 -19.818085 149.33502
15140000000 -23.390165 -88.005562 -39.568649 -1.5352452 -39.575634 1.526456 -24.510759 141.61995
15160000000 -24.879135 -84.338608 -39.539455 -39.124859 -39.525906 -34.728249 -18.405241 121.56218
15180000000 -24.44721 -75.463951 -39.65966 -76.16507 -39.348301 -71.097923 -23.029707 102.02648
15200000000 -23.61174 -74.296364 -40.160496 -112.06898 -39.877277 -108.81027 -25.444403 89.227539
15220000000 -23.095245 -78.788193 -40.441601 -143.60707 -40.610397 -142.49451 -24.470097 78.688271
15240000000 -22.952108 -83.365471 -40.250786 -178.2224 -40.66497 -175.19865 -27.651213 57.435123
15260000000 -23.284954 -84.213539 -40.241055 146.30092 -40.354206 149.95331 -23.678476 -14.025899
15280000000 -23.932402 -85.866837 -40.056362 112.41761 -40.370335 117.4786 -24.26502 28.747673
15300000000 -23.264263 -80.451218 -40.075714 74.264389 -40.169449 83.075966 -23.872232 -20.780403
15320000000 -22.395498 -86.102455 -40.772446 39.009892 -40.157364 46.150238 -23.588356 -27.208879
15340000000 -22.021942 -93.97776 -41.00753 9.2863703 -40.582699 10.403501 -22.775955 -33.809551
15360000000 -22.559357 -100.30938 -40.577812 -23.313826 -40.885868 -24.58024 -20.801437 -57.328018
15380000000 -23.712875 -104.66109 -40.553623 -59.789627 -41.066311 -57.636395 -17.264732 -63.386703
15400000000 -23.899836 -105.78768 -40.742714 -93.681534 -41.058792 -90.83284 -17.819622 -72.134712
15420000000 -23.649849 -108.58313 -40.716751 -129.34216 -40.552094 -126.54345 -17.210436 -88.76461
15440000000 -22.814793 -116.06311 -40.917847 -159.06326 -40.648308 -160.644 -17.618927 -84.23098
15460000000 -23.300516 -126.20238 -40.356735 169.03746 -40.234943 167.47926 -17.045002 -89.916634
15480000000 -24.538031 -133.73134 -39.731598 132.00752 -39.793896 129.96564 -15.277283 -100.02365
15500000000 -26.214546 -142.25423 -39.786545 97.865967 -40.14769 95.616516 -14.54481 -103.4815
15520000000 -26.884907 -143.09602 -39.3377 63.581985 -39.518887 64.041794 -14.114649 -101.86655
15540000000 -26.723459 -151.97392 -39.22176 27.416552 -39.969879 28.603416 -14.288689 -126.65406
15560000000 -26.496264 -162.25548 -38.727489 -10.554134 -38.708553 -6.1427255 -14.206659 -122.37315
15580000000 -27.78019 -170.47237 -38.81459 -47.262661 -39.281158 -43.532997 -13.658492 -128.3781
15600000000 -28.712072 168.97864 -38.734207 -83.404137 -38.699753 -77.370102 -12.722283 -132.96629
15620000000 -30.617771 155.22067 -38.654434 -119.01177 -38.383114 -115.97282 -12.342556 -138.14636
15640000000 -30.688967 131.55544 -38.56876 -153.33112 -38.444111 -151.54849 -13.070925 -135.27861
15660000000 -30.605785 122.68651 -38.501221 171.41139 -39.350643 173.73386 -12.299103 -155.30403
15680000000 -29.973537 115.9547 -38.415661 132.19185 -39.045307 137.0332 -12.424384 -157.38397
15700000000 -29.172932 105.69189 -38.90049 96.434525 -38.652294 103.37162 -11.976078 -162.57199
15720000000 -27.7229 88.315903 -38.890034 64.048103 -38.363884 67.383545 -11.758437 -171.41138
15740000000 -26.578753 70.221893 -38.952156 26.497234 -38.314163 29.305695 -11.927276 -173.84395
15760000000 -25.388735 60.673016 -38.914707 -9.8371658 -38.237091 -5.8281751 -9.4402933 160.4606
15780000000 -25.493292 57.816425 -38.924786 -43.971008 -38.431057 -39.995613 -11.973031 168.79074
15800000000 -25.709497 55.277164 -38.962631 -79.375542 -38.4869 -81.479385 -12.574453 163.63408
15820000000 -24.864897 55.819443 -39.052612 -118.38477 -39.150261 -117.86586 -12.445622 154.01894
15840000000 -23.169231 48.263973 -39.413837 -149.37581 -39.437878 -151.54413 -12.597737 145.56728
15860000000 -21.785458 38.67548 -39.162075 173.77501 -39.39315 172.31505 -13.965286 141.89496
15880000000 -21.716385 32.725582 -39.128761 137.73476 -39.566891 137.82872 -11.510027 120.45002
15900000000 -22.409904 31.84709 -39.555725 100.4893 -39.672913 101.53625 -15.52548 123.99304
15920000000 -22.335463 37.888054 -39.713997 66.687317 -40.230835 65.179573 -16.437857 118.91296
15940000000 -21.095255 37.083176 -39.635162 31.384941 -40.451366 30.85327 -16.414917 106.20022
15960000000 -19.749664 31.553675 -40.155037 -4.1219501 -40.935352 -1.4555222 -17.631561 97.814697
15980000000 -19.320414 25.471222 -39.840942 -37.378006 -40.194847 -34.532764 -21.314856 82.581551
16000000000 -19.445471 23.984234 -40.195786 -74.254677 -40.502419 -72.031219 -22.299652 66.547737
16020000000 -19.497606 25.578934 -40.348656 -105.99251 -40.828819 -103.72267 -29.955154 111.99694
16040000000 -18.563238 27.330648 -40.173092 -140.9456 -41.508591 -135.12894 -28.233072 56.984161
16060000000 -17.581369 24.886869 -40.24271 -177.2876 -40.554699 -169.65732 -25.199823 29.704899
16080000000 -16.658142 21.148769 -40.240509 150.1304 -40.235542 154.54063 -26.910528 -6.9125338
16100000000 -16.377272 19.148527 -40.074883 112.88158 -39.81881 116.38049 -23.857454 -41.412655
16120000000 -16.004599 16.558144 -40.324959 77.983246 -40.277607 79.83551 -21.796326 -52.194481
16140000000 -15.888002 17.419159 -40.187595 46.272118 -41.232761 44.613155 -22.568338 -122.40228
16160000000 -15.290622 16.348005 -39.487305 8.9602776 -40.904152 12.393759 -22.780584 -84.225525
16180000000 -14.314878 13.318442 -39.718025 -27.668293 -40.143948 -24.692596 -20.783773 -82.419815
16200000000 -13.642532 9.2718687 -39.611153 -64.569992 -39.612984 -58.976723 -18.392706 -92.945084
16220000000 -13.146989 5.9206676 -39.558132 -101.7803 -39.545937 -96.681313 -17.469862 -102.91312
16240000000 -12.98066 3.3432622 -40.051006 -137.56625 -39.175987 -132.94948 -16.46817 -95.443367
16260000000 -12.896802 3.7566814 -40.048012 -172.13023 -40.159916 -169.46854 -17.532299 -123.90563
16280000000 -12.256017 1.7889267 -39.651955 148.44331 -39.575119 152.39673 -16.336695 -115.99635
16300000000 -11.461239 -2.0199609 -40.124367 110.57079 -39.757721 112.44075 -15.462236 -118.90149
16320000000 -11.051229 -6.3324118 -40.420033 76.368317 -40.168663 76.819176 -14.776241 -130.83687
16340000000 -10.892872 -9.5856781 -40.495399 41.038082 -40.234581 42.531296 -13.938627 -132.71991
16360000000 -10.74423 -10.254361 -40.569527 2.8997347 -40.27734 7.0384312 -13.985706 -127.54104
16380000000 -10.431776 -10.945557 -40.876209 -33.081722 -41.041668 -24.762001 -14.003078 -144.68654
16400000000 -9.8607483 -13.983892 -41.248795 -68.132133 -40.979046 -64.638634 -13.350335 -141.6097
16420000000 -9.4125633 -18.115831 -41.330788 -103.13696 -41.196266 -101.42131 -12.596538 -147.74442
16440000000 -9.2585163 -21.515104 -41.604263 -140.13692 -41.730659 -136.72447 -12.656986 -156.90044
16460000000 -9.1560097 -22.872801 -41.472694 -176.52301 -41.573368 -171.04742 -12.256762 -156.2305
16480000000 -8.8489389 -22.841639 -41.55386 146.24486 -41.608761 149.05716 -12.511147 -157.52231
16500000000 -8.5100737 -25.503637 -41.979568 107.5695 -41.82753 111.92896 -11.984607 -163.74638
16520000000 -8.1080446 -28.868406 -42.501972 70.836273 -42.788872 74.01104 -11.145835 -165.56989
16540000000 -7.8843932 -31.701084 -43.418728 33.740593 -42.908451 39.068569 -11.071941 -174.71237
16560000000 -7.5700297 -33.354454 -43.982639 -2.5359063 -43.676727 3.5689335 -11.053791 179.09663
16580000000 -7.3406501 -34.537273 -44.508713 -35.369884 -43.367188 -32.170448 -10.997535 177.99176
16600000000 -7.0750399 -36.138992 -45.006908 -70.373863 -44.11552 -71.995972 -11.169099 172.41849
16620000000 -6.8066778 -38.977993 -45.344234 -105.1143 -44.754204 -103.01487 -11.120347 164.96291
16640000000 -6.320931 -40.864349 -45.482063 -143.31129 -44.998928 -136.69705 -9.6761484 168.09915
16660000000 -5.9534812 -43.648548 -46.882565 -171.40298 -45.97934 -176.72961 -9.9489212 155.26308
16680000000 -5.7429132 -45.731918 -46.693344 156.55983 -47.013645 153.38986 -10.12066 149.67732
16700000000 -5.4533105 -46.750202 -47.048737 120.25342 -47.113743 118.76566 -10.648735 144.85454
16720000000 -4.9741387 -48.791023 -47.342342 91.049484 -47.704136 86.245247 -10.433548 139.75172
16740000000 -4.6865721 -53.891777 -47.140366 55.221241 -47.422215 50.774384 -9.1568604 150.16075
16760000000 -4.3526063 -56.058384 -47.134937 16.411673 -47.953773 12.59894 -10.185935 132.46251
16780000000 -4.0458055 -58.311722 -47.226292 -17.573395 -48.484341 -14.368381 -10.300739 118.57909
16800000000 -3.633832 -60.540489 -47.684322 -56.061008 -48.02359 -47.549217 -11.040277 110.97991
16820000000 -3.2808862 -63.703453 -48.379936 -85.491837 -49.050694 -76.221397 -11.264853 107.80284
16840000000 -3.0065553 -67.256866 -48.240097 -122.52528 -48.445148 -106.46739 -11.723224 98.288269
16860000000 -2.8574369 -71.697632 -48.229652 -158.543 -48.124268 -139.77075 -12.403993 83.515358
16880000000 -2.4485106 -73.90226 -49.885517 172.7234 -47.600769 -175.98926 -12.497037 85.429771
16900000000 -2.1264129 -77.17527 -48.333294 149.40187 -47.080685 150.10359 -12.781327 73.16851
16920000000 -1.9282558 -80.48291 -47.695076 111.00407 -47.016273 108.16614 -14.135932 67.882462
16940000000 -1.6623644 -83.818573 -47.468487 78.333511 -47.48584 79.860718 -14.624581 65.211983
16960000000 -1.4536996 -87.687523 -46.333153 41.365944 -46.299438 41.735306 -15.105099 51.429829
16980000000 -1.2693703 -91.253105 -46.063656 2.763046 -46.027519 5.6416655 -14.813819 39.457489
