!Keysight Technologies,P9374A,MY57211810,A.19.30.04
!Date: Friday, May 09, 2025 09:04:21
!Correction: S11(Cdelta 2-Port  ) 
!S21(Cdelta 2-Port  ) 
!S12(Cdelta 2-Port  ) 
!S22(Cdelta 2-Port  ) 
!S2P File: Measurements: S11, S21, S12, S22:
# Hz S  dB   R 50
13000000000 -21.174973 -90.04734 -46.533546 88.558807 -46.449833 87.2173 -19.818491 -83.451057
13020000000 -21.551319 -80.313271 -47.321804 49.857849 -47.511841 51.624252 -19.801859 -83.324921
13040000000 -20.668903 -73.545837 -47.241516 24.228172 -48.275829 21.25514 -18.943192 -86.806679
13060000000 -20.094769 -80.116425 -47.007137 -16.107103 -47.328941 -17.247761 -18.112696 -74.313255
13080000000 -20.152258 -88.795959 -46.599007 -57.457561 -47.335136 -56.133537 -18.11482 -81.735451
13100000000 -20.955587 -94.872536 -46.884735 -101.83017 -47.618919 -94.477524 -17.953318 -80.713921
13120000000 -21.803211 -84.433929 -47.651573 -137.629 -47.642342 -130.97829 -17.737656 -76.373039
13140000000 -20.777809 -74.874237 -48.064991 -174.129 -47.221695 -168.46947 -17.643866 -76.179573
13160000000 -19.16905 -80.364731 -50.150276 151.39357 -49.228912 151.12415 -17.506962 -80.387161
13180000000 -19.18401 -91.277977 -49.697323 115.34048 -48.697731 123.81529 -16.604137 -72.971428
13200000000 -20.457022 -99.285866 -49.215759 91.501221 -47.668461 88.312187 -17.209314 -76.070961
13220000000 -21.571819 -97.936417 -48.501091 46.895691 -48.437286 41.74321 -16.921268 -77.413788
13240000000 -20.959707 -87.14772 -50.229759 7.4900241 -50.340916 3.8183994 -16.779402 -69.81884
13260000000 -19.762241 -88.116478 -51.213051 -11.577497 -51.079582 -24.483408 -16.148699 -72.642891
13280000000 -18.953609 -98.075043 -48.306789 -50.140568 -49.523815 -56.514305 -16.015036 -74.30323
13300000000 -19.62332 -111.4293 -48.421432 -97.671516 -49.722046 -101.58591 -15.808352 -71.82238
13320000000 -21.518021 -115.3941 -50.175991 -143.32529 -51.179802 -141.22301 -15.649416 -69.913612
13340000000 -23.132126 -109.60851 -51.72673 -168.48317 -52.01897 -163.58524 -15.744773 -73.749435
13360000000 -21.298426 -100.28042 -51.162601 148.40482 -52.215122 150.32129 -14.752284 -70.675072
13380000000 -20.331366 -106.21111 -51.065453 102.14394 -51.084286 112.79807 -14.422789 -73.035545
13400000000 -20.675905 -121.16447 -50.857101 73.494835 -52.620098 78.497353 -14.053167 -74.174088
13420000000 -22.220322 -135.66693 -53.756725 45.295761 -52.773994 50.922901 -13.640543 -72.371544
13440000000 -24.992208 -131.20404 -53.147358 8.9129238 -53.945919 14.591376 -13.544432 -71.590103
13460000000 -25.733463 -110.57675 -54.414165 -40.290993 -53.833328 -32.406151 -13.872575 -73.916336
13480000000 -23.19178 -111.71067 -54.032558 -74.026131 -54.786469 -72.160461 -12.891567 -74.867126
13500000000 -22.672859 -123.1521 -54.704102 -101.41549 -53.080727 -104.76746 -12.693529 -77.91011
13520000000 -24.620277 -142.35817 -56.639141 -147.44179 -56.033932 -147.43762 -12.292214 -80.022774
13540000000 -28.648159 -157.62964 -58.66441 -166.07774 -58.797638 -176.14798 -11.809132 -80.930145
13560000000 -31.767302 -125.03468 -58.228386 160.3092 -58.450489 171.99721 -11.870055 -78.23941
13580000000 -27.608234 -98.380905 -56.287342 109.71838 -58.019882 105.41927 -11.813425 -81.739197
13600000000 -25.947126 -116.5798 -57.630684 70.695671 -56.333466 76.678864 -11.293021 -85.56073
13620000000 -26.371683 -140.66759 -58.225494 38.094604 -56.441757 47.875824 -10.993243 -86.471657
13640000000 -31.116734 -152.79146 -62.073093 -3.8373954 -59.99453 -7.8157806 -10.778957 -90.094528
13660000000 -39.406689 -101.52604 -60.028313 -63.691158 -57.819824 -58.048889 -10.227885 -92.902786
13680000000 -30.248192 -87.364578 -58.251221 -101.87415 -57.905117 -83.776604 -10.768093 -91.565613
13700000000 -26.150095 -101.96622 -56.159908 -122.29675 -57.048038 -130.99821 -10.11973 -96.778572
13720000000 -27.421345 -124.3451 -56.546192 -152.08693 -59.631382 -176.28294 -10.281987 -97.751221
13740000000 -30.16539 -155.8577 -61.21043 158.84758 -64.279083 158.4984 -9.8340378 -99.923859
13760000000 -35.223946 -151.11617 -55.925392 115.93546 -57.569229 109.26805 -9.7267332 -104.51735
13780000000 -32.525742 -94.988838 -53.018944 64.151375 -53.588013 60.761173 -9.3221874 -106.9233
13800000000 -27.433939 -110.59835 -53.478256 11.62163 -54.975479 30.815931 -9.3342352 -109.60091
13820000000 -25.56884 -130.82217 -54.859505 -17.300819 -55.126411 -16.254683 -9.8588142 -116.68669
13840000000 -27.192905 -152.39883 -51.067841 -58.462555 -51.803799 -51.034821 -9.5248661 -112.52592
13860000000 -32.961155 -175.69061 -49.487 -102.52523 -49.127224 -92.184227 -9.128027 -118.27081
13880000000 -38.003765 -170.45439 -47.779621 -141.2787 -47.213684 -139.81242 -8.8341274 -122.49733
13900000000 -32.977291 -139.75536 -47.350517 173.79375 -46.784367 174.05679 -8.6818361 -125.29138
13920000000 -28.712011 -154.6736 -48.13377 141.9594 -47.897041 145.76839 -8.6480608 -127.94228
13940000000 -26.338022 175.44206 -45.912735 103.89233 -46.069653 100.62748 -9.7753325 -135.54126
13960000000 -27.62768 148.74268 -43.519508 56.514595 -43.494572 57.177528 -8.7254219 -136.33948
13980000000 -32.128716 113.35889 -42.802643 20.609011 -42.862743 20.6401 -8.7176037 -141.85866
14000000000 -34.734539 99.442635 -42.165016 -17.572994 -41.965691 -16.272438 -8.5957937 -146.65408
14020000000 -33.711559 139.05301 -41.613628 -57.042053 -41.250481 -58.502338 -8.7833977 -151.70845
14040000000 -29.824961 138.04247 -40.223267 -97.57856 -40.171593 -96.59227 -8.9556923 -153.51585
14060000000 -26.805292 114.01706 -39.033981 -136.01688 -39.559109 -134.94467 -10.026934 -161.79919
14080000000 -26.911753 84.996101 -38.373417 -177.59422 -38.468472 -177.62622 -9.6435776 -166.70595
14100000000 -28.119184 53.745968 -38.161865 143.84102 -38.437626 144.30087 -9.9239483 -173.02431
14120000000 -30.622734 41.4632 -36.920364 103.95618 -37.234535 103.77237 -10.620183 -179.68764
14140000000 -31.361422 60.111992 -36.781021 60.999485 -36.820286 63.409954 -11.104423 175.51897
14160000000 -28.877005 63.554066 -36.421028 23.304964 -37.401947 27.029934 -12.888554 173.01376
14180000000 -26.06941 57.38583 -35.420914 -12.548704 -35.554676 -9.5776339 -12.83488 162.54053
14200000000 -24.491953 32.847443 -35.144157 -54.064667 -34.945782 -52.867393 -13.371432 158.73846
14220000000 -25.062273 15.291011 -35.072422 -94.359901 -35.061539 -94.236938 -14.57785 150.02251
14240000000 -27.963987 7.54528 -34.664055 -132.22235 -34.806774 -132.5593 -15.796735 141.7543
14260000000 -28.31776 20.826427 -34.114006 -171.99072 -34.159275 -171.03374 -17.067617 140.84169
14280000000 -26.090319 29.895372 -34.197906 147.92616 -34.537811 151.31578 -19.58939 137.18959
14300000000 -24.436378 16.28232 -34.269661 111.25649 -34.210442 112.97503 -20.323376 123.802
14320000000 -23.847891 -0.4280282 -33.751396 73.988731 -33.861488 74.034286 -21.999977 112.3089
14340000000 -24.886459 -14.746766 -33.583042 35.563152 -33.692554 36.742683 -24.014673 91.38855
14360000000 -27.352381 -12.022316 -33.352589 -3.4229043 -33.394142 -2.2302761 -26.611816 70.041069
14380000000 -27.674257 3.4939182 -33.573193 -41.138821 -33.436512 -39.172623 -32.255486 42.369556
14400000000 -25.084133 4.0064597 -33.345459 -77.575455 -33.272041 -75.876152 -29.7747 4.6883497
14420000000 -23.103552 -7.560195 -33.177189 -115.31922 -33.172337 -114.29216 -24.682177 -24.385046
14440000000 -24.164494 -19.034534 -32.952724 -153.20085 -32.830536 -153.31451 -25.039076 -25.131126
14460000000 -26.179735 -24.117235 -32.826023 169.80606 -32.967888 170.7988 -22.012741 -37.048634
14480000000 -26.603407 -9.5803566 -32.763004 132.87614 -32.644081 134.08739 -20.597401 -51.570263
14500000000 -25.215122 3.5139277 -32.777546 94.203773 -32.845451 95.103798 -19.344675 -62.067978
14520000000 -23.264359 -6.4975758 -32.941811 58.324879 -33.024483 59.709461 -18.184553 -67.546654
14540000000 -22.495499 -18.719378 -32.783157 22.799463 -33.086483 23.152117 -16.983564 -66.049026
14560000000 -23.963554 -24.364193 -32.489208 -14.102208 -32.589478 -13.28938 -17.644894 -71.376984
14580000000 -24.908298 -16.204935 -32.473446 -51.652267 -32.614063 -48.834618 -16.088161 -76.322273
14600000000 -23.721392 -7.0109744 -32.464016 -87.758026 -32.54694 -85.965698 -15.274085 -83.204865
14620000000 -21.747032 -8.6021366 -32.426205 -124.67899 -32.421848 -123.38731 -15.330361 -87.16082
14640000000 -20.954004 -16.67108 -32.501713 -161.36761 -32.480698 -159.59448 -14.055028 -89.501945
14660000000 -21.308886 -28.400097 -32.539387 162.61475 -32.630867 163.49164 -14.991451 -91.220558
14680000000 -21.72089 -30.220247 -32.484325 127.47399 -32.316231 128.92268 -13.964335 -95.644806
14700000000 -21.821026 -22.792664 -32.306309 93.26329 -32.433655 94.067261 -13.302676 -100.82995
14720000000 -20.861067 -21.137129 -32.019371 54.72385 -31.938187 56.353565 -13.376785 -103.4668
14740000000 -19.546144 -29.720957 -32.366245 19.337212 -32.363708 20.083832 -13.147202 -108.21491
14760000000 -19.167398 -36.965687 -32.006233 -15.802696 -32.03075 -13.822184 -12.045024 -108.55998
14780000000 -19.93833 -43.766315 -31.85519 -51.839214 -31.85664 -51.134514 -13.141114 -112.18671
14800000000 -20.232395 -44.421333 -31.954557 -88.293556 -31.853334 -87.093895 -12.148046 -115.80091
14820000000 -19.919691 -42.146198 -31.746038 -122.93999 -31.691923 -122.51875 -12.214843 -120.29865
14840000000 -19.408585 -45.241528 -31.510492 -160.18175 -31.495354 -159.32857 -12.506721 -122.23204
14860000000 -18.902037 -52.808956 -31.554785 164.2393 -31.60334 165.05606 -12.226112 -126.18356
14880000000 -18.789928 -59.826775 -31.341305 129.13046 -31.274693 129.50339 -11.378145 -126.63417
14900000000 -19.393167 -64.415924 -31.252125 93.389618 -31.253103 93.737083 -11.664051 -131.29951
14920000000 -20.291466 -65.247963 -30.757706 57.951374 -30.800196 58.286602 -11.235383 -141.26149
14940000000 -20.262516 -65.55706 -30.591461 20.83062 -30.57918 20.706985 -12.136896 -139.98148
14960000000 -19.835295 -67.057648 -30.511118 -17.629169 -30.715895 -17.258423 -12.362518 -141.57428
14980000000 -19.589252 -73.851685 -30.429985 -51.588001 -30.567713 -50.710125 -12.199479 -144.80643
15000000000 -20.426624 -82.418144 -30.023663 -89.581856 -30.05615 -87.839508 -12.106145 -146.45265
15020000000 -21.222553 -84.073204 -30.165352 -126.47386 -30.123371 -125.58419 -12.476663 -146.16551
15040000000 -22.40831 -78.25103 -29.992277 -161.84976 -29.785633 -160.90529 -11.653401 -164.36394
15060000000 -22.337126 -76.583069 -29.389931 161.36632 -29.281109 161.96585 -13.324493 -158.72055
15080000000 -21.688328 -82.699333 -29.476112 122.10473 -29.381804 122.43573 -13.733329 -157.87489
15100000000 -22.245169 -90.205612 -29.5446 86.4552 -29.468706 86.120621 -13.861232 -159.41243
15120000000 -23.549833 -87.669891 -29.315382 49.145664 -29.301861 48.727989 -14.469003 -162.8638
15140000000 -24.298233 -80.144836 -28.892401 10.365723 -29.00334 11.153696 -15.630524 -153.40387
15160000000 -23.709867 -79.084129 -29.088097 -28.279415 -29.094814 -27.891329 -15.001698 -176.94337
15180000000 -23.145176 -78.335007 -29.10956 -66.106842 -29.201321 -65.691643 -16.792694 -164.31119
15200000000 -23.379412 -81.351669 -29.168549 -103.82993 -29.164654 -102.76051 -17.10713 -157.80972
15220000000 -23.654629 -82.660286 -29.420511 -141.61198 -29.434196 -140.61516 -17.786018 -161.00345
15240000000 -23.547138 -79.12915 -29.483994 -178.55956 -29.58523 -178.04883 -17.841333 -154.56268
15260000000 -23.472488 -76.910896 -29.582621 143.84621 -29.531799 145.03934 -18.004313 -130.00418
15280000000 -23.353834 -83.665588 -29.727657 107.66056 -29.594688 107.26275 -19.541677 -156.21468
15300000000 -22.109962 -85.687332 -29.827738 69.48983 -29.765055 69.73217 -17.976801 -137.00606
15320000000 -22.494221 -91.646576 -30.005056 31.926313 -30.182556 31.597586 -18.124191 -138.47122
15340000000 -23.036985 -98.778992 -30.451685 -5.0379 -30.584309 -4.8863869 -18.368647 -136.53912
15360000000 -23.054298 -98.779549 -30.699205 -41.382496 -30.878077 -40.848534 -16.843529 -131.68597
15380000000 -22.755093 -94.607994 -30.822954 -77.662376 -30.858332 -76.596237 -15.732075 -120.16057
15400000000 -22.872417 -102.26521 -30.897657 -113.7251 -30.846745 -112.14255 -15.723817 -127.52723
15420000000 -22.65801 -118.65257 -31.405558 -150.83008 -31.136772 -150.00481 -14.488132 -133.50432
15440000000 -23.310259 -122.69271 -31.460255 172.84213 -31.46883 173.22856 -15.654449 -130.45207
15460000000 -24.827898 -121.94276 -31.708349 136.43968 -31.67778 137.22284 -15.462459 -130.34912
15480000000 -25.087082 -123.94144 -31.950565 100.9467 -31.952244 99.985268 -14.062984 -130.19388
15500000000 -24.374043 -134.83656 -32.266663 65.726768 -32.31105 65.235794 -13.766065 -128.60046
15520000000 -25.367037 -142.48416 -32.338318 29.41033 -32.434284 29.920931 -13.818019 -123.37708
15540000000 -26.711609 -161.66344 -32.573128 -6.296802 -33.159786 -6.37463 -13.188758 -141.39488
15560000000 -27.599802 -169.16916 -32.774113 -43.071991 -32.951065 -40.427814 -13.519264 -135.10345
15580000000 -28.979519 -166.2484 -33.282219 -78.164948 -33.192638 -76.646919 -13.113508 -135.36528
15600000000 -30.188959 178.31389 -33.14378 -112.85864 -33.062744 -111.41438 -12.312815 -135.70978
15620000000 -30.14386 160.96924 -33.364735 -150.54401 -33.042374 -150.72554 -12.016765 -136.67694
15640000000 -29.972462 141.89708 -33.65556 175.52141 -33.506535 175.56895 -12.532372 -129.76457
15660000000 -28.611624 124.75552 -33.896889 142.63058 -34.314323 143.36093 -12.085332 -145.53062
15680000000 -29.16938 105.40769 -33.755249 103.03577 -34.036449 104.4421 -11.895817 -141.72293
15700000000 -29.947405 91.062401 -33.952648 69.683479 -34.213879 69.024139 -11.352219 -142.56387
15720000000 -29.82642 79.582115 -34.076866 32.48349 -34.463787 34.239799 -11.209296 -147.13184
15740000000 -27.621504 76.081932 -34.512783 -3.2330787 -34.498001 -1.9925984 -10.820992 -144.71382
15760000000 -25.547543 70.810333 -34.50853 -37.600395 -34.363346 -34.867966 -9.9778271 -170.29704
15780000000 -24.224466 61.06382 -34.625305 -71.258911 -34.882294 -68.698578 -10.974193 -150.96111
15800000000 -24.182711 47.74511 -34.696362 -108.71169 -34.459053 -107.89576 -10.517926 -150.54948
15820000000 -25.129139 45.667625 -34.799252 -144.76686 -34.712093 -143.92229 -10.394464 -154.78113
15840000000 -24.540722 45.339375 -35.21653 179.83856 -35.360573 -179.95027 -10.317847 -158.84903
15860000000 -22.443996 43.213932 -34.944973 146.73732 -35.056335 147.48096 -9.960165 -155.50262
15880000000 -21.226278 41.019646 -34.920815 110.34898 -34.848961 111.30798 -10.123876 -174.41318
15900000000 -21.052076 33.66539 -34.883003 72.414474 -35.114506 73.491112 -9.7940302 -160.12923
15920000000 -21.416063 30.230841 -35.309906 37.763199 -35.539593 38.719006 -9.3489227 -162.81305
15940000000 -21.772169 32.054893 -35.431438 1.5964823 -35.429771 4.9609694 -9.6962461 -167.78731
15960000000 -20.868204 33.888439 -35.639591 -34.048775 -35.538036 -31.98027 -9.4658794 -169.70102
15980000000 -19.378111 33.161655 -35.431507 -69.630974 -35.403828 -67.771591 -9.3343039 -167.35962
16000000000 -18.434181 28.57156 -35.530758 -105.9947 -35.388054 -105.36782 -9.3661957 -171.38115
16020000000 -18.48254 22.70373 -35.568176 -141.92715 -35.647179 -141.92285 -7.8370852 -173.1015
16040000000 -18.897348 20.144167 -35.238693 -175.76936 -35.884403 -175.55333 -8.8331223 -178.05907
16060000000 -18.568861 24.891506 -35.469418 146.48248 -35.743855 148.20273 -9.3334694 177.1203
16080000000 -17.133436 26.131111 -35.44627 108.98103 -35.738781 111.68152 -9.0456982 176.47363
16100000000 -15.926138 23.185242 -35.694962 74.234108 -35.846203 75.912666 -9.1978893 175.53093
16120000000 -15.294714 15.748912 -35.33289 36.236511 -35.140923 39.133595 -9.3749619 172.53986
16140000000 -15.691688 12.99868 -35.899441 1.2317553 -36.678967 3.9941554 -8.6646738 172.23569
16160000000 -15.844748 12.717593 -35.46701 -37.619293 -35.736458 -35.508949 -8.9929047 164.44164
16180000000 -14.782496 15.073439 -35.624454 -73.241615 -35.526287 -73.734032 -9.4202538 159.77658
16200000000 -13.555249 13.095468 -35.633385 -111.77953 -35.555851 -111.55791 -9.571496 158.97124
16220000000 -12.735309 7.7237854 -35.245159 -148.21614 -35.388977 -148.60951 -9.5222464 155.6812
16240000000 -12.592348 1.9719108 -35.298679 171.63484 -35.144199 173.40164 -10.476646 150.99615
16260000000 -13.037232 0.24313849 -35.269093 136.91698 -36.057465 141.19881 -9.7334843 152.93983
16280000000 -12.873323 0.7637794 -35.234711 93.25396 -35.57766 97.412987 -10.566853 144.33946
16300000000 -11.75266 0.096584782 -35.502193 55.184181 -35.599277 56.197571 -11.281492 140.50162
16320000000 -10.858369 -3.5610352 -35.852703 16.687738 -35.824398 17.217392 -11.217793 138.13965
16340000000 -10.498034 -9.4056187 -35.81559 -24.091753 -35.829422 -21.780943 -11.930027 136.52057
16360000000 -10.591761 -13.452538 -36.290474 -64.110809 -36.01424 -62.972385 -13.931215 129.30646
16380000000 -10.781029 -13.155888 -36.383392 -102.10435 -36.837742 -97.828209 -12.652377 133.28981
16400000000 -10.294472 -13.013555 -36.800129 -141.28912 -36.726585 -139.39391 -15.051955 129.12425
16420000000 -9.5105247 -15.688917 -37.224461 177.57394 -37.198387 178.35544 -15.527451 134.77283
16440000000 -8.9255896 -20.679489 -37.73539 138.03293 -37.976772 138.62086 -15.870947 131.38736
16460000000 -8.797576 -24.667665 -37.988293 99.61599 -38.022026 101.94771 -17.335833 136.90843
16480000000 -9.0111198 -26.242609 -38.422619 58.001694 -38.322613 58.96212 -19.737577 135.32098
16500000000 -8.927021 -26.154325 -39.147915 18.020531 -39.095787 19.092657 -19.16662 143.7036
16520000000 -8.2613974 -27.018032 -39.37653 -23.499285 -39.722416 -21.801462 -18.507809 163.27708
16540000000 -7.570724 -30.197666 -40.390667 -60.669224 -40.481853 -59.674114 -18.089298 158.19064
16560000000 -7.2823982 -34.500343 -40.825111 -97.077888 -40.779163 -94.177299 -18.062813 157.65471
16580000000 -7.31845 -36.978855 -41.003235 -135.7291 -40.71764 -136.50951 -18.723413 165.15335
16600000000 -7.3514309 -36.948147 -41.648273 -176.84595 -41.405647 -177.80594 -19.185072 166.53015
16620000000 -6.9677935 -37.672035 -42.243069 142.92616 -42.163898 141.42371 -19.026955 165.69167
16640000000 -6.2476463 -39.894894 -42.028187 104.19078 -42.654316 105.03011 -15.391323 179.38533
16660000000 -5.7686973 -44.001301 -43.226254 62.741791 -43.681911 60.153519 -16.145891 169.25182
16680000000 -5.6302114 -46.894257 -44.446026 27.973183 -44.528454 34.585453 -16.566536 169.56828
16700000000 -5.5327077 -48.231968 -43.670395 -10.557065 -43.800076 -8.6191874 -17.107456 173.5089
16720000000 -5.187067 -49.069389 -44.411465 -56.274357 -44.601185 -50.95372 -16.476316 174.98323
16740000000 -4.7502499 -52.858948 -46.327793 -88.492767 -46.786526 -86.531487 -11.924301 -178.94077
16760000000 -4.1841531 -55.466343 -44.843052 -128.08171 -44.88488 -123.26395 -14.274793 176.68622
16780000000 -3.8687894 -59.325127 -45.624329 -171.36682 -45.764252 -169.85902 -15.087554 167.32309
16800000000 -3.6876478 -61.9664 -47.177128 158.20238 -46.738552 156.76437 -15.829706 170.85904
16820000000 -3.458034 -63.906483 -45.483177 117.6572 -45.461369 118.47417 -14.955893 172.3981
16840000000 -3.0533252 -66.524307 -47.075726 69.329506 -47.237671 69.815308 -15.08595 172.75758
16860000000 -2.7348976 -71.428276 -47.88142 41.816044 -49.061459 43.844044 -18.206837 169.34811
16880000000 -2.3526483 -74.501236 -47.015022 2.72333 -46.923603 7.2894983 -14.640825 167.94398
16900000000 -2.1403975 -77.950798 -47.077126 -44.511917 -46.997215 -42.589802 -15.063601 167.63692
16920000000 -1.9984858 -80.848442 -48.872871 -77.75045 -48.776405 -81.800392 -14.406737 169.44633
16940000000 -1.7216234 -83.729729 -47.595947 -115.31671 -47.871021 -114.48196 -14.109912 168.06367
16960000000 -1.4474541 -87.430389 -48.245144 -163.24687 -47.869907 -161.14642 -14.223434 165.0164
16980000000 -1.1983609 -91.393036 -49.057201 165.7213 -49.391872 163.8389 -15.741389 166.60674
