!Keysight Technologies,P9374A,MY57211810,A.19.30.04
!Date: Friday, May 09, 2025 08:53:15
!Correction: S11(Cdelta 2-Port  ) 
!S21(Cdelta 2-Port  ) 
!S12(Cdelta 2-Port  ) 
!S22(Cdelta 2-Port  ) 
!S2P File: Measurements: S11, S21, S12, S22:
# Hz S  dB   R 50
13000000000 -20.150906 -86.338821 -47.106544 11.403523 -46.579533 11.618646 -5.5006022 51.88002
13020000000 -20.517422 -85.088097 -47.327362 -19.518888 -46.891598 -19.827087 -5.7450862 49.871418
13040000000 -20.563156 -82.203789 -47.196182 -51.927345 -46.738834 -53.737206 -5.7885823 45.354446
13060000000 -20.386036 -81.608772 -47.498592 -88.362556 -47.201374 -88.767349 -5.6327043 42.195843
13080000000 -20.190311 -83.132088 -47.58881 -118.24402 -47.33316 -120.20111 -5.6958003 40.383747
13100000000 -20.097363 -85.786133 -46.848339 -154.99945 -46.599945 -153.16312 -5.7528825 39.391109
13120000000 -20.207197 -85.928246 -47.283634 168.2227 -46.918831 168.48195 -6.02914 32.631927
13140000000 -20.385887 -86.183517 -47.152504 141.12289 -46.693947 140.04716 -5.8628592 34.716602
13160000000 -20.366011 -84.951302 -46.631031 103.87986 -46.328247 101.81087 -5.9171658 31.135595
13180000000 -20.295275 -88.245262 -46.862045 71.426758 -47.073891 69.896736 -5.6806159 27.715389
13200000000 -20.223175 -93.68219 -46.701214 32.799076 -46.785107 33.64901 -5.8999081 27.303408
13220000000 -20.172482 -98.836624 -45.940708 3.5160699 -46.084099 -1.2493284 -5.6069298 23.049553
13240000000 -20.241201 -98.292633 -47.242264 -34.455063 -47.439308 -33.989456 -6.6824045 19.770014
13260000000 -20.414268 -98.082726 -47.051216 -65.474266 -46.823292 -64.826355 -5.9266405 19.933939
13280000000 -20.81472 -99.382553 -46.718025 -102.08096 -46.462959 -98.04361 -6.0889845 16.211893
13300000000 -21.100512 -106.30282 -46.753643 -137.12671 -45.887413 -134.62601 -5.9850388 14.463652
13320000000 -21.202982 -110.28092 -46.886684 -172.41496 -45.58588 -170.38231 -5.9430165 12.930315
13340000000 -21.696615 -112.91405 -46.272125 151.65685 -46.140099 150.88206 -6.088273 7.0131955
13360000000 -21.903006 -112.25045 -47.173904 122.02555 -46.668114 122.67501 -6.2904038 9.212389
13380000000 -22.093817 -113.6886 -46.845638 90.856201 -46.660709 87.889442 -6.2871537 6.0573039
13400000000 -21.853844 -117.12918 -47.103024 52.406651 -46.67178 52.269463 -6.3493252 3.1119874
13420000000 -22.236641 -122.5831 -46.736862 19.193537 -46.337887 19.411814 -6.2693033 0.7340433
13440000000 -22.821943 -127.2314 -46.874004 -13.995059 -46.196396 -14.993797 -6.2470522 -0.071991019
13460000000 -23.570322 -130.28703 -47.482594 -57.312187 -47.522305 -57.136055 -6.8789277 -5.8315549
13480000000 -24.240246 -132.48257 -47.607471 -82.741463 -47.324917 -85.027275 -6.6416063 -3.4058774
13500000000 -25.316118 -132.71619 -46.747467 -120.33937 -46.405117 -122.68296 -6.624423 -6.6351953
13520000000 -26.009058 -137.47398 -47.183895 -154.47787 -46.977959 -155.18988 -6.5393658 -10.627047
13540000000 -27.444279 -146.31665 -47.23336 170.01936 -47.098129 175.94258 -6.5540609 -11.927294
13560000000 -28.525469 -150.71246 -48.318279 136.7747 -47.715137 140.61304 -6.2969613 -11.489057
13580000000 -31.025724 -141.77928 -48.766922 100.71813 -48.896336 103.70972 -6.9791818 -14.965898
13600000000 -32.041107 -123.26967 -48.271427 68.012787 -47.686451 69.641182 -6.6941276 -15.601355
13620000000 -31.997179 -111.16595 -47.839638 36.086388 -47.305828 35.588825 -6.5768414 -17.202023
13640000000 -30.995691 -118.53565 -48.055393 5.1898603 -47.556587 -0.73436564 -6.5161552 -21.523745
13660000000 -29.89703 -117.00497 -49.440758 -26.031208 -48.49585 -30.572193 -6.5439429 -23.109854
13680000000 -29.502684 -120.98071 -49.339821 -58.21225 -49.456371 -61.082977 -6.2181983 -20.408915
13700000000 -29.67901 -116.76791 -49.234962 -96.247856 -48.739014 -99.869743 -6.7172341 -24.314215
13720000000 -29.885805 -123.34076 -49.715374 -128.95917 -49.122074 -135.48337 -7.125896 -27.471447
13740000000 -28.999352 -128.92497 -48.634186 -164.53374 -48.550068 -166.67358 -6.4659719 -27.108614
13760000000 -28.637264 -141.58598 -49.238438 167.20424 -49.57312 166.76462 -6.6828976 -31.646111
13780000000 -28.498003 -146.68608 -49.806786 136.25145 -49.387424 141.23061 -6.6282401 -32.901241
13800000000 -29.514582 -152.56378 -50.17271 97.429703 -49.743122 97.921822 -6.613162 -32.826241
13820000000 -30.900629 -144.1064 -49.520283 57.801735 -49.66993 58.058125 -6.8575816 -37.315327
13840000000 -32.028465 -144.56151 -49.346207 28.468384 -50.102154 30.805273 -7.5711985 -35.224873
13860000000 -32.157097 -143.92009 -49.359535 3.9086714 -48.886349 -0.24773364 -6.5952978 -38.137539
13880000000 -32.213459 -155.30099 -50.770889 -26.569517 -49.847504 -30.806931 -6.6639075 -41.799721
13900000000 -30.720999 -174.85295 -50.57703 -61.093128 -50.150291 -63.130852 -6.4513407 -42.307758
13920000000 -30.786745 -178.14018 -50.545624 -100.43974 -50.098118 -103.31604 -6.5166521 -43.4044
13940000000 -30.586529 -177.80162 -50.763363 -139.99281 -51.573414 -141.52098 -7.2999086 -48.671867
13960000000 -30.974632 -179.45552 -49.515823 -160.88106 -49.664089 -159.45247 -6.557919 -45.772285
13980000000 -31.31146 165.95915 -48.687584 167.02301 -48.649948 165.36983 -6.4338427 -49.438507
14000000000 -29.670452 141.04926 -50.161114 129.59912 -50.077526 130.66913 -6.4975095 -51.783707
14020000000 -28.316092 126.04745 -50.722317 92.341209 -50.20916 91.130913 -6.4177537 -53.087669
14040000000 -28.354395 110.86727 -51.037918 56.928623 -49.76778 53.187889 -6.2887988 -53.331158
14060000000 -28.319084 100.75516 -50.586445 25.437305 -49.802315 21.291908 -7.3267617 -56.149323
14080000000 -29.081726 86.620911 -49.459782 -4.8043962 -48.945221 -7.8093276 -6.5122046 -55.945251
14100000000 -28.946276 77.764618 -49.907207 -45.61274 -49.618336 -47.305191 -6.5816007 -60.146217
14120000000 -28.026833 67.370537 -50.626637 -79.858566 -50.572803 -80.410759 -6.5084782 -61.430943
14140000000 -27.134432 55.519821 -51.190193 -119.9332 -51.765503 -118.42459 -6.5006003 -63.064106
14160000000 -26.882986 36.966789 -51.232841 -153.53677 -51.927856 -151.55721 -6.3229461 -63.735966
14180000000 -27.578133 31.471786 -51.540501 -177.96672 -51.745193 -179.12946 -7.0776834 -64.603195
14200000000 -27.368818 19.736057 -52.379951 149.78168 -52.03447 149.93037 -6.5674701 -67.758308
14220000000 -27.439383 21.586601 -52.837284 119.14162 -52.241798 113.25825 -6.5786777 -68.717079
14240000000 -26.912369 21.626926 -54.055065 81.19767 -53.646957 77.75106 -6.672833 -71.524544
14260000000 -25.983545 16.369215 -53.386021 56.343803 -52.52747 53.979137 -6.5082879 -72.953957
14280000000 -26.160936 9.2746506 -52.830051 14.987426 -52.007954 14.15725 -6.358129 -74.104965
14300000000 -26.58573 0.69814628 -54.350353 -10.290684 -53.077682 -12.224739 -6.54318 -75.494713
14320000000 -26.732002 -0.057380121 -54.777164 -38.880898 -54.240997 -47.73032 -6.9781404 -77.358704
14340000000 -26.365788 0.64269918 -54.548912 -72.55806 -54.908691 -76.139931 -6.4823594 -77.855354
14360000000 -25.44631 1.8619413 -54.302452 -106.34529 -55.868607 -108.8987 -6.5015922 -81.251823
14380000000 -24.632627 -2.6623845 -54.135525 -147.63814 -55.311008 -144.08241 -6.3508205 -82.488869
14400000000 -24.616926 -8.0001335 -54.873947 -173.30006 -55.000648 -165.80956 -6.4737134 -83.348625
14420000000 -24.496069 -13.476235 -54.63163 163.01462 -54.131813 167.72401 -6.5407705 -86.398621
14440000000 -25.507046 -10.607494 -55.688938 137.29073 -54.555294 133.63818 -6.8602352 -86.475113
14460000000 -25.311527 -7.546133 -55.59808 100.17583 -54.45433 99.84024 -6.4896283 -88.122414
14480000000 -24.414656 -8.9942446 -56.297173 64.849213 -54.970497 65.825371 -6.4688635 -90.769287
14500000000 -24.181736 -11.940218 -54.60376 45.37767 -54.329845 35.228268 -6.3557925 -91.516029
14520000000 -23.740492 -19.302755 -54.277016 17.706343 -54.448746 10.410566 -6.4497614 -92.657486
14540000000 -24.358147 -23.35536 -53.552731 -16.919907 -54.496811 -27.402409 -6.8695593 -94.76432
14560000000 -24.77298 -20.681919 -53.244267 -49.143108 -55.590958 -51.55587 -6.8756504 -95.735107
14580000000 -23.893353 -14.14019 -52.684067 -90.832497 -54.023788 -88.047775 -6.5103865 -98.82048
14600000000 -23.321642 -11.414188 -54.956974 -121.96389 -55.11655 -113.21511 -6.3183274 -100.9192
14620000000 -22.695591 -14.570506 -53.393246 -147.69351 -53.206264 -141.40103 -6.5519791 -102.37251
14640000000 -22.042658 -19.903492 -52.815277 177.25121 -52.672089 -173.00171 -6.4031038 -102.54217
14660000000 -22.049404 -21.871218 -53.468769 147.01149 -52.796028 151.91479 -7.2007728 -105.972
14680000000 -21.873419 -19.323099 -52.239254 121.61964 -51.560204 119.38258 -6.5863581 -107.44409
14700000000 -20.812267 -19.704142 -52.348373 89.272766 -51.755074 83.712067 -6.4025683 -110.73193
14720000000 -20.169828 -22.289986 -51.920013 54.885139 -51.543827 49.736431 -6.5269928 -112.15363
14740000000 -19.46748 -31.455114 -50.662197 23.358812 -50.211475 20.619972 -6.5653949 -113.82992
14760000000 -19.134445 -37.362896 -50.227737 -12.984868 -50.26482 -18.418911 -6.2988157 -113.81738
14780000000 -19.384449 -42.855061 -50.058353 -50.535809 -50.226532 -53.04855 -7.0014658 -118.01133
14800000000 -19.514004 -44.378296 -50.210888 -88.262772 -50.343697 -89.873184 -6.5069942 -120.59345
14820000000 -19.732016 -47.514633 -49.653728 -118.83293 -50.270443 -116.56513 -6.5176039 -123.78671
14840000000 -19.51889 -51.124115 -49.490974 -156.35507 -49.757488 -153.3335 -6.7914634 -125.10896
14860000000 -19.530479 -57.5261 -49.62463 166.50487 -49.636875 170.4617 -6.7551832 -127.08199
14880000000 -19.641323 -61.721844 -49.725677 138.81332 -49.185417 139.14816 -6.4969764 -127.76824
14900000000 -20.322662 -65.263313 -49.982635 105.39818 -49.412449 102.83066 -6.7602658 -131.79512
14920000000 -20.638783 -65.155952 -48.997261 67.384239 -48.557697 66.245461 -6.529953 -139.10933
14940000000 -20.650974 -64.494263 -49.131264 31.715366 -48.432739 30.054018 -7.0040779 -139.39795
14960000000 -20.305544 -67.164139 -49.288334 -4.9059029 -48.465382 -7.7507572 -7.2505426 -140.50064
14980000000 -20.071878 -71.315674 -49.310944 -38.397072 -49.559074 -42.058838 -7.2478342 -142.41701
15000000000 -20.489908 -77.730164 -49.611752 -71.843704 -49.449322 -75.554314 -7.3579717 -144.72108
15020000000 -20.745708 -79.353928 -49.773029 -109.00005 -49.837196 -111.83445 -7.7289729 -146.48253
15040000000 -21.779337 -80.842499 -50.111874 -143.7545 -50.124969 -143.84207 -7.2302709 -159.02002
15060000000 -21.99493 -81.30851 -49.887974 -175.27766 -49.724377 -175.31885 -8.0525904 -156.85487
15080000000 -22.135313 -82.916351 -50.355949 149.58713 -50.557999 148.65253 -8.4024391 -157.34729
15100000000 -22.189959 -90.005943 -50.351219 122.51368 -50.794971 121.75259 -8.7177668 -159.00752
15120000000 -22.697557 -91.135765 -50.304363 85.697945 -50.361206 84.938019 -9.203742 -162.94838
15140000000 -23.643555 -88.49839 -50.688137 49.825665 -51.221218 51.098667 -10.103878 -162.18015
15160000000 -25.005577 -83.331993 -50.552296 19.887798 -50.793373 20.457022 -9.7378626 -177.03001
15180000000 -24.824869 -77.822823 -51.214844 -14.729448 -51.078983 -14.638573 -10.771569 -171.98022
15200000000 -23.714911 -78.613876 -51.435116 -42.515141 -51.242039 -44.403625 -11.211828 -169.64844
15220000000 -23.542835 -82.189102 -51.194019 -74.644829 -50.77 -70.898041 -12.108719 -173.57312
15240000000 -23.622383 -81.584602 -51.251007 -108.22339 -51.529675 -112.6332 -12.933862 -172.85681
15260000000 -23.611765 -78.403603 -50.938583 -139.77779 -51.097389 -142.6458 -14.501569 -163.89915
15280000000 -23.611828 -80.812889 -50.865993 -172.88962 -51.271469 -176.05237 -14.351596 176.12886
15300000000 -22.447819 -80.937325 -50.636215 154.36911 -51.406395 154.23888 -14.779715 -171.20804
15320000000 -22.191233 -88.387444 -50.612774 120.07612 -51.083225 123.55015 -15.537978 -170.46823
15340000000 -21.953125 -96.409164 -50.842175 83.826279 -51.493137 90.475914 -16.877136 -168.21153
15360000000 -22.574575 -101.82027 -51.130592 51.512695 -51.120617 57.320827 -17.139315 -159.33188
15380000000 -22.939777 -106.21485 -51.443714 23.744473 -51.404297 24.209059 -17.656586 -142.19041
15400000000 -23.417406 -107.10767 -50.333191 -8.5271101 -50.381954 -5.1996307 -17.601404 -148.71545
15420000000 -22.918329 -112.72248 -51.197639 -44.659481 -50.99395 -46.693142 -15.805861 -149.89667
15440000000 -23.005022 -118.92133 -51.171944 -73.624367 -51.538246 -74.056671 -17.146257 -143.48222
15460000000 -23.146061 -128.80995 -50.065243 -109.56178 -49.784588 -105.80653 -17.255247 -136.62206
15480000000 -24.599325 -134.57497 -49.809074 -141.91356 -49.766178 -140.58881 -16.076895 -130.82715
15500000000 -26.064838 -147.12102 -50.404995 -177.95468 -50.443115 -174.50322 -15.893378 -127.29116
15520000000 -28.077465 -146.6035 -49.811882 153.58749 -49.450035 157.57407 -15.932202 -120.65308
15540000000 -27.556309 -157.87425 -49.843353 120.46651 -49.969849 123.15514 -14.78973 -140.75586
15560000000 -27.302631 -159.39778 -49.800804 90.586296 -49.864635 92.039993 -14.816386 -130.13551
15580000000 -27.772707 -171.89543 -49.568558 51.218788 -49.593857 53.050621 -14.295315 -127.04456
15600000000 -29.098232 170.4778 -48.923721 17.97514 -49.107628 19.724213 -13.494865 -124.95669
15620000000 -31.43733 147.6804 -48.975555 -12.462115 -48.667313 -12.140651 -13.28343 -126.20314
15640000000 -33.137257 133.52292 -49.176121 -50.249424 -48.4258 -49.488213 -13.541042 -118.52112
15660000000 -32.160316 131.72504 -48.86124 -80.559784 -48.956768 -81.063141 -13.134607 -137.88843
15680000000 -31.672062 125.0024 -48.602985 -116.95879 -48.760357 -117.88438 -12.492944 -130.8913
15700000000 -29.219425 112.4738 -48.370113 -152.63995 -48.63446 -152.24197 -11.811006 -130.30942
15720000000 -27.287237 92.804077 -48.577892 170.81047 -48.819607 171.61877 -11.986834 -134.00896
15740000000 -26.253448 72.174431 -48.958061 140.56358 -49.125973 145.25269 -11.634733 -131.69131
15760000000 -25.466661 62.996742 -48.29953 106.89417 -48.201988 110.33864 -11.360119 -161.93806
15780000000 -25.368715 62.580986 -48.190384 68.376236 -48.627583 76.066589 -11.712428 -139.63181
15800000000 -24.893187 57.328995 -48.919041 34.984913 -48.411022 39.017506 -10.86445 -137.73532
15820000000 -24.06835 55.142387 -48.788986 4.9143476 -48.32719 8.0662403 -10.825754 -140.43207
15840000000 -22.659536 42.573318 -48.550949 -29.833433 -48.401398 -30.653152 -11.002426 -143.63998
15860000000 -21.391243 32.578403 -48.650417 -65.313683 -48.0387 -62.938751 -10.611374 -140.16142
15880000000 -21.503754 28.756832 -48.244553 -102.42235 -47.877003 -100.64641 -11.444561 -161.52654
15900000000 -22.196354 28.387938 -48.950714 -134.59209 -48.52425 -135.10771 -10.285199 -146.35159
15920000000 -22.495667 30.722332 -48.86319 -163.84477 -49.311478 -162.71855 -9.7737608 -148.21117
15940000000 -21.578579 31.742403 -48.775429 155.89862 -48.832188 157.83727 -10.214197 -150.68872
15960000000 -20.470102 29.753622 -48.959927 125.89115 -49.019592 131.14474 -10.203769 -151.41833
15980000000 -19.915653 27.417557 -48.543648 91.928909 -48.134014 94.881973 -10.004402 -148.0322
16000000000 -19.814137 26.041231 -48.697529 57.199261 -48.365467 59.982887 -10.044833 -152.44049
16020000000 -19.450636 26.616287 -49.218357 23.976618 -48.872475 26.240816 -8.2030935 -156.40477
16040000000 -18.541008 27.086119 -49.066105 -6.4771633 -49.215069 -8.0962524 -9.3376503 -157.03201
16060000000 -17.390417 25.362955 -49.355122 -43.946274 -48.912937 -43.10508 -9.8859987 -159.07997
16080000000 -16.462984 20.754089 -48.538956 -73.03463 -48.674259 -73.905884 -9.6494741 -158.13551
16100000000 -16.152275 17.339928 -48.4352 -108.25032 -48.305454 -107.79525 -9.6814899 -157.61893
16120000000 -15.809814 14.439398 -48.985447 -141.81329 -48.969532 -142.84282 -9.7321529 -159.81642
16140000000 -15.846912 14.77562 -49.514023 -174.69411 -51.345768 -173.89088 -9.0876102 -165.87209
16160000000 -15.291086 12.594348 -48.617981 148.92741 -49.343899 154.14749 -8.9565592 -164.49223
16180000000 -14.487205 9.5052624 -49.424122 112.32109 -49.318253 116.64635 -9.3714485 -166.04576
16200000000 -13.765866 6.6894398 -49.828487 85.974648 -49.206059 87.773911 -9.2661648 -164.27507
16220000000 -13.35539 5.0303745 -49.178463 54.023251 -48.812695 54.775097 -9.030117 -166.80466
16240000000 -13.014243 3.0946169 -48.787529 18.664194 -48.009285 20.750212 -9.5066385 -166.49223
16260000000 -12.854108 2.2065878 -49.891083 -18.752436 -49.875042 -15.928909 -9.2149677 -169.22903
16280000000 -12.309666 -0.95003355 -49.132553 -51.056652 -49.055885 -51.740932 -8.8149891 -171.77977
16300000000 -11.55273 -4.2477188 -49.327976 -80.816933 -48.890057 -83.332092 -8.9670801 -171.45326
16320000000 -11.113405 -7.4037042 -49.116943 -114.21278 -49.187 -113.36462 -8.7508841 -174.47588
16340000000 -10.819289 -9.9992781 -48.857571 -148.78064 -48.920986 -148.07144 -8.6451521 -174.29492
16360000000 -10.481972 -12.019815 -48.72464 177.14595 -48.77058 177.31039 -9.3093758 -174.53995
16380000000 -10.368287 -13.457321 -48.293777 141.56917 -48.785347 147.18869 -8.5812883 -177.64023
16400000000 -9.9141369 -16.428505 -48.429665 106.08939 -48.389503 108.9714 -8.773056 -178.33766
16420000000 -9.563283 -19.298426 -48.606956 71.01902 -48.738194 72.629539 -8.4599705 -177.91783
16440000000 -9.2468567 -22.606247 -48.457722 39.908497 -48.923656 38.618484 -8.6724119 177.80193
16460000000 -9.0093384 -24.351126 -48.520229 5.6127152 -48.776573 9.516839 -8.7124472 178.55515
16480000000 -8.7576303 -25.905823 -48.312698 -34.41732 -47.976929 -33.719135 -9.1089907 176.20615
16500000000 -8.5618095 -27.813419 -48.679344 -68.360016 -48.672421 -64.933289 -8.6602659 174.23813
16520000000 -8.1944847 -30.689054 -48.528584 -96.325172 -48.42622 -95.731613 -8.1534185 177.26166
16540000000 -7.7887182 -32.96571 -48.454224 -136.71606 -48.419872 -135.09624 -8.225112 173.43906
16560000000 -7.5183043 -35.30048 -49.009277 -173.78261 -48.725163 -173.90161 -8.4584827 171.17105
16580000000 -7.2798123 -36.416485 -49.06049 152.97647 -49.163368 153.47052 -8.5748844 171.2726
16600000000 -7.1355987 -38.100708 -49.202259 119.86247 -49.125221 120.02596 -8.6960688 168.2823
16620000000 -6.8451028 -40.660965 -49.238319 86.81218 -48.963402 85.195358 -8.5731668 165.04811
16640000000 -6.3907928 -42.403107 -48.361099 50.648235 -49.062683 49.747959 -7.3818336 171.36339
16660000000 -5.9504566 -44.725407 -49.771244 13.019444 -49.649311 12.859244 -7.8181748 164.81953
16680000000 -5.6384158 -46.750191 -49.64019 -21.324976 -49.977951 -19.412453 -8.1426277 164.7039
16700000000 -5.3447914 -48.812294 -50.011742 -50.094208 -49.933945 -46.52565 -8.5921307 163.34357
16720000000 -5.0270066 -51.039139 -50.365067 -88.871063 -49.97308 -86.101616 -8.2222109 161.7923
16740000000 -4.73386 -55.102207 -51.562187 -122.87045 -51.802299 -120.12736 -6.9053221 168.86713
16760000000 -4.2650928 -56.987926 -50.519444 -160.1774 -50.293015 -153.90199 -7.3328419 162.99182
16780000000 -3.8976212 -60.145847 -50.652596 165.01988 -50.387867 166.5166 -7.8846831 156.92494
16800000000 -3.6183808 -63.04089 -50.874935 133.1274 -50.645798 134.37666 -8.4101591 157.78877
16820000000 -3.3603778 -65.845642 -51.869953 98.797585 -51.932983 100.06089 -8.1709223 157.50026
16840000000 -3.0607214 -68.821014 -51.763966 61.311207 -51.742035 60.951637 -8.1771889 154.95441
16860000000 -2.8580079 -73.323952 -52.227898 31.845303 -52.594799 31.823425 -9.756568 154.99413
16880000000 -2.4612041 -75.633408 -52.732475 -7.0730262 -52.289463 -6.3262324 -8.0229254 153.19408
16900000000 -2.1449549 -78.899719 -52.379803 -36.413773 -51.769737 -35.411507 -8.2247753 151.79347
16920000000 -1.9382913 -82.238579 -53.274792 -70.984047 -52.643383 -72.342743 -8.2943459 152.00443
16940000000 -1.702098 -85.605659 -53.326248 -110.17497 -53.342815 -106.17829 -8.2029009 151.2836
16960000000 -1.4876883 -89.17308 -53.803967 -146.21591 -53.659126 -147.315 -8.214819 146.86363
