!Keysight Technologies,P9374A,MY57211810,A.19.30.04
!Date: Friday, May 09, 2025 10:33:48
!Correction: S11(Cdelta 2-Port  ) 
!S21(Cdelta 2-Port  ) 
!S12(Cdelta 2-Port  ) 
!S22(Cdelta 2-Port  ) 
!S2P File: Measurements: S11, S21, S12, S22:
# Hz S  dB   R 50
13000000000 -19.962132 -67.316978 -37.389114 11.320431 -37.72049 10.287561 -8.5885057 141.71968
13020000000 -18.683588 -79.506203 -37.580391 -24.894142 -38.577129 -25.492468 -8.6026831 139.14804
13040000000 -19.37981 -86.448677 -38.092754 -57.188408 -38.80064 -54.264729 -8.449254 138.45795
13060000000 -21.102959 -91.916679 -37.520206 -91.842102 -37.92046 -85.781479 -8.8194017 135.95648
13080000000 -21.944881 -88.128113 -37.561543 -127.90997 -37.394985 -124.13287 -8.4411964 134.84999
13100000000 -22.219017 -80.127281 -37.773228 -161.6129 -37.602921 -159.14505 -8.5690584 132.82771
13120000000 -20.168959 -70.485054 -37.869701 166.92097 -37.989773 167.21039 -8.726882 128.57181
13140000000 -18.43494 -78.85498 -38.616013 134.05507 -38.113197 133.55725 -8.8243046 126.24967
13160000000 -18.351145 -94.616211 -38.160244 104.07249 -38.069443 101.39352 -8.4139233 126.38626
13180000000 -21.312258 -105.75505 -37.53244 67.562904 -37.718884 68.531487 -8.7523556 124.34824
13200000000 -23.930271 -86.350281 -37.461544 29.731649 -37.109344 31.098648 -8.5536852 123.3763
13220000000 -20.438272 -72.587624 -37.535088 -0.81891292 -37.709816 -4.6727757 -9.1535006 120.97459
13240000000 -17.957731 -88.815506 -36.898975 -39.808674 -37.576267 -38.839523 -8.9650049 115.44733
13260000000 -18.464373 -107.23342 -37.595772 -72.21637 -37.610611 -71.031296 -8.8892088 115.20562
13280000000 -21.031605 -115.8858 -37.218891 -107.10477 -37.08046 -106.30118 -8.5990915 115.30108
13300000000 -23.252785 -103.95271 -37.244152 -146.63937 -36.866928 -142.97714 -8.6289339 113.46183
13320000000 -21.57793 -96.169136 -37.664265 -179.29012 -37.179634 -178.46944 -8.6497107 111.27796
13340000000 -20.584427 -104.38635 -37.429607 151.73434 -37.590118 149.79329 -9.3107643 111.2497
13360000000 -20.374622 -109.00897 -37.605309 113.05198 -37.329792 113.2757 -9.1469145 107.4597
13380000000 -20.340528 -118.66365 -37.939537 79.789398 -37.586838 78.194923 -9.0956964 104.95219
13400000000 -21.7477 -131.32387 -37.828968 46.133724 -37.520473 44.989113 -8.8588467 103.75642
13420000000 -25.499134 -135.78783 -37.336929 13.033998 -37.341232 10.728101 -9.0041637 101.61832
13440000000 -25.824699 -106.15687 -36.968189 -23.731096 -37.199268 -25.081923 -8.9841805 99.028603
13460000000 -22.076759 -108.28951 -36.603897 -59.562386 -37.688034 -59.323479 -9.4920349 98.870926
13480000000 -21.166655 -128.2001 -37.210712 -92.064705 -37.698692 -93.48838 -9.2203093 94.865349
13500000000 -23.306877 -152.34575 -36.9249 -126.77883 -37.305603 -125.88002 -8.9220648 93.10704
13520000000 -30.484226 -158.85504 -36.769669 -163.61168 -37.169121 -163.00671 -8.9556646 91.110878
13540000000 -31.050425 -104.11062 -36.925755 160.63354 -36.995438 163.10208 -9.2471123 90.74585
13560000000 -25.572115 -109.55624 -36.861855 125.14422 -36.769154 126.4671 -8.8646393 85.513382
13580000000 -24.808048 -129.24594 -36.502773 91.233231 -36.921944 92.407936 -9.3553276 85.383232
13600000000 -26.82555 -147.23987 -36.779823 54.547394 -37.057426 55.52206 -9.2210522 82.997604
13620000000 -30.670698 -148.88947 -37.107975 21.741938 -37.29496 22.961508 -9.2138672 80.498932
13640000000 -35.912601 -132.92776 -36.820129 -11.724915 -37.090733 -11.331126 -9.0478315 78.423096
13660000000 -30.997272 -86.427536 -36.676559 -47.473999 -36.645813 -45.432751 -9.5486927 79.363472
13680000000 -26.668701 -102.1977 -36.562466 -82.823189 -36.945499 -77.449127 -9.6193609 78.686844
13700000000 -25.73123 -124.00009 -36.81694 -119.66027 -36.497383 -118.68339 -9.7514992 73.62468
13720000000 -27.301809 -152.65172 -36.330875 -156.1664 -36.516621 -157.15509 -9.826602 66.935242
13740000000 -36.913498 -175.19421 -36.672886 168.55626 -36.734436 168.77843 -9.7957087 68.135666
13760000000 -33.470192 -69.304031 -36.667919 133.0799 -36.761215 131.79408 -9.9094868 67.325378
13780000000 -25.682093 -97.186447 -36.300045 97.03949 -36.661144 96.197525 -10.516094 67.598015
13800000000 -23.802391 -132.44891 -36.559059 58.131817 -36.961178 57.103687 -10.503794 66.193581
13820000000 -25.87635 -160.50903 -36.977547 20.587025 -37.615353 18.772835 -10.657959 64.79631
13840000000 -32.177982 -179.46576 -38.065216 -16.851259 -39.104641 -21.265661 -11.266569 57.613106
13860000000 -36.620167 -115.63505 -38.614529 -49.631039 -39.373402 -49.812046 -10.716749 60.373341
13880000000 -29.597126 -115.12169 -38.706673 -83.597809 -39.67004 -81.349884 -10.839156 60.345581
13900000000 -26.994967 -149.05049 -39.721989 -116.20947 -40.095852 -112.75317 -11.020387 59.347878
13920000000 -26.55875 -178.87337 -39.572742 -146.71426 -40.109779 -144.78401 -11.278243 56.911098
13940000000 -27.365784 158.34212 -39.18486 178.70331 -39.993771 179.22537 -11.162678 55.460423
13960000000 -31.293068 140.3745 -40.226475 144.10878 -39.80455 144.83095 -11.246472 51.472176
13980000000 -37.342194 126.278 -40.421486 117.07212 -40.264507 113.25924 -11.166319 51.497334
14000000000 -40.917732 167.23187 -39.971802 82.020126 -40.202572 78.912018 -11.548513 52.445984
14020000000 -30.757479 162.02515 -40.191078 51.019737 -39.895161 48.560013 -11.805861 51.258724
14040000000 -26.65447 133.72867 -38.940426 18.898912 -39.546989 19.297565 -12.098814 47.841343
14060000000 -25.539003 100.51144 -38.656925 -20.224497 -39.209545 -18.866913 -11.891782 48.603874
14080000000 -26.783634 58.295227 -39.131191 -53.749249 -38.922192 -51.075237 -12.131942 46.421585
14100000000 -30.936117 18.669155 -38.814129 -90.614494 -38.723946 -85.259621 -12.170624 47.413448
14120000000 -40.426571 60.023083 -38.855534 -128.18234 -38.839211 -121.85646 -11.942284 47.944145
14140000000 -29.367002 94.22805 -39.397247 -162.28525 -39.011082 -156.36369 -12.58921 48.259911
14160000000 -24.463264 64.49469 -39.292179 165.09778 -39.506447 176.46266 -13.70563 48.672863
14180000000 -23.790867 38.461353 -39.45023 127.61241 -38.822529 136.52812 -12.567203 46.03804
14200000000 -25.399973 8.6630526 -39.393532 88.995895 -38.955021 97.016174 -12.741014 45.170944
14220000000 -28.602947 4.1322284 -40.257847 53.11026 -39.50956 64.174644 -12.275581 45.607738
14240000000 -30.126534 21.687185 -40.776878 23.766596 -39.95211 29.020149 -12.079931 45.794037
14260000000 -26.83881 34.191338 -40.186844 -6.9828601 -39.952435 -5.8592472 -12.799423 47.457287
14280000000 -24.04694 25.198513 -40.514912 -43.942848 -40.336319 -43.021286 -13.164647 46.60458
14300000000 -23.414122 7.795774 -41.123997 -76.38472 -40.593086 -78.728981 -12.617194 44.630138
14320000000 -23.63736 -12.356216 -39.995861 -109.4069 -40.1674 -118.5178 -12.335996 42.770466
14340000000 -26.717257 -27.326586 -40.200943 -148.42963 -39.935005 -156.24763 -11.614582 43.493515
14360000000 -30.359062 -1.468092 -40.808441 176.22121 -40.63187 165.47842 -11.568651 42.332054
14380000000 -25.197567 21.143661 -40.746925 142.88293 -40.743206 134.21564 -12.199928 43.483566
14400000000 -22.165186 5.1543913 -40.720448 107.19446 -40.685085 97.89257 -12.211296 41.705513
14420000000 -21.821131 -21.682364 -40.626846 71.450966 -39.913658 64.191093 -11.948572 36.653034
14440000000 -25.486679 -37.028011 -40.991856 32.936306 -40.942474 28.191471 -11.448581 38.442078
14460000000 -30.685129 -11.193244 -41.140526 -0.36210808 -41.072044 -5.3214917 -11.006407 37.470135
14480000000 -25.364336 13.003087 -41.522392 -38.721008 -41.730034 -37.062759 -11.195716 36.347794
14500000000 -22.423359 1.8587902 -42.136864 -74.651253 -42.207905 -70.127625 -11.570652 36.122566
14520000000 -21.993074 -16.596462 -43.153042 -111.9795 -43.129627 -106.11086 -11.825799 33.366692
14540000000 -23.6292 -26.483646 -43.284912 -146.82109 -43.744968 -136.72107 -11.246906 28.27626
14560000000 -25.774544 -20.13781 -44.487957 175.20964 -44.803848 -167.87642 -11.168444 30.903065
14580000000 -24.667683 -6.7620077 -45.780991 140.60277 -45.942616 149.61908 -10.837484 28.771164
14600000000 -22.988476 -1.9204198 -46.823143 111.54982 -47.519398 116.79031 -11.082234 28.400408
14620000000 -21.152918 -7.6010265 -48.089664 82.341789 -49.289913 79.584976 -11.145418 28.853134
14640000000 -20.265093 -22.160501 -49.968964 49.116978 -51.406036 42.656422 -11.618193 23.322454
14660000000 -21.349144 -32.127621 -49.550545 29.155956 -53.670132 19.768818 -10.806483 24.596373
14680000000 -23.074593 -29.665216 -51.004353 -2.4563859 -54.81237 -5.5571961 -10.901216 21.874535
14700000000 -22.120361 -14.69123 -50.979008 -13.279992 -53.169544 -13.729025 -11.042284 20.445677
14720000000 -19.975275 -15.329 -52.72868 -30.322088 -54.176029 -33.458908 -10.790475 22.256794
14740000000 -18.625929 -28.622322 -49.979134 -43.79306 -50.802204 -43.010479 -11.21125 21.522671
14760000000 -19.044624 -42.841354 -46.745296 -74.90844 -46.935432 -74.433647 -11.675111 14.379591
14780000000 -20.671043 -47.2686 -45.426525 -112.18934 -45.098782 -108.21037 -10.860737 17.892164
14800000000 -21.064726 -40.586208 -44.41087 -145.37575 -43.541248 -145.36591 -11.151482 13.596516
14820000000 -20.208475 -36.650024 -43.180893 176.82269 -42.051495 178.56334 -10.975119 16.07338
14840000000 -19.036488 -41.921467 -42.179985 143.4841 -41.174023 145.68794 -10.622379 16.956516
14860000000 -18.211737 -51.3363 -40.776566 110.26176 -39.929729 110.66966 -11.182348 16.714832
14880000000 -18.521816 -63.324619 -39.729877 68.395927 -39.062767 68.202339 -11.590904 10.027702
14900000000 -19.964622 -70.941605 -39.116993 29.605352 -38.319599 30.484272 -11.213055 10.673097
14920000000 -21.680992 -65.639328 -38.345695 -9.0462418 -38.120827 -11.382717 -11.892211 13.687191
14940000000 -21.062677 -55.349773 -38.016937 -52.208958 -38.076485 -50.816353 -10.475756 13.665204
14960000000 -18.951273 -60.013165 -38.156853 -88.886497 -38.18681 -89.150772 -10.130754 13.100633
14980000000 -18.234249 -75.434799 -37.972618 -127.09196 -38.521221 -126.07368 -10.489776 12.376322
15000000000 -19.847355 -93.843765 -38.06028 -166.12723 -38.095055 -164.09581 -10.550933 8.5887909
15020000000 -23.888042 -92.746674 -38.371422 156.19322 -38.035133 159.19588 -10.02037 4.0622697
15040000000 -24.425648 -65.158218 -38.358227 120.42438 -37.887043 120.66234 -10.830745 13.063279
15060000000 -21.176735 -64.82476 -38.370007 82.875496 -37.792824 84.802933 -9.3730326 7.1654134
15080000000 -20.011707 -80.483238 -38.682884 46.451569 -38.077065 47.305435 -9.2399511 5.5233083
15100000000 -21.034721 -99.403564 -38.849941 12.852397 -38.521549 11.418036 -9.425272 3.4791348
15120000000 -24.846861 -108.78259 -38.212368 -21.992775 -38.08931 -20.924564 -9.6009331 1.946081
15140000000 -27.729029 -69.673599 -38.532372 -63.630951 -37.899078 -61.266899 -8.7751455 -4.3701725
15160000000 -23.26907 -60.833805 -39.106056 -98.680038 -38.31749 -101.05292 -9.218709 4.1152506
15180000000 -21.36734 -74.031403 -39.54631 -132.43643 -38.80072 -134.92754 -8.4113598 -1.8280965
15200000000 -21.607767 -88.822983 -39.405891 -164.11301 -39.180977 -167.47273 -8.4315243 -4.0691147
15220000000 -24.013729 -100.53284 -39.115101 162.7802 -38.761509 160.99998 -8.5793438 -3.1079023
15240000000 -27.942257 -84.919228 -38.483704 127.81986 -38.636471 122.63259 -8.6893501 -7.9516945
15260000000 -24.353592 -58.479103 -38.41127 88.697701 -38.66692 87.619965 -7.6640043 -14.340966
15280000000 -21.52368 -70.779564 -37.940201 50.881016 -38.183945 51.024296 -8.0251179 -7.9853964
15300000000 -20.43161 -88.043411 -38.005096 14.607254 -38.230343 13.280554 -7.7052488 -13.475993
15320000000 -21.569984 -107.14179 -38.314995 -19.775129 -38.906597 -22.110767 -7.9643574 -12.993676
15340000000 -24.804895 -112.15638 -37.998955 -55.293804 -38.476833 -53.055092 -7.7676344 -12.235556
15360000000 -26.01689 -85.342438 -37.583183 -91.131577 -38.155682 -89.235565 -7.885047 -18.855049
15380000000 -22.647003 -81.21833 -37.248856 -129.52199 -37.563168 -125.87543 -7.1016164 -22.808332
15400000000 -20.921406 -100.30546 -36.819519 -168.19701 -37.509106 -162.2328 -7.2246141 -22.946459
15420000000 -21.167366 -121.92744 -36.743469 150.57939 -37.05526 158.37363 -7.5072441 -24.983456
15440000000 -23.395844 -137.18617 -36.608585 115.26615 -37.456608 119.54347 -7.506125 -21.789146
15460000000 -26.581579 -131.23425 -36.412895 73.264641 -36.997009 82.371628 -7.1627736 -23.015015
15480000000 -26.679504 -116.19723 -36.457287 34.711731 -36.784374 40.770103 -7.2880492 -29.165028
15500000000 -24.980394 -123.14372 -36.345261 -4.8978229 -36.743534 1.1289859 -6.9679718 -31.234058
15520000000 -24.442768 -138.83905 -36.502407 -45.427685 -36.708374 -38.677048 -6.2913485 -31.274115
15540000000 -24.712376 -159.8692 -37.02335 -90.471909 -37.253288 -86.111877 -7.9565659 -37.018951
15560000000 -25.860229 -176.33978 -36.985817 -127.4256 -37.363995 -119.10215 -7.0744395 -29.263054
15580000000 -28.540936 169.61981 -37.364536 -170.04372 -37.266804 -161.56529 -6.745738 -33.330486
15600000000 -32.762009 151.03979 -38.0434 149.71837 -37.338642 157.84685 -6.6556716 -37.239567
15620000000 -37.259125 -176.94376 -38.35268 110.39756 -37.70163 116.73519 -6.4770637 -40.114155
15640000000 -30.807745 176.61858 -39.210815 70.986237 -37.846149 77.452621 -5.5204296 -38.389019
15660000000 -26.113497 145.69566 -40.411774 31.321329 -39.126392 34.957245 -7.6116405 -42.580612
15680000000 -24.99464 111.67539 -39.906769 -5.5724545 -38.921387 -0.45421687 -6.235158 -38.62389
15700000000 -25.554207 78.941864 -40.9897 -46.700058 -39.275761 -42.697502 -6.0585823 -43.759426
15720000000 -27.924561 43.621628 -41.969418 -83.862946 -39.974327 -81.354584 -6.3940845 -47.158562
15740000000 -35.853092 47.549088 -41.664616 -123.1989 -40.1991 -117.76024 -5.7458916 -49.221497
15760000000 -27.579315 99.201355 -42.364693 -158.46469 -40.278111 -157.40382 -7.6872506 -47.656307
15780000000 -22.577166 81.183037 -43.151501 163.9325 -41.528713 165.31625 -6.5505972 -48.703503
15800000000 -21.308386 53.562229 -42.890026 123.78355 -41.211189 123.31318 -5.4375396 -52.245956
15820000000 -22.624432 30.892761 -42.938774 88.78244 -41.318413 86.021164 -5.7816672 -53.304218
15840000000 -25.704998 21.629311 -43.775749 50.210098 -42.521465 44.111259 -6.0988698 -57.48624
15860000000 -26.216745 50.128788 -43.653374 13.508806 -42.502102 8.4472446 -5.222609 -58.685299
15880000000 -21.424969 57.1119 -43.004395 -25.584892 -42.602863 -32.27639 -6.34413 -56.358261
15900000000 -19.373741 39.316071 -43.731899 -66.115532 -43.190647 -72.398384 -5.0164843 -60.950108
15920000000 -20.099937 24.058792 -44.619148 -100.67999 -44.417866 -110.53147 -5.7555628 -63.651249
15940000000 -22.030214 20.187916 -42.910095 -137.86647 -43.599731 -149.91373 -5.3926072 -63.14529
15960000000 -22.182325 32.697037 -43.523159 -179.97745 -44.417595 168.58943 -5.6066289 -67.343338
15980000000 -19.813297 38.966805 -43.273174 139.55298 -43.93092 131.74321 -4.7528195 -68.35025
16000000000 -18.186687 31.813498 -43.08712 103.10023 -44.101154 93.652611 -4.7106409 -69.788391
16020000000 -18.086594 22.735205 -42.925434 63.536968 -43.794796 53.270992 -4.4760852 -76.471733
16040000000 -18.715206 19.995745 -42.976017 27.675402 -45.321072 19.769472 -5.8869491 -70.068199
16060000000 -18.450163 23.570711 -42.949673 -16.637506 -44.325104 -24.358648 -5.1481481 -73.642509
16080000000 -17.179041 23.783054 -42.986488 -48.953613 -44.788929 -58.188248 -5.1160402 -76.52993
16100000000 -16.422812 22.890348 -42.916786 -87.601921 -43.903229 -92.274139 -4.6151638 -78.505989
16120000000 -15.570965 18.880648 -42.356964 -127.90955 -43.754963 -128.73332 -4.3802562 -78.458984
16140000000 -15.400867 16.694145 -43.103756 -169.13512 -45.154686 -171.45352 -6.3868637 -92.895401
16160000000 -15.047416 13.655524 -42.977234 162.91069 -43.562244 164.70029 -5.3892732 -76.239204
16180000000 -14.579706 10.937185 -42.495239 118.83382 -42.596436 119.07046 -4.8487458 -83.758057
16200000000 -14.145244 10.165937 -42.152988 84.568932 -42.505276 83.97435 -4.6386333 -85.979889
16220000000 -13.449055 10.175895 -42.325871 49.586277 -42.122421 48.18359 -4.5797472 -88.386292
16240000000 -12.530795 6.9535542 -41.695461 12.520181 -41.30183 11.725019 -4.2042313 -86.682755
16260000000 -12.220695 1.6606091 -41.588654 -26.058722 -42.622547 -23.565481 -6.5641813 -92.00927
16280000000 -12.337783 -2.6609647 -40.324738 -62.813896 -40.441959 -60.806347 -4.6725545 -86.536545
16300000000 -12.07278 -3.4089315 -40.804699 -102.71758 -40.679897 -102.87363 -4.7656989 -92.773155
16320000000 -11.55867 -2.9914768 -40.639488 -139.50153 -40.781925 -138.80931 -5.0337291 -97.752159
16340000000 -10.593629 -4.9514742 -39.944359 -174.63756 -39.797337 -172.00331 -4.8012557 -97.062622
16360000000 -10.040046 -10.633792 -39.521286 144.72466 -39.229034 146.07864 -4.5956936 -95.736244
16380000000 -10.254708 -14.782995 -39.521408 106.18291 -39.754738 112.25316 -6.1513095 -97.131256
16400000000 -10.398138 -16.281815 -38.527622 64.237373 -38.716507 66.506439 -5.0067019 -98.744164
16420000000 -9.9772606 -15.82121 -39.046185 22.847319 -38.647163 26.88485 -5.1776037 -101.47311
16440000000 -9.2312717 -17.619595 -39.018291 -15.0812 -39.074635 -12.727143 -5.8222203 -105.17699
16460000000 -8.6152983 -21.670521 -38.737251 -54.118309 -38.820423 -50.418495 -5.3596077 -102.37319
16480000000 -8.5588751 -26.323816 -38.921284 -94.585373 -38.564518 -91.829605 -5.1658196 -101.68052
16500000000 -8.8435574 -27.957226 -38.997765 -135.83882 -38.666561 -132.46153 -5.2166448 -102.31548
16520000000 -8.5424309 -27.766088 -39.823975 -175.44945 -39.842899 -171.39549 -5.5707092 -103.9175
16540000000 -7.8819947 -29.124374 -40.196548 143.50195 -39.748398 146.35229 -5.4073563 -106.32307
16560000000 -7.3198152 -32.201412 -41.188129 105.83557 -40.595173 109.73316 -5.6572828 -107.34678
16580000000 -7.0783505 -35.748405 -41.202469 70.161934 -40.833183 73.963585 -5.0401697 -105.802
16600000000 -7.1590295 -37.865749 -41.364563 32.471581 -40.774876 34.556759 -5.0050812 -106.10757
16620000000 -7.0374146 -38.975872 -42.047157 -7.6215248 -41.191689 -6.5909505 -4.7737288 -105.69224
16640000000 -6.4491086 -39.726128 -43.300312 -42.378498 -43.062214 -38.254692 -5.0140848 -106.55783
16660000000 -5.9078364 -42.439293 -43.590122 -80.579651 -42.937782 -78.542725 -4.8348427 -112.72749
16680000000 -5.5463424 -45.309734 -44.29108 -114.6571 -43.573532 -113.30331 -4.9737158 -111.19633
16700000000 -5.319149 -48.009094 -44.439655 -151.31363 -44.386009 -150.96091 -4.7573595 -111.62508
16720000000 -5.1389112 -49.975971 -45.167381 170.40988 -44.664711 175.61493 -4.4071059 -111.97351
16740000000 -4.8753638 -53.168411 -46.878342 133.55188 -46.537476 135.49399 -4.76053 -126.20039
16760000000 -4.3548937 -54.70504 -46.187717 108.77155 -46.218372 108.00786 -4.4447393 -110.5714
16780000000 -3.9068072 -57.956314 -47.134224 68.228127 -46.903828 66.580109 -4.8071413 -118.77921
16800000000 -3.5567679 -61.287823 -47.331856 32.54171 -46.744854 31.739958 -4.7136745 -117.12256
16820000000 -3.3371766 -64.361938 -48.619682 0.54751241 -47.711708 -5.9600077 -4.5118165 -119.31673
16840000000 -3.1045568 -67.272827 -49.136925 -35.458504 -48.936855 -45.089848 -4.3915854 -120.17075
16860000000 -2.8853688 -71.21666 -50.081684 -61.493252 -50.488857 -76.047859 -6.369966 -114.43179
16880000000 -2.4171984 -73.485703 -49.111893 -99.070198 -49.995399 -111.19234 -4.7446537 -122.23095
16900000000 -2.0732648 -77.190559 -50.115845 -137.091 -50.713493 -152.24683 -4.6103759 -122.71502
16920000000 -1.8815715 -80.874062 -51.768635 -162.87396 -51.820011 173.72475 -4.696784 -126.98634
16940000000 -1.7173636 -84.330963 -50.511219 162.86543 -52.866737 151.9207 -4.7535882 -125.97669
16960000000 -1.5418681 -87.402496 -50.990959 125.04806 -52.798416 100.43967 -4.654635 -128.60417
16980000000 -1.2565174 -90.641014 -52.616959 98.889923 -55.373661 67.311478 -5.3822441 -121.38609
17000000000 -0.96338755 -94.924858 -52.157238 60.571785 -56.461411 33.75351 -4.612525 -128.5089
