!Keysight Technologies,P9374A,MY57211810,A.19.30.04
!Date: Friday, April 25, 2025 09:19:09
!Correction: S11(Cdelta 2-Port  ) 
!S21(Cdelta 2-Port  ) 
!S12(Cdelta 2-Port  ) 
!S22(Cdelta 2-Port  ) 
!S2P File: Measurements: S11, S21, S12, S22:
# Hz S  dB   R 50
100000000 -50.539932 16.0299 -0.014735708 -2.9626369 -0.017565973 -2.9405742 -55.646385 -19.54244
149500000 -48.444183 -0.48274252 -0.029874485 -4.3937659 -0.021428894 -4.3661976 -48.560207 5.8726883
199000000 -45.692497 -20.204317 -0.027639756 -5.7715869 -0.029000105 -5.7932525 -49.866673 -42.735809
248500000 -47.585423 -20.371353 -0.028694959 -7.2248759 -0.030177368 -7.1737409 -47.206879 -15.508928
298000000 -44.580311 -21.715755 -0.031068932 -8.5980911 -0.036724724 -8.6026974 -46.585735 -29.700474
347500000 -45.409359 -35.595024 -0.038338099 -10.004587 -0.037903298 -10.039543 -43.946644 -36.195087
397000000 -43.868992 -40.07061 -0.043382887 -11.412984 -0.040531572 -11.432315 -44.627747 -47.766357
446500000 -43.031197 -35.507957 -0.041149821 -12.815104 -0.040880665 -12.827965 -43.279377 -52.456268
496000000 -43.721653 -59.12347 -0.042084154 -14.260052 -0.042010967 -14.309099 -42.683598 -50.070026
545500000 -41.580044 -56.453625 -0.050268881 -15.659302 -0.045811992 -15.677212 -41.897449 -61.116035
595000000 -40.519264 -59.311512 -0.046703633 -17.07649 -0.052776519 -17.026316 -40.02412 -60.95562
644500000 -39.198326 -60.446621 -0.057751283 -18.418467 -0.048022851 -18.512165 -39.30154 -68.286026
694000000 -39.374363 -69.334793 -0.056921367 -19.861727 -0.054894459 -19.923624 -37.657375 -74.966354
743500000 -37.879345 -72.788353 -0.063610062 -21.284008 -0.048453171 -21.282909 -37.584263 -77.323158
793000000 -36.630497 -74.16832 -0.064081602 -22.651857 -0.061274689 -22.67762 -36.140015 -83.567055
842500000 -35.81813 -75.872002 -0.063638173 -24.106379 -0.064735793 -24.109509 -35.757599 -83.955353
892000000 -35.478539 -84.425056 -0.061846007 -25.485798 -0.062789798 -25.48926 -35.054443 -88.375481
941500000 -34.611526 -83.89193 -0.066472895 -26.893259 -0.063373394 -26.949188 -35.082466 -91.444695
991000000 -34.160107 -87.401939 -0.073626265 -28.277281 -0.065555111 -28.317173 -34.032066 -94.685478
1040500000 -33.9221 -91.931129 -0.072847798 -29.68861 -0.061533559 -29.743158 -33.724613 -95.140358
1090000000 -33.457375 -94.029327 -0.068992801 -31.142759 -0.073646799 -31.160122 -32.775547 -98.366905
1139500000 -32.951988 -94.715073 -0.082590379 -32.491638 -0.071171552 -32.625454 -32.498501 -100.57549
1189000000 -32.647717 -98.351204 -0.083011203 -33.932434 -0.078729101 -33.985546 -32.223049 -101.39509
1238500000 -32.355991 -99.743515 -0.076684088 -35.354115 -0.07607656 -35.402775 -31.396515 -105.63607
1288000000 -31.327082 -99.053093 -0.08421877 -36.762474 -0.080856837 -36.853058 -31.635777 -109.03866
1337500000 -31.382734 -103.81207 -0.083139703 -38.203903 -0.088188753 -38.276134 -30.45561 -108.12634
1387000000 -30.92321 -105.70572 -0.08804927 -39.618805 -0.084054351 -39.667412 -30.247778 -110.77203
1436500000 -30.132124 -106.18118 -0.08196409 -41.015614 -0.088717654 -41.105843 -29.926186 -114.29494
1486000000 -30.265259 -110.27177 -0.092737496 -42.416939 -0.086455353 -42.480282 -29.691538 -114.31332
1535500000 -29.822819 -112.18202 -0.095829718 -43.856194 -0.089433171 -43.954506 -29.484186 -116.04619
1585000000 -29.438259 -115.23042 -0.09430436 -45.326313 -0.093336776 -45.358616 -29.242533 -118.63419
1634500000 -29.145359 -113.52768 -0.092017733 -46.721733 -0.096927293 -46.772533 -28.796284 -121.45414
1684000000 -28.769243 -119.7592 -0.09750703 -48.106453 -0.098531157 -48.20261 -28.505228 -123.32196
1733500000 -28.374313 -120.85925 -0.093666859 -49.627365 -0.10079367 -49.666348 -28.370394 -122.73727
1783000000 -28.026869 -121.50864 -0.10029005 -51.020802 -0.10344226 -51.085522 -27.903084 -125.05569
1832500000 -27.994747 -125.27718 -0.10581343 -52.438599 -0.10990515 -52.516243 -27.510206 -126.56961
1882000000 -27.554321 -126.35567 -0.10814608 -53.883087 -0.10190813 -53.940693 -27.314493 -128.65738
1931500000 -27.35198 -127.76176 -0.11384608 -55.305962 -0.1035658 -55.414169 -27.002291 -132.03728
1981000000 -27.012087 -129.11995 -0.10818244 -56.744022 -0.10686126 -56.832363 -26.917597 -133.13094
2030500000 -27.024607 -131.4659 -0.11383332 -58.212658 -0.11048795 -58.284832 -26.330542 -134.71318
2080000000 -26.645067 -134.06267 -0.11691986 -59.66449 -0.11193984 -59.709064 -26.185562 -137.86383
2129500000 -26.288485 -135.09268 -0.11697384 -61.089832 -0.11671563 -61.193966 -26.143196 -138.02884
2179000000 -25.998672 -136.94029 -0.11961397 -62.550293 -0.11998118 -62.574013 -25.76622 -140.19725
2228500000 -25.866848 -138.32335 -0.12228791 -64.047089 -0.11869925 -64.065056 -25.719942 -141.03055
2278000000 -25.571424 -140.38654 -0.12614788 -65.389656 -0.11703234 -65.537575 -25.563833 -143.4666
2327500000 -25.490728 -141.40344 -0.12353868 -66.926239 -0.12241625 -66.97171 -25.365105 -145.90831
2377000000 -25.268129 -142.91293 -0.12966296 -68.356728 -0.12687813 -68.470123 -25.040667 -147.81116
2426500000 -24.936008 -145.57672 -0.13372518 -69.773499 -0.12634642 -69.931381 -25.105593 -148.8936
2476000000 -25.119318 -148.1776 -0.12942614 -71.304199 -0.12928534 -71.367195 -24.69314 -151.33878
2525500000 -24.769007 -148.35043 -0.12879306 -72.738701 -0.13353591 -72.875168 -24.768497 -152.44841
2575000000 -24.584202 -149.92821 -0.13512424 -74.180618 -0.13199887 -74.30217 -24.487709 -154.72974
2624500000 -24.461655 -151.35594 -0.13569815 -75.699966 -0.13528928 -75.748634 -24.393524 -156.50427
2674000000 -24.470596 -153.20808 -0.14079159 -77.151833 -0.14052877 -77.263 -24.180899 -157.08818
2723500000 -24.310032 -154.54868 -0.1375598 -78.655388 -0.14423855 -78.760094 -23.862171 -160.28912
2773000000 -24.020851 -155.64034 -0.14947839 -80.117714 -0.13965401 -80.20591 -23.979532 -161.4126
2822500000 -24.17827 -158.68735 -0.13829544 -81.585716 -0.1413133 -81.698288 -23.644627 -162.9449
2872000000 -23.85721 -160.77968 -0.1438278 -83.099648 -0.14739953 -83.129356 -23.511681 -165.29555
2921500000 -23.746113 -162.79175 -0.14733526 -84.515373 -0.14471062 -84.669502 -23.554348 -166.35243
2971000000 -23.722324 -163.92882 -0.15348116 -86.073669 -0.15233192 -86.157631 -23.335457 -167.80302
3020500000 -23.544447 -166.05005 -0.15463418 -87.52948 -0.14942293 -87.689011 -23.231539 -169.28293
3070000000 -23.516981 -167.10834 -0.15307167 -89.023636 -0.15651335 -89.170059 -23.168182 -171.321
3119500000 -23.236204 -169.05627 -0.15581702 -90.498932 -0.15197751 -90.649284 -23.128777 -173.80692
3169000000 -23.276804 -171.47635 -0.16166271 -91.981155 -0.15474281 -92.157707 -22.862198 -173.81018
3218500000 -23.094681 -172.77995 -0.1592077 -93.507179 -0.15610868 -93.642097 -22.81695 -176.99602
3268000000 -23.088861 -174.4666 -0.16796158 -94.992752 -0.16866821 -95.173172 -22.686569 -178.16505
3317500000 -23.046387 -176.08505 -0.16768338 -96.502571 -0.16361509 -96.629448 -22.578609 179.60637
3367000000 -22.788595 -178.31633 -0.16371644 -97.946068 -0.16893786 -98.166359 -22.578791 178.04848
3416500000 -22.833645 -179.0975 -0.16957952 -99.49958 -0.16835336 -99.644852 -22.404339 175.68504
3466000000 -22.670778 178.61382 -0.17246892 -101.02859 -0.16701861 -101.1358 -22.587669 174.3647
3515500000 -22.597609 177.05025 -0.18048802 -102.51749 -0.16438204 -102.6705 -22.510468 172.45613
3565000000 -22.529934 175.08997 -0.18467884 -104.05331 -0.17213978 -104.1918 -22.369232 170.85149
3614500000 -22.577063 173.49002 -0.18394637 -105.53615 -0.17069481 -105.69134 -22.302647 169.52998
3664000000 -22.410599 171.75407 -0.17951562 -107.08162 -0.17638563 -107.19978 -22.280018 167.82915
3713500000 -22.439552 169.52322 -0.18589312 -108.61904 -0.17535943 -108.72557 -22.195019 166.0549
3763000000 -22.615679 169.3457 -0.18259169 -110.14582 -0.18463264 -110.25997 -22.055779 164.06053
3812500000 -22.418819 166.67734 -0.18342735 -111.67207 -0.18695398 -111.74381 -22.048382 162.07124
3862000000 -22.319382 164.84383 -0.18678427 -113.16745 -0.18848628 -113.30459 -22.029686 160.2552
3911500000 -22.41658 163.57004 -0.19459137 -114.67202 -0.18540683 -114.84832 -21.9023 158.77498
3961000000 -22.392979 160.90617 -0.19057436 -116.17047 -0.19355544 -116.37375 -21.944279 156.80486
4010500000 -22.30092 159.0833 -0.19745791 -117.74242 -0.18789563 -117.88204 -21.919044 154.82288
4060000000 -22.237503 156.92912 -0.19372649 -119.28619 -0.19808969 -119.40977 -21.963346 153.83049
4109500000 -22.312138 155.80693 -0.19900177 -120.8283 -0.19236065 -120.92894 -21.860785 151.41766
4159000000 -22.295687 153.10356 -0.20287496 -122.37272 -0.19820756 -122.43863 -21.833298 150.03236
4208500000 -22.402365 152.85577 -0.20252942 -123.84902 -0.19983652 -124.00809 -21.681099 147.23158
4258000000 -22.250471 149.39815 -0.20486741 -125.39787 -0.20371778 -125.54299 -22.064774 146.70131
4307500000 -22.271896 148.10509 -0.20887892 -126.93903 -0.21229771 -127.04385 -21.758142 144.07637
4357000000 -22.212118 146.9873 -0.21050374 -128.48492 -0.20441967 -128.58032 -22.044064 142.23802
4406500000 -22.35397 143.57503 -0.21296319 -130.02188 -0.20642775 -130.15039 -21.774212 140.6273
4456000000 -22.194323 143.21176 -0.21682709 -131.53952 -0.20623149 -131.72685 -21.898666 137.94841
4505500000 -22.386627 139.7926 -0.20891695 -133.10123 -0.21003126 -133.2735 -21.874096 138.38234
4555000000 -22.321918 138.24365 -0.22156551 -134.62941 -0.21216452 -134.80859 -21.938095 135.73273
4604500000 -22.496447 135.4305 -0.21685268 -136.13741 -0.2136576 -136.35973 -21.888874 134.34236
4654000000 -22.332098 134.5556 -0.22076689 -137.69652 -0.21831417 -137.87613 -21.921148 131.22751
4703500000 -22.516933 132.38959 -0.22747971 -139.27597 -0.21683961 -139.4216 -21.954792 129.61084
4753000000 -22.501436 131.187 -0.22954133 -140.7939 -0.22603422 -140.93297 -21.992077 126.94782
4802500000 -22.442188 129.24353 -0.23320805 -142.3371 -0.22967233 -142.53616 -22.207253 124.4427
4852000000 -22.737131 126.0932 -0.22931591 -143.90099 -0.22514398 -144.04025 -22.074879 124.61201
4901500000 -22.741737 125.32178 -0.23151819 -145.44655 -0.23147342 -145.61285 -22.012867 120.96317
4951000000 -22.69182 122.57694 -0.23183711 -146.98376 -0.23314413 -147.19746 -22.137703 119.8887
5000500000 -22.942417 121.3942 -0.23954132 -148.51447 -0.22898899 -148.69249 -22.056358 117.16103
5050000000 -22.861706 118.38924 -0.23795672 -150.10114 -0.24017569 -150.20868 -22.354706 115.9638
5099500000 -22.999752 117.43612 -0.24053876 -151.60931 -0.23540273 -151.76712 -22.273005 114.71889
5149000000 -22.965048 115.8111 -0.24251406 -153.19392 -0.24607149 -153.29564 -22.377663 111.00397
5198500000 -23.271376 112.3106 -0.24216042 -154.77509 -0.24827789 -154.87048 -22.451969 110.09634
5248000000 -23.295143 110.66428 -0.24864218 -156.29063 -0.24693151 -156.41249 -22.513855 106.75128
5297500000 -23.402815 107.60931 -0.2485276 -157.83948 -0.23842542 -157.96724 -22.640753 106.50516
5347000000 -23.41268 105.86659 -0.24815318 -159.34482 -0.25182113 -159.49673 -22.569391 103.46463
5396500000 -23.481596 104.68842 -0.25476688 -160.89207 -0.25084907 -161.07275 -22.981243 100.45132
5446000000 -23.804878 102.04053 -0.26801544 -162.40114 -0.25162196 -162.6586 -22.668369 99.702385
5495500000 -23.786686 99.040321 -0.25649217 -163.97778 -0.25183868 -164.12541 -23.05526 97.951828
5545000000 -23.985479 97.461853 -0.2678574 -165.53242 -0.25882861 -165.70844 -23.140381 96.252625
5594500000 -24.067703 94.277649 -0.26645207 -167.07712 -0.27002066 -167.23863 -23.116863 92.716583
5644000000 -24.219931 92.107933 -0.26408514 -168.65137 -0.26579541 -168.79018 -23.466663 91.712738
5693500000 -24.343437 90.60228 -0.26594567 -170.17023 -0.2721009 -170.36209 -23.467169 89.849121
5743000000 -24.479269 86.866585 -0.2637336 -171.71031 -0.26769277 -171.875 -23.751856 86.761078
5792500000 -24.953465 86.747047 -0.27807665 -173.27769 -0.26685232 -173.44241 -23.786837 86.043846
5842000000 -24.982094 83.244354 -0.27471682 -174.77368 -0.26841387 -174.98721 -23.927628 82.254784
5891500000 -25.088812 80.272583 -0.28299597 -176.35652 -0.27392465 -176.51718 -24.022928 81.393364
5941000000 -25.162039 77.573509 -0.27861208 -177.91672 -0.27830407 -178.0519 -24.24486 78.260101
5990500000 -25.492426 74.841217 -0.27742955 -179.46001 -0.27833331 -179.60561 -24.457005 77.879593
6040000000 -25.589485 72.886665 -0.28801322 179.0672 -0.28040016 178.875 -24.451044 74.054962
6089500000 -25.990824 69.982338 -0.29211533 177.50313 -0.27017739 177.29834 -24.860746 71.246902
6139000000 -26.063179 66.810196 -0.2770071 176.02069 -0.29155609 175.77802 -24.842924 71.987289
6188500000 -26.326855 63.554241 -0.28946373 174.43527 -0.2877242 174.26556 -25.2682 67.382874
6238000000 -26.616669 62.147678 -0.28946483 172.91861 -0.29532322 172.69745 -25.304441 66.199097
6287500000 -26.618753 58.633595 -0.28909075 171.33438 -0.29149464 171.20946 -25.581139 62.767178
6337000000 -27.010387 57.025837 -0.29905036 169.85725 -0.28816372 169.61623 -25.891783 62.746433
6386500000 -27.170422 52.768459 -0.28856897 168.33228 -0.29579705 168.14729 -25.982435 60.107121
6436000000 -27.732992 48.817871 -0.30184466 166.73434 -0.28670728 166.66937 -26.237942 55.342987
6485500000 -28.16177 45.31255 -0.2983028 165.27213 -0.29596969 165.05907 -26.353386 56.611996
6535000000 -27.944563 44.688412 -0.28814131 163.75214 -0.29953042 163.56488 -26.78978 52.605518
6584500000 -28.597622 38.089081 -0.29945943 162.22743 -0.29704836 161.99931 -26.902533 52.203407
6634000000 -28.810284 36.156132 -0.30264583 160.67693 -0.29659936 160.51018 -27.070799 47.806416
6683500000 -29.034029 33.684921 -0.29849106 159.20068 -0.30277821 158.96544 -27.965559 45.658318
6733000000 -29.165928 28.551031 -0.30573404 157.69513 -0.29751933 157.46196 -27.922968 43.204964
6782500000 -29.65719 26.127934 -0.30355266 156.15959 -0.29911721 155.97891 -28.293354 41.413231
6832000000 -30.211355 21.795748 -0.29582644 154.60254 -0.30234832 154.45076 -28.404375 39.865376
6881500000 -30.489948 17.667683 -0.30629039 153.12456 -0.29633605 152.90813 -28.749041 35.895256
6931000000 -31.014359 13.158804 -0.30754083 151.56558 -0.30240577 151.42361 -28.95018 34.964588
6980500000 -30.851513 7.1597114 -0.30093679 150.12178 -0.29872426 149.91856 -29.631863 31.755838
7030000000 -31.718184 2.995851 -0.30022967 148.57103 -0.30761001 148.3602 -29.669544 29.589489
7079500000 -31.774668 -0.0390203 -0.29963526 147.05537 -0.30038139 146.86751 -29.925524 24.757547
7129000000 -31.928543 -9.0373125 -0.30826443 145.56367 -0.29636016 145.32516 -30.621138 27.618505
7178500000 -32.631344 -7.9217319 -0.29932964 144.04199 -0.30435055 143.86638 -30.465223 21.625124
7228000000 -32.627529 -16.615278 -0.30233526 142.56017 -0.29674983 142.28662 -31.069292 18.393593
7277500000 -33.149292 -24.848442 -0.29811841 141.07434 -0.30083635 140.77855 -31.046452 20.238152
7327000000 -33.250969 -23.897299 -0.29943946 139.549 -0.3005839 139.29387 -31.83271 12.909931
7376500000 -33.751537 -35.408703 -0.29447573 138.01527 -0.29928192 137.79875 -32.185902 11.952043
7426000000 -33.382587 -40.534328 -0.29763049 136.56161 -0.29670882 136.29042 -32.535385 8.8992863
7475500000 -33.876846 -45.885178 -0.29865688 134.99905 -0.29985467 134.79785 -33.086037 7.3064346
7525000000 -33.925575 -48.951767 -0.2959345 133.55502 -0.30266359 133.2753 -32.832394 4.936583
7574500000 -34.459148 -55.715736 -0.2922557 131.99908 -0.29611906 131.76747 -34.094616 1.640319
7624000000 -34.099468 -58.4202 -0.30011621 130.50986 -0.29519773 130.26912 -33.852188 1.634812
7673500000 -33.281303 -69.239319 -0.28929192 129.0092 -0.28806081 128.81621 -34.680496 -8.0161629
7723000000 -34.280834 -72.967087 -0.29087791 127.46439 -0.29011238 127.26849 -35.020367 -6.0154614
7772500000 -33.440689 -79.900238 -0.29127955 126.05524 -0.28981295 125.79047 -34.987286 -11.609258
7822000000 -33.521114 -85.586967 -0.2922546 124.52365 -0.28515568 124.26602 -35.469162 -8.5267649
7871500000 -33.224354 -86.84729 -0.29204473 123.04085 -0.2867825 122.77132 -35.411324 -12.424769
7921000000 -33.595493 -94.453278 -0.28251827 121.51318 -0.28460675 121.29434 -36.33622 -20.910067
7970500000 -33.194244 -96.52021 -0.2879355 119.99622 -0.27771184 119.81268 -36.32021 -20.029293
8020000000 -33.366871 -102.48131 -0.27060798 118.59181 -0.27554005 118.3603 -36.99818 -29.869347
8069500000 -33.171917 -104.45164 -0.26908088 117.08582 -0.2792072 116.73542 -37.616795 -30.396494
8119000000 -32.385124 -112.56451 -0.27208078 115.54835 -0.26878563 115.35658 -37.395054 -34.903461
8168500000 -32.715096 -113.62387 -0.27278912 114.10268 -0.27028096 113.84411 -38.002502 -37.595234
8218000000 -32.784191 -119.99447 -0.27010357 112.59973 -0.26868236 112.3901 -37.671471 -43.166649
8267500000 -33.144608 -119.71868 -0.26416436 111.16305 -0.26342359 110.912 -38.981579 -46.62397
8317000000 -32.312538 -120.02875 -0.26255536 109.69704 -0.25253987 109.37756 -38.809341 -45.049927
8366500000 -32.436447 -130.68263 -0.25511989 108.22213 -0.25373295 107.98496 -39.026489 -51.300556
8416000000 -32.12402 -126.81595 -0.25410756 106.67786 -0.2545352 106.46297 -39.348141 -49.039791
8465500000 -32.016201 -136.62158 -0.24660353 105.25552 -0.25005108 104.96815 -39.492039 -58.818729
8515000000 -32.286182 -134.58424 -0.24572687 103.73044 -0.25359547 103.48936 -39.162186 -65.410019
8564500000 -31.503853 -138.99266 -0.24556005 102.28385 -0.24224198 102.01717 -39.548512 -68.386414
8614000000 -32.088818 -141.67285 -0.23606576 100.84402 -0.23496935 100.46213 -39.878189 -67.146996
8663500000 -31.874075 -142.60141 -0.23161648 99.367622 -0.24013932 99.044548 -39.018612 -76.137306
8713000000 -31.816271 -150.14984 -0.23352572 97.822754 -0.23131588 97.610115 -39.353252 -69.192238
8762500000 -31.844286 -143.27588 -0.23434146 96.375046 -0.22558622 96.113869 -39.996941 -75.44249
8812000000 -32.093792 -155.13214 -0.23662829 94.896576 -0.22376713 94.724106 -40.325237 -87.010803
8861500000 -32.522209 -152.63307 -0.22111933 93.379921 -0.22810715 93.177032 -40.022442 -72.204063
8911000000 -32.094891 -155.21013 -0.22338994 92.006348 -0.21751314 91.748383 -40.448715 -92.976852
8960500000 -32.242599 -162.04306 -0.20997746 90.516029 -0.20649208 90.26738 -41.171223 -86.907936
9010000000 -32.033379 -158.62303 -0.21099558 89.087219 -0.21082003 88.807594 -38.840004 -90.969994
9059500000 -32.044697 -166.90327 -0.20129502 87.596985 -0.20195882 87.355461 -41.58683 -96.53997
9109000000 -32.268337 -159.95692 -0.20972753 86.093712 -0.19883783 85.850792 -39.783119 -92.880287
9158500000 -32.350288 -166.60283 -0.2088504 84.658714 -0.19931668 84.437286 -40.876251 -104.6079
9208000000 -32.927391 -164.66032 -0.19862808 83.158089 -0.19590268 82.895859 -40.241299 -93.358986
9257500000 -32.487709 -170.58769 -0.19925895 81.725281 -0.190378 81.500587 -38.476429 -107.84036
9307000000 -33.398682 -170.78311 -0.1811527 80.301712 -0.18872257 80.009903 -41.421825 -109.61427
9356500000 -32.533932 -167.03448 -0.18505727 78.859108 -0.18603443 78.582535 -39.203014 -98.402138
9406000000 -32.617073 -178.66197 -0.17489128 77.349274 -0.17335568 77.091858 -40.241734 -110.0089
9455500000 -33.180908 -172.85521 -0.17474629 75.91497 -0.1810801 75.593819 -37.857792 -94.533852
9505000000 -32.892269 179.10162 -0.17768173 74.410904 -0.1749848 74.192062 -40.365891 -114.04676
9554500000 -33.294762 -173.31526 -0.17371885 72.956627 -0.17341766 72.699783 -41.470188 -90.973473
9604000000 -32.798271 177.3978 -0.17073548 71.546379 -0.16860847 71.32029 -38.721878 -105.22642
9653500000 -34.068653 177.91447 -0.15853295 70.118759 -0.1577367 69.824631 -43.025417 -110.84323
9703000000 -33.754333 179.83255 -0.16470359 68.710106 -0.1568515 68.385994 -38.227665 -99.919891
9752500000 -34.365459 170.97321 -0.15622246 67.181244 -0.15349616 66.895081 -40.211842 -114.74232
9802000000 -34.158241 -176.88971 -0.15860142 65.755478 -0.1562136 65.429848 -39.066502 -93.881454
9851500000 -34.077183 168.88828 -0.16020539 64.214516 -0.14441088 64.01992 -40.030022 -109.49224
9901000000 -35.255177 179.65759 -0.15046419 62.812756 -0.15039559 62.567314 -40.5378 -87.925583
