!Keysight Technologies,P9374A,MY57211810,A.19.30.04
!Date: Friday, May 09, 2025 10:50:35
!Correction: S11(Cdelta 2-Port  ) 
!S21(Cdelta 2-Port  ) 
!S12(Cdelta 2-Port  ) 
!S22(Cdelta 2-Port  ) 
!S2P File: Measurements: S11, S21, S12, S22:
# Hz S  dB   R 50
13000000000 -20.465258 -53.186211 -41.742855 -93.941597 -42.00602 -87.692612 -9.4217005 110.08501
13020000000 -17.450539 -69.624565 -42.929245 -139.09665 -43.665375 -131.67239 -8.892869 93.211578
13040000000 -17.341513 -90.365616 -43.894409 174.20154 -44.663692 178.67061 -8.3560085 78.493126
13060000000 -20.224091 -110.68774 -45.096405 123.9374 -46.011467 130.89569 -7.8057623 62.308308
13080000000 -26.760296 -97.922714 -45.467541 71.217285 -46.455402 77.543968 -7.310596 50.175163
13100000000 -22.798223 -53.208912 -46.12582 17.84951 -47.116619 19.36902 -6.8754821 39.428196
13120000000 -18.091486 -62.763237 -46.936634 -37.746651 -48.181385 -37.382843 -6.7328568 24.557541
13140000000 -16.993053 -85.446762 -46.31736 -81.008003 -47.128311 -81.83416 -6.0904846 19.686272
13160000000 -18.579021 -105.68114 -44.738628 -132.29919 -45.840286 -133.95255 -6.0315194 9.8967705
13180000000 -23.215181 -110.30674 -44.886333 -179.94478 -45.405247 -179.2382 -5.5859771 0.88098598
13200000000 -24.820236 -76.010666 -44.371445 137.05089 -44.956253 137.3015 -5.7808313 -6.7899227
13220000000 -20.189083 -67.79921 -42.500217 94.083862 -43.474167 92.589005 -5.30792 -19.336885
13240000000 -17.429308 -84.97834 -43.637947 52.889984 -44.018635 53.073639 -6.2945995 -22.262487
13260000000 -17.377342 -105.16029 -42.006454 13.744319 -42.430313 12.320794 -5.2401471 -29.933004
13280000000 -19.664349 -123.35384 -41.700176 -26.715279 -41.903645 -25.192341 -5.6417618 -38.159378
13300000000 -24.867702 -122.05097 -41.476303 -69.113625 -41.546906 -68.653618 -5.679894 -45.424854
13320000000 -24.010036 -85.157074 -41.642513 -105.58439 -41.652271 -106.96471 -5.7554083 -52.693539
13340000000 -20.118483 -87.741066 -41.045704 -144.11449 -41.914116 -146.45731 -6.5699987 -66.207535
13360000000 -18.015188 -104.03292 -40.160702 179.68799 -40.69273 179.63136 -5.9065847 -67.428818
13380000000 -18.550406 -129.12344 -39.910057 140.70648 -40.46191 140.43787 -6.0741191 -77.133553
13400000000 -22.257233 -150.8952 -39.754292 103.06133 -40.020725 103.53345 -6.3964062 -85.555489
13420000000 -31.247639 -139.40015 -39.988274 66.377457 -40.352566 67.309547 -6.6647282 -94.152298
13440000000 -25.070219 -80.00415 -39.909885 28.648123 -40.047905 30.785416 -7.0827546 -103.3485
13460000000 -20.458738 -100.06449 -40.67601 -4.4934869 -41.257366 -3.7190781 -8.5197992 -112.34313
13480000000 -19.305351 -127.32031 -39.432503 -39.512199 -39.740856 -38.373806 -7.8281007 -125.11678
13500000000 -20.893948 -160.87993 -38.782097 -76.51815 -39.048405 -74.335938 -8.3060856 -139.4568
13520000000 -28.165073 155.14529 -38.506119 -116.84344 -38.914871 -115.88795 -8.9343834 -154.23773
13540000000 -33.61676 -28.434832 -38.845905 -154.34248 -39.049004 -151.46773 -9.1956511 -168.45981
13560000000 -23.351719 -79.401306 -38.653744 171.14195 -38.757256 172.33218 -9.9828653 171.80899
13580000000 -20.725899 -119.29988 -38.317741 135.44931 -38.816559 138.12276 -10.335965 157.25735
13600000000 -21.567665 -158.64534 -38.695984 97.417152 -38.734509 99.364441 -10.163954 133.3307
13620000000 -25.681654 150.68048 -38.420124 61.955364 -38.54982 63.560581 -10.085891 111.87966
13640000000 -30.197842 35.198399 -38.062164 23.546442 -38.198715 24.834408 -9.4441423 92.373779
13660000000 -23.305187 -55.898117 -38.317417 -14.58884 -38.207619 -12.654683 -9.3213882 76.907364
13680000000 -21.229734 -105.06933 -38.37077 -48.326565 -38.803501 -45.347 -8.608757 62.304855
13700000000 -21.945501 -147.30757 -38.660713 -85.554314 -38.731567 -83.232002 -8.2311268 43.534245
13720000000 -25.477381 166.45267 -38.386166 -123.54472 -38.418285 -122.62476 -7.8301263 26.028893
13740000000 -31.686447 64.392883 -38.06385 -160.54605 -38.361012 -158.56598 -7.0439177 18.009811
13760000000 -25.437363 -44.433521 -38.604256 161.58679 -38.662548 163.82979 -6.9778924 4.5636048
13780000000 -21.731709 -96.685539 -38.631802 125.67988 -38.586479 128.07794 -6.9402523 -6.6097074
13800000000 -20.871658 -139.45451 -38.487926 88.429771 -38.449936 90.195305 -6.6996989 -16.374847
13820000000 -23.412064 179.25027 -38.473736 46.988754 -38.704746 47.983662 -6.6772733 -29.290232
13840000000 -30.399231 123.87921 -39.013077 13.334741 -40.006565 15.281985 -7.335628 -34.646046
13860000000 -32.712643 -19.54344 -38.983902 -25.124308 -39.029381 -23.15522 -6.445569 -43.884808
13880000000 -25.018204 -83.269318 -39.19725 -63.445286 -39.384842 -62.11282 -6.7521205 -55.005745
13900000000 -22.668409 -141.64417 -39.393494 -101.26205 -39.650234 -98.251968 -6.7276731 -64.009979
13920000000 -22.465593 174.6169 -39.213409 -140.65968 -39.237431 -136.60625 -6.9352789 -73.07238
13940000000 -23.986736 132.71634 -39.747616 172.58931 -40.177464 176.15326 -8.3009253 -86.140915
13960000000 -29.302034 79.473885 -39.760445 131.84758 -39.625114 135.59853 -7.5408955 -90.608406
13980000000 -35.021473 -30.230663 -40.184692 87.232895 -40.189392 91.530594 -8.10495 -102.82781
14000000000 -29.463781 -128.94461 -40.508057 41.394836 -40.638233 46.185772 -8.6541834 -115.72546
14020000000 -24.692902 170.0813 -40.798756 -8.9524736 -40.748894 -2.7811565 -9.2494125 -129.04509
14040000000 -23.226444 122.45584 -41.320728 -58.253414 -41.235897 -51.234241 -10.013311 -139.58055
14060000000 -23.597292 85.470947 -40.952854 -107.79556 -41.481068 -101.50307 -11.909643 -159.51781
14080000000 -25.625055 37.473827 -40.17778 -163.58954 -40.064762 -158.32721 -12.32846 -178.08852
14100000000 -30.285267 -15.839769 -39.081387 141.31226 -39.222538 145.08955 -13.001712 157.28673
14120000000 -39.863792 -175.02611 -38.240231 88.725159 -38.521969 91.794121 -13.205802 128.83672
14140000000 -27.330706 111.72594 -37.084457 38.925949 -37.223053 41.409729 -13.072837 105.29203
14160000000 -22.757704 70.208618 -36.125195 -8.8317604 -36.957886 -4.5083122 -13.730325 82.714348
14180000000 -21.708662 37.90575 -35.18177 -57.349911 -35.442139 -55.260967 -11.195246 57.835426
14200000000 -22.480333 1.6949291 -34.281898 -99.79995 -34.489449 -97.80291 -10.351692 39.647327
14220000000 -26.852499 -34.336201 -33.32275 -143.30637 -33.449703 -140.19792 -9.2124424 25.370628
14240000000 -46.265617 59.883732 -32.462017 172.06238 -32.592972 173.17987 -8.4460812 11.159612
14260000000 -25.511976 63.415379 -31.971582 128.84186 -32.009819 130.9167 -8.2923231 -1.2375903
14280000000 -21.138586 34.592785 -31.406052 87.310883 -31.548698 91.103096 -7.5407839 -12.091871
14300000000 -20.290462 0.97130436 -31.267225 48.184223 -31.262428 48.959167 -7.2825236 -23.021181
14320000000 -21.906101 -32.448639 -30.748058 8.5569611 -30.945976 8.9811144 -7.3549709 -32.243988
14340000000 -28.570137 -66.239975 -30.032118 -33.01387 -29.992279 -31.209457 -6.5968323 -37.680889
14360000000 -34.177902 60.2883 -29.969622 -72.910614 -29.922039 -72.639198 -6.7509193 -48.604069
14380000000 -22.84049 35.655895 -29.56888 -111.36611 -29.57514 -110.01556 -6.7833786 -57.47863
14400000000 -19.985201 4.5517187 -29.226603 -150.67126 -29.173969 -149.71939 -6.7857723 -65.328506
14420000000 -19.950268 -29.727428 -29.062708 169.16371 -29.062365 168.95226 -6.7151341 -73.997223
14440000000 -23.979118 -61.831894 -28.769138 133.90833 -28.684231 133.37257 -7.2605429 -78.359726
14460000000 -42.795979 -66.922783 -28.265572 93.532417 -28.2246 94.38446 -7.2467771 -84.881996
14480000000 -26.185917 46.849792 -27.937399 58.226475 -28.118763 54.435295 -7.6880174 -94.328789
14500000000 -20.142763 16.483299 -27.638376 19.147875 -27.756311 15.832973 -7.9207363 -102.79411
14520000000 -18.649775 -18.218363 -27.456158 -19.153908 -27.676765 -21.676704 -8.3061476 -110.45036
14540000000 -20.988274 -49.421551 -27.138371 -57.919884 -27.605438 -60.260254 -9.472002 -116.60059
14560000000 -29.569897 -67.950729 -26.57803 -96.595093 -26.628262 -98.686226 -10.182222 -126.35409
14580000000 -27.619364 33.308273 -26.345081 -136.37224 -26.462763 -138.86328 -11.121333 -134.67706
14600000000 -20.00721 15.592837 -25.946346 -175.33569 -26.020977 -177.31758 -12.169882 -145.78226
14620000000 -18.033585 -13.404791 -25.589258 144.04376 -25.672785 141.70705 -14.004887 -159.99672
14640000000 -18.830271 -39.218555 -25.350246 103.97768 -25.423784 102.44582 -16.123331 -163.62645
14660000000 -23.359623 -53.438179 -25.082497 63.10104 -25.327171 60.761116 -20.897255 166.96536
14680000000 -26.695524 -11.263368 -24.932646 22.083368 -25.066874 19.92963 -27.539452 138.72887
14700000000 -20.924356 -0.53368127 -24.856585 -18.996874 -24.974792 -20.429037 -30.630264 43.622013
14720000000 -18.362888 -15.241805 -24.800512 -60.345425 -24.810696 -62.170712 -22.396854 9.675458
14740000000 -17.646414 -34.848499 -24.939009 -102.06408 -25.080061 -104.1709 -19.116976 -12.632832
14760000000 -18.941847 -52.326221 -25.13545 -142.91408 -25.322603 -143.86913 -15.596546 -37.328075
14780000000 -21.804548 -55.511395 -25.20372 176.37662 -25.267626 175 -14.394682 -37.80761
14800000000 -22.779491 -35.636505 -25.373047 134.36276 -25.451628 132.86832 -12.945022 -52.086132
14820000000 -19.749626 -26.620138 -25.854128 93.568146 -25.863609 92.761269 -12.480123 -59.382717
14840000000 -17.655773 -39.324673 -26.093359 54.834995 -26.059765 52.629398 -12.258477 -65.457809
14860000000 -16.890553 -56.602051 -26.110003 13.89088 -26.191444 11.690762 -12.166917 -76.166962
14880000000 -18.134102 -76.112915 -26.333101 -28.183613 -26.468733 -29.930498 -11.169125 -85.544701
14900000000 -22.000629 -80.310135 -26.683765 -69.337799 -26.722021 -71.08918 -11.440391 -90.977829
14920000000 -23.025398 -50.352501 -26.861107 -109.82301 -26.891844 -111.85341 -11.946638 -103.9177
14940000000 -19.214945 -45.289215 -27.086136 -152.16907 -26.994196 -154.63812 -12.766355 -101.57138
14960000000 -17.1443 -62.730721 -27.441229 165.71136 -27.484552 162.95215 -13.442982 -104.55241
14980000000 -17.447239 -84.672279 -27.494097 124.61009 -27.624573 121.88635 -13.783808 -110.98404
15000000000 -20.483746 -105.58952 -27.562307 80.713516 -27.655376 78.23465 -13.913592 -113.96368
15020000000 -27.389551 -90.665253 -27.821373 35.226002 -27.954952 33.035603 -14.212675 -110.27078
15040000000 -23.330561 -44.859947 -28.240211 -8.6775932 -28.360453 -11.145754 -15.553178 -132.01146
15060000000 -19.175444 -62.178677 -28.66118 -52.14959 -28.725264 -53.671719 -17.002115 -112.90897
15080000000 -18.458033 -88.209671 -29.010399 -96.666046 -29.118423 -97.190269 -17.252798 -108.02251
15100000000 -20.567305 -114.07231 -29.164907 -138.94458 -29.218916 -140.09181 -16.867517 -108.86317
15120000000 -27.902405 -126.94827 -29.0291 175.72951 -29.210155 174.40361 -16.938959 -110.86612
15140000000 -27.400391 -40.300407 -29.133017 129.6965 -29.282251 128.69572 -15.876409 -99.350815
15160000000 -21.059517 -54.849739 -29.341745 83.028191 -29.49539 83.047729 -18.907164 -120.86986
15180000000 -19.410555 -81.5765 -29.820665 39.10931 -29.855835 39.215981 -18.018042 -104.2496
15200000000 -21.228176 -103.48968 -29.935375 -3.5343468 -30.027277 -3.4671035 -17.977507 -106.67953
15220000000 -25.611149 -111.78477 -29.845194 -45.529476 -30.062262 -45.026207 -19.724995 -112.96378
15240000000 -29.319992 -66.744835 -29.450413 -89.306335 -29.685738 -88.892647 -19.967047 -113.14942
15260000000 -22.561628 -50.632328 -29.345486 -135.14656 -29.463036 -133.98877 -18.574392 -88.200951
15280000000 -19.950294 -73.678696 -29.458767 -178.94051 -29.509768 -177.5495 -26.622637 -82.37056
15300000000 -19.701605 -93.921249 -29.320536 138.15414 -29.479643 139.87735 -22.005726 -64.189056
15320000000 -21.677574 -113.5842 -29.443661 94.973915 -29.531914 96.434883 -21.398014 -43.307777
15340000000 -26.320892 -114.04891 -29.54425 54.227497 -29.608791 56.243225 -18.840269 -31.986349
15360000000 -26.573109 -75.338753 -29.268343 13.293476 -29.329432 13.754273 -15.918884 -40.955208
15380000000 -21.892765 -74.024902 -29.090126 -30.688457 -28.990963 -29.559242 -12.397821 -45.388561
15400000000 -19.704844 -98.957001 -29.360468 -73.424904 -29.226702 -72.889465 -11.481934 -48.912674
15420000000 -20.392441 -125.62199 -29.765856 -114.61515 -29.504122 -113.67147 -10.491754 -57.816158
15440000000 -22.832109 -144.87291 -29.718498 -154.27902 -29.829626 -153.40208 -9.7324829 -57.977783
15460000000 -28.311401 -146.15833 -29.94813 164.6985 -29.872227 164.91933 -8.8075857 -65.934715
15480000000 -28.520872 -102.67775 -30.112337 124.81448 -30.0604 124.45083 -7.8558459 -76.299133
15500000000 -24.058523 -109.13365 -30.331203 85.023918 -30.304836 84.568184 -7.1148267 -82.476257
15520000000 -22.157272 -133.01582 -30.651453 45.077435 -30.510691 45.053577 -6.5376835 -85.636307
15540000000 -22.294958 -164.7487 -31.287846 7.0902181 -31.757624 4.9419188 -7.6621847 -100.91013
15560000000 -24.397171 166.93965 -31.145514 -33.371387 -31.159817 -31.057447 -6.7598338 -100.3214
15580000000 -30.778244 132.85774 -31.652521 -71.038307 -31.595768 -71.297249 -6.6856117 -109.04036
15600000000 -44.349297 -99.560654 -31.778791 -109.38483 -31.75898 -109.25515 -6.2766342 -115.47442
15620000000 -29.292904 -133.24992 -32.065392 -148.00381 -31.998566 -146.6618 -6.1664209 -121.29383
15640000000 -25.661787 -179.46164 -32.488995 175.64395 -31.913574 176.19954 -6.5017996 -121.63336
15660000000 -23.20174 136.78363 -32.617504 140.58481 -33.002487 140.39632 -7.325501 -133.5667
15680000000 -23.47159 93.488419 -32.540009 98.625214 -32.490391 98.729454 -6.9390583 -139.17357
15700000000 -25.634764 48.356918 -33.086662 61.284058 -32.934788 60.099476 -7.0256538 -146.10622
15720000000 -32.231186 -1.4035156 -33.377159 25.654858 -33.270981 23.842184 -7.2924733 -154.13217
15740000000 -36.910706 143.41023 -33.365532 -12.36542 -33.242683 -14.822348 -7.4301553 -158.08534
15760000000 -23.993891 104.99774 -33.477634 -49.476154 -33.520966 -51.797565 -6.8315487 179.89328
15780000000 -20.614555 73.689468 -33.296272 -86.2724 -33.846764 -85.543373 -8.6280832 -173.58778
15800000000 -20.619036 41.312321 -33.568447 -128.43835 -33.663971 -128.59291 -9.3608131 178.15294
15820000000 -23.669716 14.585475 -34.015316 -167.74179 -34.04726 -167.2912 -9.8924732 166.8853
15840000000 -30.459604 25.072794 -34.071716 154.39818 -34.401398 152.99559 -10.53757 155.28639
15860000000 -25.021439 67.353737 -34.37991 114.18417 -34.531216 114.03737 -12.322586 147.83513
15880000000 -20.336027 55.937309 -34.667084 74.034737 -34.719551 73.752487 -11.068962 120.14718
15900000000 -18.846416 34.626137 -35.015961 34.131519 -35.180164 33.799232 -15.918346 108.54169
15920000000 -20.224642 16.458139 -35.476765 -7.54041 -35.923992 -8.5795965 -17.918636 84.616768
15940000000 -23.13265 16.213852 -36.217499 -46.482121 -36.322777 -46.458126 -16.95846 54.491779
15960000000 -23.140827 36.886543 -36.609482 -88.696175 -36.891369 -89.15535 -16.742466 19.997961
15980000000 -19.66507 42.63488 -37.671066 -131.69576 -37.533657 -130.19305 -14.471277 -16.38006
16000000000 -17.886723 31.704706 -38.732235 -170.17842 -38.572567 -172.00291 -12.442087 -33.869904
16020000000 -17.611364 20.693075 -39.533825 148.90489 -39.352077 147.37784 -11.355574 -60.134754
16040000000 -18.447306 12.999025 -40.75338 108.97028 -41.349945 107.28109 -11.325126 -62.463543
16060000000 -19.508907 19.045507 -41.786572 65.086655 -41.990425 62.476254 -9.7622957 -71.58461
16080000000 -17.890083 28.108347 -43.492176 25.876272 -43.557697 24.256878 -8.8917074 -84.041687
16100000000 -16.060585 27.370405 -44.779213 -14.784507 -44.663357 -16.391888 -7.873168 -93.367188
16120000000 -14.692781 18.57509 -45.905247 -49.950741 -45.287537 -56.510914 -7.4322152 -99.961731
16140000000 -14.989327 10.477038 -47.303951 -96.586441 -48.101082 -104.63866 -8.5083761 -120.84523
16160000000 -15.796409 8.2677412 -49.362343 -141.56635 -49.187069 -140.98332 -7.7260575 -115.9963
16180000000 -15.590925 14.194794 -51.197495 -179.85217 -49.730789 174.47536 -7.7874808 -126.55356
16200000000 -13.879424 15.902249 -52.685661 142.69101 -51.123142 131.38976 -7.5287161 -132.75658
16220000000 -12.670938 10.025681 -53.73658 100.46756 -51.675388 85.342216 -7.4709029 -140.53096
16240000000 -12.158078 3.1111305 -55.430088 69.056526 -53.362991 45.531601 -8.0459852 -142.99289
16260000000 -12.629448 -2.0943754 -54.262119 39.175148 -54.301064 18.354803 -9.032361 -152.90038
16280000000 -13.036631 -1.8819093 -51.67667 -19.71525 -51.303391 -33.583363 -8.8872776 -161.04784
16300000000 -12.216058 0.1842472 -53.812302 -67.109276 -52.831421 -85.322433 -9.6883316 -167.95876
16320000000 -11.138314 -1.6176407 -52.706436 -94.991089 -52.821697 -115.73698 -10.044341 -177.86972
16340000000 -10.315593 -6.9141479 -51.354401 -138.49129 -51.797718 -148.11339 -10.861301 176.15263
16360000000 -10.028824 -13.175634 -49.166607 -174.8394 -49.530739 174.38104 -13.554675 169.5192
16380000000 -10.578812 -16.835503 -47.110207 136.02823 -48.941654 131.61894 -13.572546 155.96996
16400000000 -10.738914 -15.270717 -46.509098 92.002136 -47.971611 91.420845 -17.952354 142.13268
16420000000 -9.9111166 -13.197191 -45.89996 52.446201 -47.026783 55.184082 -21.295013 130.97559
16440000000 -8.8124123 -17.105204 -44.585892 11.353657 -45.544613 13.290034 -25.150038 87.794518
16460000000 -8.3506241 -23.750599 -43.856121 -35.489567 -44.673733 -29.70035 -24.621298 -2.535254
16480000000 -8.6484737 -28.879713 -43.664356 -71.942322 -43.834648 -69.231384 -16.752018 -35.041374
16500000000 -9.289794 -28.493963 -42.41254 -113.49423 -42.438946 -107.18503 -14.178137 -49.230064
16520000000 -8.6859026 -24.94861 -42.576797 -159.3477 -42.744152 -156.12784 -12.324635 -69.884888
16540000000 -7.5890808 -27.207989 -42.331646 161.8759 -41.914242 164.99327 -10.763923 -76.397949
16560000000 -6.936276 -33.156422 -42.304222 122.52026 -41.744736 121.71643 -9.7236614 -85.915497
16580000000 -7.0694008 -38.503963 -41.803925 82.666969 -41.446396 82.936165 -8.1203718 -92.843872
16600000000 -7.5124159 -38.671089 -41.696941 42.098267 -41.48542 38.905731 -7.4740429 -100.8251
16620000000 -7.2878132 -37.279816 -42.162029 1.2839565 -41.721004 -0.39962253 -6.8876076 -107.85338
16640000000 -6.285615 -37.333454 -42.517982 -31.74189 -42.572182 -33.07428 -6.4584732 -116.71985
16660000000 -5.6004348 -42.710327 -42.237438 -72.898499 -42.053162 -78.509323 -6.3545341 -128.45535
16680000000 -5.450942 -47.109268 -42.718311 -114.10996 -42.515003 -117.41471 -6.4593449 -132.63937
16700000000 -5.5359387 -49.501621 -43.091797 -149.19521 -43.319221 -152.93785 -6.3816657 -137.66367
16720000000 -5.3746777 -49.252747 -42.720982 174.33101 -42.990311 169.40646 -6.1603813 -143.19202
16740000000 -4.8838716 -51.72023 -43.682549 134.76338 -45.063324 129.03723 -5.7414107 -154.83162
16760000000 -4.1448245 -54.115852 -42.700855 98.440338 -44.162174 99.172997 -5.9513302 -153.62364
16780000000 -3.7304549 -58.951645 -43.642334 59.69466 -44.8582 59.028053 -6.9566684 -165.63939
16800000000 -3.5978158 -62.533806 -43.408291 24.693007 -44.531185 25.982662 -7.430675 -168.52533
16820000000 -3.5087941 -64.673286 -43.30883 -16.939421 -44.844635 -13.792327 -7.4060507 -173.60065
16840000000 -3.2023585 -66.138206 -44.602421 -59.840366 -45.939621 -52.372959 -8.0080137 -178.92775
16860000000 -2.7770665 -70.253654 -45.54977 -88.414238 -46.919613 -75.950035 -10.822191 177.77364
16880000000 -2.2688203 -73.785339 -45.302174 -131.01237 -45.716213 -119.71206 -9.4688559 167.50616
16900000000 -2.0412347 -78.123817 -46.237949 -171.62267 -46.364105 -161.14708 -10.682401 160.07285
16920000000 -1.9997525 -81.423485 -47.105961 156.83359 -47.037888 167.71103 -11.671974 154.59346
16940000000 -1.8117981 -83.784256 -46.809929 117.60191 -46.736122 127.83488 -12.836097 148.72661
16960000000 -1.4892075 -86.729088 -47.839508 76.363609 -47.601265 84.471512 -15.352777 139.11186
16980000000 -1.1598778 -90.649529 -49.798611 45.139191 -48.973446 56.477081 -20.706408 121.37872
17000000000 -0.93638885 -95.391815 -50.024971 11.646078 -48.577869 18.023293 -25.463203 111.24382
