!Keysight Technologies,P9374A,MY57211810,A.19.30.04
!Date: Friday, May 09, 2025 11:20:20
!Correction: S11(C* 2-Port  ) 
!S21(C* 2-Port  ) 
!S12(C* 2-Port  ) 
!S22(C* 2-Port  ) 
!S2P File: Measurements: S11, S21, S12, S22:
# Hz S  dB   R 50
13000000000 -21.560896 -95.606056 -38.546829 -140.26401 -39.295589 -145.01189 -10.749464 -86.693298
13020000000 -23.052137 -77.490707 -38.732018 -177.10695 -39.557877 -178.45815 -10.377647 -88.73774
13040000000 -20.404625 -65.338608 -38.844154 151.13498 -39.444813 148.69583 -9.9201727 -92.224388
13060000000 -18.747789 -76.901451 -38.389225 115.59205 -39.363834 112.53046 -9.3162966 -88.159592
13080000000 -19.005058 -90.730255 -38.585045 81.398041 -39.80204 81.150063 -9.0419292 -94.070694
13100000000 -21.006308 -100.95102 -37.981709 46.118908 -39.108727 49.92289 -8.729846 -97.432747
13120000000 -23.291786 -83.805618 -38.548847 13.315304 -39.360004 17.674612 -8.5942373 -98.761696
13140000000 -21.33633 -67.685646 -37.538609 -24.824747 -38.334785 -20.170345 -7.8018107 -104.11903
13160000000 -18.563688 -74.305534 -37.815807 -60.1978 -38.219082 -54.311352 -7.5327506 -108.49284
13180000000 -18.301966 -90.850243 -37.439758 -97.452232 -37.881245 -91.698494 -7.0700393 -108.35712
13200000000 -19.484186 -103.52243 -37.261951 -133.54216 -37.740242 -124.76176 -7.0007315 -114.52638
13220000000 -22.325655 -107.24607 -37.381828 -175.48973 -37.521191 -169.67613 -7.3854113 -123.70179
13240000000 -22.624218 -86.523956 -36.706821 153.15221 -37.315273 157.68083 -6.7675104 -120.26254
13260000000 -20.111181 -83.273788 -37.056866 106.91579 -37.285732 116.1069 -6.3550024 -130.52902
13280000000 -18.294161 -94.344742 -37.355778 67.026299 -37.058701 77.504982 -6.3605261 -134.07153
13300000000 -18.694237 -111.79784 -37.863132 28.904118 -37.419399 36.959949 -6.5297194 -139.49921
13320000000 -20.778206 -124.79551 -38.464802 -13.404821 -37.799747 -3.9109766 -6.8365564 -145.30504
13340000000 -23.912952 -120.72421 -39.855293 -51.946774 -39.310043 -46.325699 -8.1724091 -151.66949
13360000000 -23.100998 -98.28331 -39.870186 -94.825409 -39.352566 -84.998085 -7.2751403 -156.34846
13380000000 -20.611189 -98.967239 -41.107533 -135.01965 -39.776726 -122.93623 -7.7356625 -162.59735
13400000000 -19.563004 -115.4613 -41.8787 -172.84491 -39.65274 -166.2484 -8.1447248 -166.32788
13420000000 -20.846642 -135.50931 -42.739944 140.54919 -40.993706 146.33591 -8.912199 -169.72127
13440000000 -24.016411 -145.69553 -45.309265 98.160942 -43.304554 105.59859 -9.7885075 -175.37549
13460000000 -27.928007 -126.60007 -46.258064 70.410034 -44.39143 75.317245 -11.207684 -174.89203
13480000000 -25.630219 -106.45229 -46.231682 11.204724 -43.441288 18.462137 -10.884875 178.47615
13500000000 -23.195961 -112.53526 -49.346008 -35.444969 -45.678467 -29.825111 -11.446883 176.64038
13520000000 -22.369566 -131.32881 -48.40847 -82.297218 -46.081654 -76.891693 -12.454247 175.75754
13540000000 -24.203863 -155.36826 -48.731293 -146.62903 -46.874561 -134.60376 -13.407353 176.46555
13560000000 -30.055195 -173.11136 -49.439144 150.66982 -48.10421 177.1953 -14.97003 169.27589
13580000000 -36.610256 -103.67017 -50.913006 113.4511 -48.543335 135.48918 -15.484209 174.07239
13600000000 -27.439222 -89.761864 -49.235741 68.838593 -46.895058 88.00676 -15.700728 170.36311
13620000000 -24.43009 -115.19278 -47.842026 26.956274 -46.28183 41.355637 -16.923691 172.26285
13640000000 -24.488312 -146.21733 -46.67918 -8.0037966 -44.887814 6.3473907 -17.766682 175.65907
13660000000 -28.989748 -177.72482 -44.452023 -53.458458 -43.094822 -42.496326 -18.182827 -175.95085
13680000000 -61.504547 -80.702614 -45.068241 -94.722336 -43.727924 -83.73497 -21.410864 -179.51622
13700000000 -28.546436 -64.191277 -44.7798 -125.91121 -43.30257 -119.08746 -20.122746 -177.53391
13720000000 -24.418005 -99.849052 -44.166656 -164.72504 -42.084332 -158.32317 -21.335928 -172.87897
13740000000 -23.802053 -134.09546 -42.890606 165.96324 -41.05946 167.88808 -22.063515 -160.437
13760000000 -26.101963 -169.1514 -41.355534 127.14697 -40.237347 128.59641 -21.535717 -153.40259
13780000000 -37.389023 159.01131 -41.429668 90.435478 -39.891052 89.111481 -20.879494 -142.15562
13800000000 -31.815151 -71.767204 -40.412952 59.072075 -39.197697 56.516724 -21.681278 -140.09818
13820000000 -25.041557 -97.564964 -39.345291 19.401251 -38.835621 16.742521 -22.110546 -142.77562
13840000000 -23.688091 -136.3436 -39.459816 -16.745615 -38.792168 -20.01536 -20.992025 -129.21227
13860000000 -25.464338 -169.23666 -38.743488 -49.943504 -38.242256 -54.228191 -19.559023 -124.72945
13880000000 -29.713175 156.69727 -37.947392 -83.689255 -37.241234 -88.057014 -18.097446 -123.23082
13900000000 -38.546547 125.05593 -36.657555 -121.61174 -36.337917 -127.20741 -17.370096 -118.89241
13920000000 -34.912941 -117.77331 -36.980427 -160.17712 -36.684341 -164.54349 -16.865845 -116.99935
13940000000 -27.788881 -147.11707 -36.882797 168.54498 -37.218304 162.96153 -17.766819 -124.52021
13960000000 -25.297419 -179.63351 -35.836872 133.88393 -35.845814 127.4828 -15.580815 -120.20121
13980000000 -25.716011 143.5802 -35.321617 97.020607 -35.875568 92.296265 -14.484032 -123.54084
14000000000 -26.673613 105.22038 -34.845608 63.138535 -35.225815 60.180313 -13.60855 -124.72427
14020000000 -30.441275 63.457798 -34.367977 28.750137 -34.7607 25.319593 -13.060398 -126.51228
14040000000 -45.578114 29.945183 -33.734447 -5.74089 -34.13129 -6.9001904 -12.535964 -126.04464
14060000000 -31.094948 168.47551 -33.283855 -41.189827 -34.221027 -41.445789 -13.315058 -134.21721
14080000000 -26.195789 128.55038 -32.541565 -77.607185 -32.928219 -77.139832 -11.680008 -137.01506
14100000000 -24.430408 84.355637 -32.111294 -113.56748 -32.569668 -112.77602 -10.983356 -141.8932
14120000000 -24.441763 51.566799 -31.50956 -148.86179 -31.827734 -147.54378 -10.892524 -145.6328
14140000000 -25.868679 16.785963 -30.840191 174.82053 -31.04088 175.19345 -10.474455 -149.70259
14160000000 -31.366131 -3.9369745 -30.551744 135.74689 -31.485231 137.5244 -11.019769 -153.01332
14180000000 -34.633446 74.798355 -29.971067 102.31626 -30.392965 104.08195 -10.487152 -160.16568
14200000000 -26.862022 71.835846 -29.381655 65.016724 -29.567286 66.03566 -9.7204161 -166.16019
14220000000 -23.036072 46.020447 -29.05455 26.851507 -29.241236 27.92028 -9.8087406 -171.99757
14240000000 -21.598099 15.403424 -28.49921 -9.1921673 -28.860271 -9.1154861 -9.9468517 -177.31358
14260000000 -22.921564 -15.195778 -28.211805 -47.196724 -28.37035 -46.169472 -9.8311501 179.11806
14280000000 -28.949755 -34.558849 -28.040665 -84.305695 -28.520765 -81.669563 -10.657645 175.81961
14300000000 -33.589767 39.696735 -27.421677 -122.70196 -27.649994 -122.25416 -10.113538 165.7067
14320000000 -24.303091 42.718925 -27.273428 -160.29663 -27.597828 -158.96664 -10.135725 158.13768
14340000000 -21.23514 14.638796 -27.248686 164.34694 -27.313864 165.84392 -10.730154 153.08122
14360000000 -20.855764 -15.222077 -26.666098 126.71864 -26.953409 126.89396 -11.143383 148.05672
14380000000 -23.243429 -45.644268 -26.554846 87.566597 -26.766897 89.90715 -11.667012 146.13513
14400000000 -35.294056 -54.059975 -26.545605 50.106499 -26.697788 51.58614 -12.089535 138.4599
14420000000 -27.672989 37.219994 -26.413494 13.268416 -26.819767 15.285269 -13.176544 131.42203
14440000000 -22.013554 18.203398 -26.30513 -24.447153 -26.460056 -22.600418 -12.53834 124.78535
14460000000 -20.708942 -12.212145 -26.318386 -61.252823 -26.497414 -58.652584 -13.562767 121.02914
14480000000 -22.257227 -35.932316 -26.346701 -98.140099 -26.427999 -96.146629 -14.567364 116.88257
14500000000 -27.243759 -50.922657 -26.149298 -134.59605 -26.260395 -132.64714 -15.688391 112.23681
14520000000 -30.845346 4.1144381 -26.087584 -172.73813 -26.186367 -169.22015 -16.45373 106.12408
14540000000 -23.539717 17.979385 -26.187761 150.37416 -26.301863 152.89885 -17.300928 93.228081
14560000000 -20.607048 -1.1540364 -26.383753 114.03215 -26.409866 114.88519 -16.630865 92.614731
14580000000 -20.124388 -24.72262 -26.240255 78.771767 -26.26548 80.659241 -18.570002 87.028282
14600000000 -22.486282 -37.960175 -26.158648 41.437569 -26.078001 43.19099 -20.941057 82.434174
14620000000 -26.233894 -29.213488 -26.20528 5.0945244 -26.137863 5.9255447 -21.267164 72.665627
14640000000 -24.362907 -1.0832893 -26.131832 -30.418425 -25.987146 -29.000277 -23.999275 54.855999
14660000000 -20.608585 -0.20281386 -25.911833 -68.86348 -25.885372 -68.056778 -21.676159 54.587704
14680000000 -18.461485 -16.975245 -26.147421 -106.16879 -25.985584 -105.82909 -24.725101 48.770451
14700000000 -18.608042 -37.252213 -26.250916 -141.58772 -26.193771 -142.04462 -29.635981 27.299915
14720000000 -21.392385 -49.48214 -26.262508 -177.27637 -26.177923 -177.56636 -29.527838 -2.9167547
14740000000 -24.492638 -32.370625 -26.233887 146.62352 -26.183744 146.42741 -30.371243 -30.853422
14760000000 -20.791485 -14.925858 -26.051435 109.49157 -26.015554 109.59265 -25.338379 -64.689888
14780000000 -18.198936 -26.579096 -25.995834 72.292038 -26.029596 72.52063 -29.749701 -45.125946
14800000000 -17.312395 -42.998119 -26.181799 35.590275 -26.056875 35.683918 -25.632973 -95.348984
14820000000 -18.494274 -59.944916 -26.072805 -0.71390748 -26.119532 -1.1641676 -24.512072 -114.51003
14840000000 -21.161577 -65.649422 -26.075888 -37.188877 -26.284857 -37.333305 -23.767366 -114.2655
14860000000 -22.377998 -48.657372 -26.113977 -73.827118 -26.343376 -72.376335 -21.813549 -124.21635
14880000000 -19.473553 -40.158371 -25.950138 -109.40214 -26.01965 -108.56248 -19.592304 -125.11946
14900000000 -17.638216 -53.973793 -25.692453 -147.99039 -25.806032 -147.30826 -20.384415 -140.79999
14920000000 -17.882885 -70.250313 -25.784094 173.84296 -25.922384 175.5213 -17.635536 -163.79788
14940000000 -19.516867 -81.466293 -25.901947 136.67883 -25.779865 137.97429 -19.117779 -166.95596
14960000000 -21.885944 -81.030197 -25.76862 98.814262 -25.847498 99.366974 -19.441198 -170.00113
14980000000 -22.474976 -66.22187 -25.791721 60.235153 -25.906178 61.986599 -19.165676 -175.40965
15000000000 -20.680916 -61.054535 -25.892454 23.261307 -25.933369 24.073547 -19.588451 178.3143
15020000000 -18.985888 -71.416367 -25.738411 -15.415733 -25.811834 -14.033678 -20.827284 169.27477
15040000000 -19.663616 -90.336266 -25.866821 -55.363918 -25.73213 -53.031101 -15.714691 148.15622
15060000000 -22.512222 -103.32021 -26.112606 -94.033218 -25.859177 -92.980331 -19.140373 139.10603
15080000000 -25.63648 -90.16539 -26.373953 -132.39346 -26.184343 -131.75009 -21.232431 135.51358
15100000000 -25.033909 -71.03241 -26.538685 -170.91649 -26.453228 -170.21812 -22.915514 126.02374
15120000000 -22.152836 -67.139648 -26.870613 150.40836 -26.649141 150.87181 -23.331835 107.20313
15140000000 -20.401043 -80.860023 -27.144772 111.69 -26.946009 111.59724 -26.587093 65.108864
15160000000 -21.711418 -100.70027 -27.439236 73.428215 -27.264715 73.272278 -20.123323 92.591331
15180000000 -26.193361 -107.67715 -27.620464 35.12413 -27.495081 34.756531 -25.079926 55.353844
15200000000 -27.750359 -64.505417 -27.934763 -5.3451881 -27.982969 -6.7648835 -27.910938 12.224746
15220000000 -23.294743 -59.630455 -28.702845 -43.534218 -28.868778 -44.413532 -25.745638 2.0473738
15240000000 -20.87723 -70.839119 -29.140398 -79.155418 -29.377726 -80.577461 -24.150002 -20.128542
15260000000 -20.358513 -88.146164 -29.26392 -116.74631 -29.474804 -118.55587 -19.12793 -38.892239
15280000000 -22.521597 -109.30333 -29.644848 -156.08713 -30.006227 -157.27431 -24.125513 -24.697981
15300000000 -27.149736 -99.273079 -29.98922 166.56877 -30.341759 165.76297 -20.587921 -62.149872
15320000000 -25.028198 -66.821564 -30.236717 128.68913 -30.726074 126.97366 -19.947123 -72.359772
15340000000 -20.960855 -77.252106 -30.537884 89.350494 -31.245893 89.947205 -19.003952 -75.016182
15360000000 -20.105501 -95.657501 -31.191153 51.472298 -31.793827 54.013783 -17.384954 -84.3339
15380000000 -21.175369 -113.08282 -31.490692 15.860952 -31.671535 19.469223 -15.528762 -84.839447
15400000000 -23.660715 -129.32068 -31.543873 -21.362123 -31.733135 -17.950844 -16.127253 -97.851898
15420000000 -27.670109 -121.84257 -31.852531 -60.090065 -31.827242 -56.168243 -14.994792 -114.00916
15440000000 -25.225986 -98.196808 -31.929169 -98.044296 -32.057076 -94.801979 -15.322122 -113.62257
15460000000 -22.113197 -107.78275 -32.197773 -135.81473 -32.307468 -132.63556 -14.909516 -116.52994
15480000000 -21.785786 -129.19543 -32.332687 -173.56316 -32.283745 -170.49921 -13.857509 -121.23235
15500000000 -23.128651 -151.24063 -32.548576 149.17792 -32.232849 151.90623 -13.733034 -126.18869
15520000000 -26.049572 -168.02293 -32.398666 110.91185 -32.024033 111.74779 -13.822988 -127.61945
15540000000 -30.015673 -176.25685 -32.717289 73.049187 -33.032257 73.624489 -12.780678 -148.87762
15560000000 -31.580984 -142.27817 -32.580727 35.378441 -32.408432 36.125313 -12.905178 -148.28357
15580000000 -27.343639 -139.80882 -32.605633 -3.9049618 -32.610783 -3.9438844 -12.711012 -151.30435
15600000000 -25.32918 -168.06458 -32.556934 -41.025398 -32.707024 -40.421623 -12.428974 -154.85988
15620000000 -25.237516 157.91287 -32.336926 -80.128853 -32.411488 -79.490608 -12.362154 -162.69511
15640000000 -26.1663 117.58451 -32.274357 -118.83494 -32.32571 -117.64792 -13.47283 -166.21747
15660000000 -28.414595 83.611786 -32.161785 -156.24182 -32.689541 -153.64629 -11.501365 -179.43744
15680000000 -36.760422 56.619675 -32.218269 163.69363 -32.586582 164.56747 -12.076495 176.96613
15700000000 -35.88591 157.81659 -31.892456 126.32719 -32.415573 127.70811 -12.239771 173.17146
15720000000 -26.974047 126.54803 -31.788818 86.831436 -32.149971 89.61412 -12.290051 163.97609
15740000000 -23.498146 86.586716 -31.643721 47.598038 -31.781485 50.290646 -12.919024 157.14662
15760000000 -21.93751 58.649067 -31.377047 9.6092615 -31.532152 13.125922 -9.1762714 139.25446
15780000000 -23.523659 35.332779 -31.085329 -31.557152 -31.326067 -24.450089 -12.308812 141.19347
15800000000 -28.216061 28.476208 -31.415083 -70.389481 -31.134048 -65.280724 -13.683589 136.16455
15820000000 -28.670538 71.5812 -31.340157 -108.48077 -31.023083 -103.83798 -13.862011 127.44969
15840000000 -23.274446 69.748634 -31.071629 -147.43759 -30.748343 -144.34109 -14.346056 115.96528
15860000000 -20.144207 48.246105 -31.069283 173.21519 -30.555363 174.89406 -16.216492 105.22836
15880000000 -19.669907 28.411407 -31.092009 133.2108 -30.690395 133.41473 -12.363916 95.266632
15900000000 -21.711548 14.610304 -31.194075 95.61557 -31.020208 96.191597 -17.736969 88.632782
15920000000 -24.990122 27.181673 -31.219501 55.865601 -31.245428 55.990112 -20.527483 84.101906
15940000000 -22.748955 48.492573 -31.233404 18.36054 -31.332693 19.316692 -20.329205 67.20639
15960000000 -19.356913 42.645199 -31.454374 -20.988253 -31.54805 -19.70927 -21.710079 46.344574
15980000000 -17.832129 28.698545 -31.656105 -58.342533 -31.428387 -55.507721 -22.403849 8.3747721
16000000000 -18.2794 16.181519 -31.589808 -95.781586 -31.280243 -94.435272 -22.923466 -2.6491821
16020000000 -19.942682 14.035145 -31.784813 -134.97234 -31.550474 -134.07108 -25.983383 -86.465706
16040000000 -20.271589 27.176376 -32.122318 -170.81467 -32.601685 -169.85666 -25.606144 -72.284004
16060000000 -18.069044 33.187866 -32.173382 151.81555 -32.117085 152.77681 -22.494617 -63.630836
16080000000 -16.031384 26.287464 -32.314941 114.82241 -32.28516 114.75766 -20.207985 -77.778091
16100000000 -15.424779 17.649157 -32.423874 77.798843 -32.229115 77.874504 -18.179855 -84.933136
16120000000 -15.520461 10.298923 -32.757313 38.997269 -32.434174 39.165188 -17.580549 -91.744888
16140000000 -16.562906 11.606492 -33.348064 3.8060908 -34.268436 2.7496819 -16.362019 -134.46768
16160000000 -16.137369 18.328241 -33.191219 -31.420776 -33.638821 -29.298708 -16.434883 -121.71375
16180000000 -14.295256 19.051323 -33.485725 -68.701111 -33.777103 -68.475868 -15.644338 -121.53629
16200000000 -12.974781 11.74501 -33.716965 -103.46273 -33.891647 -101.99105 -14.55808 -123.14394
16220000000 -12.677314 3.8220356 -33.600746 -138.6395 -33.795063 -138.20126 -14.090539 -132.10048
16240000000 -12.912582 -0.86126035 -33.756565 -176.59825 -33.54929 -173.86377 -14.165137 -130.40004
16260000000 -13.453995 1.457772 -34.342258 148.60983 -34.799 152.82956 -13.760054 -149.63396
16280000000 -12.748073 4.4676557 -34.34787 112.54542 -34.128975 116.04156 -12.954476 -148.75342
16300000000 -11.322761 1.4720856 -34.615852 79.070175 -34.11898 77.956238 -12.553169 -149.76624
16320000000 -10.640286 -5.6956301 -34.693069 44.550751 -34.542686 40.954205 -12.156363 -157.44604
16340000000 -10.590228 -11.656773 -34.331982 8.0740576 -34.578136 7.4633198 -11.863001 -160.45398
16360000000 -10.804799 -13.877662 -34.801003 -28.870995 -34.694881 -29.833963 -12.517078 -161.16451
16380000000 -10.911098 -11.645053 -34.92482 -60.825268 -35.340416 -58.303703 -11.410572 -172.28157
16400000000 -10.087765 -11.538008 -34.940144 -98.81559 -34.959496 -96.276077 -11.428405 -172.51877
16420000000 -9.2360163 -15.593816 -35.267231 -132.05052 -35.048119 -130.14107 -10.817235 -174.2547
16440000000 -8.9136343 -21.752819 -35.154148 -166.60741 -34.949108 -166.42993 -11.017459 177.50156
16460000000 -8.9764357 -25.221426 -34.790524 156.84189 -34.677723 159.02907 -11.007823 175.82678
16480000000 -9.0730972 -25.588881 -35.008533 120.15969 -34.539703 120.01185 -11.416208 170.5034
16500000000 -8.8307829 -24.950344 -35.155128 85.067596 -34.731468 83.405045 -10.705112 165.97563
16520000000 -8.1693201 -26.261145 -35.111294 50.986832 -35.255161 47.463909 -10.094136 167.47852
16540000000 -7.5353837 -30.308475 -35.23333 16.475719 -35.325226 12.366322 -10.042254 160.73621
16560000000 -7.3276949 -35.000702 -34.991985 -18.353714 -35.210236 -22.173723 -10.185814 154.05475
16580000000 -7.4178066 -36.884521 -34.98819 -56.034069 -35.076843 -58.282532 -10.358653 149.97574
16600000000 -7.3551188 -36.302563 -34.827251 -91.854767 -35.11203 -93.183334 -10.367056 143.17235
16620000000 -6.865386 -37.309795 -34.822941 -128.78108 -34.849934 -130.03804 -10.202641 135.83502
16640000000 -6.1773171 -39.645988 -34.357166 -165.87515 -34.888973 -164.69293 -9.4679937 143.00235
16660000000 -5.8049026 -43.937046 -34.836521 157.27818 -34.60397 155.1499 -9.5939426 131.88217
16680000000 -5.7048373 -46.804535 -34.852608 121.07983 -34.586033 119.12444 -9.9066868 124.70729
16700000000 -5.5395551 -47.833599 -34.886833 83.988304 -34.950039 80.909241 -10.540268 116.86893
16720000000 -5.1349416 -48.756359 -34.714787 46.760056 -34.922733 43.609287 -10.303841 111.73022
16740000000 -4.6997304 -52.788483 -34.760136 9.7027216 -35.987801 7.2758956 -10.046286 128.80949
16760000000 -4.1854706 -55.510651 -34.890881 -31.863554 -36.168743 -29.941139 -10.916677 108.86218
16780000000 -3.9152122 -59.390381 -35.116661 -65.96022 -35.978458 -68.186897 -10.895109 94.763603
16800000000 -3.7320912 -61.760189 -35.223022 -107.01975 -35.912327 -104.99923 -11.729633 83.49044
16820000000 -3.4070935 -63.735958 -35.740383 -143.87363 -36.173859 -141.49046 -12.372157 78.740242
16840000000 -2.9905519 -66.59288 -35.578239 177.64609 -35.936054 179.84727 -12.753555 68.091064
16860000000 -2.725708 -71.574379 -35.913414 137.55002 -36.922382 141.9416 -12.906186 54.798256
16880000000 -2.3990672 -74.5243 -36.592312 98.808838 -36.975254 104.16238 -14.604902 57.092072
16900000000 -2.1729429 -77.799286 -36.929726 60.629391 -36.958889 63.302235 -15.058193 39.322681
16920000000 -1.971982 -80.757607 -37.516666 22.321426 -37.798706 23.154177 -17.065849 26.539429
16940000000 -1.6781653 -83.932762 -37.974304 -15.854776 -38.445007 -13.527757 -18.183588 22.292162
16960000000 -1.4262967 -87.569801 -38.566593 -55.055447 -38.960369 -56.636101 -18.477875 4.3666511
16980000000 -1.2029859 -91.33313 -39.250027 -93.927116 -40.119839 -91.957909 -17.530523 -3.2533991
17000000000 -1.0140244 -95.547371 -39.910152 -133.14903 -40.24646 -133.20522 -20.023218 -22.850174
