!Keysight Technologies,P9374A,MY57211810,A.19.30.04
!Date: Friday, May 09, 2025 10:18:13
!Correction: S11(Cdelta 2-Port  ) 
!S21(Cdelta 2-Port  ) 
!S12(Cdelta 2-Port  ) 
!S22(Cdelta 2-Port  ) 
!S2P File: Measurements: S11, S21, S12, S22:
# Hz S  dB   R 50
13000000000 -20.235102 -83.602623 -37.520222 162.52844 -37.61908 163.92683 -6.8721929 -101.15957
13020000000 -20.757044 -83.634544 -37.194706 123.13006 -37.509327 124.04951 -7.3364253 -113.13064
13040000000 -20.889971 -79.064957 -36.831913 81.011551 -37.205265 83.79586 -7.6905956 -126.24117
13060000000 -20.425533 -79.764191 -37.420166 38.388531 -37.440983 41.260475 -8.0572948 -135.02174
13080000000 -20.696905 -84.866066 -37.800198 3.231667 -37.837597 5.9474878 -8.0791016 -151.17267
13100000000 -20.574881 -84.8647 -37.436489 -34.230282 -37.274616 -31.889067 -8.4895124 -165.8821
13120000000 -20.580544 -85.210052 -37.059498 -73.271408 -37.073105 -72.822411 -8.9526482 179.32123
13140000000 -20.986643 -82.142776 -37.800308 -117.44782 -37.590778 -115.9017 -9.1750221 160.01276
13160000000 -19.936317 -79.098206 -37.774227 -153.97543 -37.581062 -153.01889 -8.7816315 145.27185
13180000000 -19.45409 -88.342163 -38.472355 163.756 -38.331188 165.64224 -8.9764214 128.26907
13200000000 -20.385357 -95.342285 -39.29269 129.1736 -38.96302 130.60228 -8.4959469 112.82121
13220000000 -20.892265 -96.090828 -39.017735 97.516525 -39.002281 94.828186 -8.5202246 97.445541
13240000000 -20.972734 -92.929749 -38.921535 50.346542 -39.139183 52.332092 -8.1863546 78.990868
13260000000 -20.039499 -89.961861 -39.565571 15.107082 -39.210171 16.009699 -7.4828591 69.846466
13280000000 -19.196455 -98.373154 -39.611229 -24.367502 -39.300987 -24.515656 -7.0761938 58.634354
13300000000 -20.097301 -112.8279 -40.442276 -61.301548 -40.24506 -61.870827 -6.7494178 47.539951
13320000000 -22.195776 -112.87248 -40.701405 -96.436516 -40.43663 -97.249443 -6.3447404 36.785767
13340000000 -22.225042 -107.05176 -39.68066 -134.14209 -40.284946 -136.42619 -6.1058092 24.068674
13360000000 -21.158672 -102.90601 -40.626926 -171.3302 -40.651642 -173.13847 -6.0606184 18.187357
13380000000 -20.231768 -112.68208 -40.835293 148.92905 -41.076263 148.01685 -5.7289758 9.3140268
13400000000 -21.317589 -127.99518 -41.023441 111.8843 -40.880024 111.89655 -5.6458178 1.1752514
13420000000 -23.971348 -132.57204 -41.435558 72.768715 -41.387901 72.018372 -5.5214677 -6.8906498
13440000000 -25.641346 -117.89365 -41.303505 33.560257 -41.356319 32.114574 -5.3806505 -14.088164
13460000000 -22.702724 -113.64795 -42.101593 -12.721176 -42.863258 -10.627114 -6.0088511 -25.819086
13480000000 -22.783298 -127.77995 -42.414978 -41.731724 -42.503937 -43.302059 -5.3357086 -27.211861
13500000000 -24.014669 -139.98384 -42.041634 -83.930496 -42.552593 -86.203125 -5.2676816 -34.865089
13520000000 -27.690128 -143.76537 -42.745926 -121.20734 -43.30233 -121.52591 -5.3032856 -43.079449
13540000000 -29.569601 -119.39015 -42.269859 -158.46718 -42.745205 -157.9446 -5.2875724 -49.334034
13560000000 -26.485308 -118.79946 -42.817726 159.20479 -43.180603 159.61295 -5.3212523 -54.157017
13580000000 -25.330912 -132.5887 -43.794357 120.75382 -44.424725 124.97738 -5.9518595 -61.688057
13600000000 -28.649988 -149.59383 -42.733261 88.0756 -42.919067 88.977066 -5.432313 -69.154922
13620000000 -32.453754 -129.56821 -41.710773 41.558895 -42.330566 42.722549 -5.4597926 -75.527611
13640000000 -30.840387 -107.81876 -42.569241 -4.3492904 -43.131718 -0.81892997 -5.7710476 -84.525627
13660000000 -28.498505 -114.35474 -42.553162 -40.181049 -42.685616 -36.821648 -5.6371894 -92.017349
13680000000 -28.378448 -129.73727 -42.527729 -86.112823 -42.943192 -78.552322 -6.4141798 -99.27079
13700000000 -30.336153 -126.75689 -41.820335 -121.52399 -41.923649 -117.05828 -6.1966095 -107.55591
13720000000 -31.657394 -114.44054 -41.93251 -162.15401 -41.963081 -159.64305 -6.7850242 -114.16706
13740000000 -28.299662 -116.16111 -40.929432 157.46979 -40.759476 158.81503 -6.9101171 -124.80338
13760000000 -29.493532 -134.17009 -40.669991 111.83451 -40.592869 112.40697 -7.2496057 -135.65033
13780000000 -31.117819 -127.54358 -40.485352 70.084877 -40.278454 72.283203 -7.3157268 -145.23383
13800000000 -27.724678 -123.83226 -39.787624 32.033123 -39.517456 33.836483 -7.7480831 -157.41785
13820000000 -27.821859 -132.30898 -39.143196 -6.5775752 -39.229313 -8.9970503 -8.7879677 -171.7426
13840000000 -27.512482 -143.07176 -37.673882 -53.041748 -37.628277 -53.129612 -8.8321505 177.33842
13860000000 -29.842178 -161.0152 -37.451675 -97.58757 -37.602024 -96.692856 -9.3778934 162.14296
13880000000 -36.666016 -158.03883 -36.713367 -137.79944 -36.71841 -137.70096 -9.232131 147.42516
13900000000 -30.868605 -140.53836 -36.02047 179.95525 -35.911125 179.81987 -9.4733028 131.47348
13920000000 -27.352686 -163.1817 -35.508213 135.80597 -35.527119 135.7536 -9.7299013 114.95086
13940000000 -26.508261 168.22235 -34.766655 97.132004 -35.435654 96.188347 -9.491786 98.497391
13960000000 -29.055124 144.84468 -34.512688 53.115788 -34.65551 54.120605 -9.4137611 79.40406
13980000000 -35.409901 112.31197 -33.757454 11.288887 -33.795338 12.096683 -8.9480028 65.105141
14000000000 -40.889946 161.23576 -33.684181 -34.319344 -33.730164 -34.018082 -8.7543812 51.44931
14020000000 -30.560423 161.7872 -33.707348 -73.13768 -33.715702 -73.593666 -8.4592276 36.654274
14040000000 -26.353083 128.0399 -33.204334 -113.27435 -33.255455 -112.15628 -8.0100832 22.496855
14060000000 -25.965815 93.585869 -32.703823 -157.97798 -33.009682 -156.58386 -7.7854486 11.453107
14080000000 -29.442917 55.826225 -32.986343 165.43565 -33.051445 166.29582 -7.5517335 1.9077854
14100000000 -33.537479 40.053738 -32.548336 126.04063 -32.695881 126.60226 -7.394886 -8.7542019
14120000000 -34.499008 79.363861 -32.131985 84.084015 -32.269058 84.896339 -7.1728539 -17.967531
14140000000 -27.806095 81.7892 -32.198578 44.009148 -32.226257 45.013248 -7.3183875 -28.368414
14160000000 -24.568363 56.142422 -31.493931 4.5169158 -32.239067 7.5781069 -7.02319 -35.556602
14180000000 -24.690186 28.908123 -32.286221 -34.937832 -32.643715 -33.49736 -7.5306973 -44.93129
14200000000 -27.421862 6.9018259 -31.598217 -71.579292 -31.676889 -69.619293 -7.1894636 -53.986431
14220000000 -30.242619 24.234247 -31.138786 -112.77779 -31.122507 -111.12499 -7.2995162 -60.054543
14240000000 -28.009378 36.701645 -31.336388 -154.41388 -31.493835 -153.77672 -7.6955514 -69.808899
14260000000 -24.252888 27.832661 -31.342585 167.88461 -31.411673 169.76187 -7.797709 -79.082054
14280000000 -23.724798 9.5562286 -31.015007 126.98065 -31.166037 130.47435 -7.8655376 -86.884476
14300000000 -25.053299 -7.1743712 -30.978146 88.576797 -30.957924 90.269539 -8.2252483 -95.534332
14320000000 -27.594908 -9.2536745 -31.113346 51.899067 -31.170757 53.159313 -9.0070639 -104.21213
14340000000 -26.936043 7.6760235 -30.632336 12.572932 -30.456617 14.501713 -9.4307613 -111.77644
14360000000 -25.26473 0.87265754 -30.144844 -28.256483 -30.129032 -27.718872 -10.114943 -123.67599
14380000000 -24.19599 -1.3599374 -30.508774 -70.538177 -30.327888 -68.108574 -10.379626 -134.49031
14400000000 -24.32634 -10.70317 -30.842104 -108.59171 -30.586319 -107.45821 -11.207042 -146.30113
14420000000 -25.662519 -20.416058 -30.6689 -144.58652 -30.683655 -145.05811 -12.884475 -158.44749
14440000000 -26.237154 -6.5029755 -29.945728 175.40862 -29.800777 175.53622 -13.697734 -179.44742
14460000000 -25.371479 -10.099612 -30.108427 133.23573 -29.916256 133.87106 -15.147166 161.80446
14480000000 -25.253696 -7.4767647 -30.189751 94.332115 -30.13311 93.855042 -15.697754 137.51286
14500000000 -23.929319 -4.1658087 -30.025093 53.103096 -29.9373 53.782089 -16.051704 114.88625
14520000000 -23.200483 -15.160694 -30.540886 12.88212 -30.442152 13.097146 -15.937017 89.155304
14540000000 -24.31171 -21.385248 -30.465017 -23.121304 -30.629059 -23.409103 -14.472288 57.832413
14560000000 -24.927996 -15.759267 -30.014484 -63.535057 -30.14925 -64.143234 -12.850653 43.301048
14580000000 -24.407057 -9.9533491 -29.962259 -107.50279 -30.017544 -106.94843 -11.662864 26.270523
14600000000 -22.447449 -3.5035326 -30.499557 -149.57837 -30.533894 -149.22806 -10.888062 12.046825
14620000000 -21.009113 -15.269525 -30.817381 171.97778 -30.89802 171.79279 -10.086859 0.72488487
14640000000 -21.258741 -28.060625 -31.069626 133.44753 -31.267056 133.53792 -9.3970451 -13.570123
14660000000 -22.76289 -27.452976 -31.170702 93.366371 -31.369537 92.986702 -8.725503 -20.09676
14680000000 -22.651524 -18.00021 -31.219755 53.014473 -31.3757 54.324203 -8.245369 -29.69808
14700000000 -20.665031 -16.624414 -31.57332 12.894999 -31.759184 13.497551 -7.9627385 -40.138554
14720000000 -19.445635 -22.418936 -31.555325 -27.124334 -31.728642 -26.093212 -7.8487844 -46.937588
14740000000 -19.186844 -37.485939 -32.072037 -67.268341 -32.20557 -66.250359 -7.8720779 -55.678139
14760000000 -20.502518 -45.597374 -32.336655 -106.2525 -32.483006 -105.1603 -7.3300242 -64.678406
14780000000 -21.692554 -35.707695 -32.339607 -144.96043 -32.572361 -143.62534 -7.8248606 -68.73098
14800000000 -19.127487 -37.26672 -32.198593 175.96196 -32.368305 177.82848 -7.5023932 -76.904022
14820000000 -18.875412 -45.360046 -32.149025 134.90213 -32.375816 136.79149 -7.7945247 -83.12455
14840000000 -19.324083 -51.683392 -32.133705 93.55864 -32.372227 96.417503 -8.2471428 -88.399506
14860000000 -19.464476 -57.226913 -32.246929 52.9403 -32.45224 55.18594 -8.4829903 -95.850555
14880000000 -20.342916 -57.893703 -32.388725 11.250435 -32.55648 14.130849 -8.184866 -101.95828
14900000000 -19.7953 -56.350384 -32.571503 -27.356905 -32.4758 -25.100508 -8.770505 -107.47377
14920000000 -19.074194 -62.2211 -32.039486 -66.745575 -32.109039 -64.442795 -9.2298746 -118.36922
14940000000 -19.729301 -69.417625 -31.548178 -109.11535 -31.428562 -107.79175 -10.373235 -118.61674
14960000000 -19.937626 -71.441475 -31.28933 -155.90031 -31.250145 -153.98938 -11.329322 -122.09471
14980000000 -20.25926 -78.001404 -31.74789 160.70932 -31.66494 162.79488 -11.920822 -127.05291
15000000000 -21.916248 -79.311897 -31.795439 120.38039 -31.720695 121.24076 -12.499822 -129.12399
15020000000 -21.409079 -72.412659 -31.602859 78.618118 -31.602289 79.318626 -13.691447 -125.40782
15040000000 -21.282162 -77.891495 -31.271492 36.368294 -31.235802 37.898445 -14.697457 -143.63029
15060000000 -21.578712 -82.854233 -30.971806 -6.6065612 -30.93965 -5.4753404 -16.88291 -123.37947
15080000000 -21.758896 -88.420174 -30.826925 -52.665115 -30.826946 -51.336025 -17.291821 -111.57803
15100000000 -23.717897 -97.644737 -31.139639 -97.731689 -31.211824 -96.270432 -16.570242 -106.1923
15120000000 -25.884544 -78.825394 -31.418852 -139.60699 -31.607775 -137.63033 -16.097881 -102.65721
15140000000 -22.447384 -66.736221 -31.537294 179.19107 -31.440969 -178.55922 -13.997563 -90.972992
15160000000 -21.822504 -82.740494 -31.351267 137.25494 -31.338943 138.97209 -15.522731 -104.78613
15180000000 -22.784912 -91.689331 -31.36335 93.957825 -31.369759 95.96608 -13.596003 -96.758583
15200000000 -24.839931 -92.681541 -31.48164 50.880016 -31.393166 53.727535 -12.545044 -100.69724
15220000000 -27.033878 -73.676498 -31.865847 8.2081604 -31.691019 10.744938 -12.606154 -107.20615
15240000000 -22.7703 -59.940731 -32.05117 -32.589806 -32.104603 -30.390593 -11.841073 -111.92865
15260000000 -20.801456 -76.815605 -32.382076 -73.636208 -32.102642 -70.890869 -10.749579 -109.28413
15280000000 -21.471436 -97.714668 -32.716084 -112.88504 -32.292027 -111.33499 -12.237439 -124.40216
15300000000 -24.334219 -100.65592 -32.384693 -153.51389 -32.149387 -151.14204 -11.397804 -125.62299
15320000000 -25.274757 -88.970566 -32.568844 163.48889 -32.270832 165.04114 -11.741401 -134.00945
15340000000 -23.366394 -79.790779 -33.32272 125.13966 -33.090847 125.25864 -12.326327 -142.21104
15360000000 -20.985701 -86.856316 -33.085114 86.961433 -32.984581 87.967262 -12.043264 -146.74838
15380000000 -20.995953 -106.92458 -33.184212 44.417091 -32.734425 45.335823 -12.438315 -147.04869
15400000000 -22.901894 -122.39046 -33.683483 5.7468448 -33.306568 5.1815453 -13.212836 -159.38948
15420000000 -25.497717 -120.83115 -33.6754 -30.922441 -33.203766 -32.409924 -13.053437 -169.2437
15440000000 -24.783482 -112.39871 -33.582069 -72.276604 -33.465279 -73.253838 -15.187202 175.50558
15460000000 -23.825909 -112.55302 -33.780521 -111.73674 -33.557312 -112.67319 -16.540854 161.75974
15480000000 -23.167053 -122.32776 -33.819 -153.31287 -33.673645 -155.09431 -17.718809 155.16254
15500000000 -23.278503 -143.70984 -34.522667 167.53723 -34.390118 165.85626 -20.420126 134.28497
15520000000 -25.78352 -160.69025 -34.658028 130.04613 -34.402977 129.66774 -23.358902 79.492157
15540000000 -28.105299 -165.1586 -34.576035 91.562614 -34.720428 88.573891 -21.408169 86.351746
15560000000 -28.988216 -161.85594 -34.665985 50.681324 -35.025955 48.62674 -18.738615 36.983162
15580000000 -29.656031 -155.89462 -34.813587 9.6584797 -34.954334 8.4531374 -16.627577 12.252153
15600000000 -27.8424 -166.22031 -35.430752 -30.622997 -35.597836 -32.799488 -15.039232 -9.8487835
15620000000 -26.888695 164.05809 -35.711102 -68.725128 -36.084148 -71.691795 -13.081972 -24.96752
15640000000 -27.185375 125.05167 -36.256886 -106.98805 -36.560818 -109.64603 -10.275474 -31.91309
15660000000 -28.80582 104.67407 -36.482075 -145.62393 -37.524521 -147.11255 -12.235435 -44.867165
15680000000 -31.734251 89.724411 -36.255447 173.92999 -37.102337 175.07889 -9.7804813 -50.095028
15700000000 -35.807247 105.75897 -37.01432 132.08058 -37.669563 131.72067 -8.836729 -62.63184
15720000000 -29.094332 121.58849 -37.636616 93.888695 -38.78801 94.73938 -8.7797508 -72.721825
15740000000 -24.517641 85.052963 -37.858841 55.380978 -38.666431 58.881218 -7.649282 -79.209297
15760000000 -23.27968 60.423237 -38.250694 16.633007 -38.985142 19.258553 -9.6227379 -96.125153
15780000000 -24.504314 45.454464 -38.537762 -22.0704 -39.719917 -15.875202 -8.2146807 -91.544746
15800000000 -26.665403 41.139835 -38.566139 -66.686523 -39.366875 -60.921394 -7.0866351 -99.77404
15820000000 -27.108068 59.466476 -39.314629 -109.4594 -40.051712 -101.46104 -7.2800622 -107.57795
15840000000 -23.646772 61.043732 -40.466518 -149.25366 -41.162514 -140.21109 -7.5254726 -116.18716
15860000000 -20.812967 44.197647 -41.130699 174.16649 -41.075306 -177.18227 -6.7985635 -118.95075
15880000000 -20.919724 29.826351 -41.456959 134.44836 -41.377651 143.87767 -8.112936 -134.06328
15900000000 -22.145164 25.858013 -41.659306 93.456993 -41.554222 102.80605 -7.1639605 -131.21846
15920000000 -22.952011 31.418608 -42.68605 46.516808 -42.657959 56.776188 -7.2919888 -137.80972
15940000000 -22.174414 39.942101 -44.752338 7.6439209 -44.006031 20.24938 -7.9123321 -146.44899
15960000000 -19.792658 37.56781 -44.981373 -21.730749 -44.108234 -16.403902 -8.0729971 -152.80357
15980000000 -18.626911 29.074812 -44.562904 -66.138435 -43.355751 -60.600491 -8.0950975 -154.81854
16000000000 -18.754019 21.903656 -45.2094 -110.80207 -44.392616 -105.22866 -8.6972303 -162.24988
16020000000 -19.573406 20.671253 -46.035427 -149.60103 -44.878338 -146.14003 -7.8099046 -169.23154
16040000000 -19.313284 25.9601 -45.713505 168.55699 -45.181332 174.00113 -9.4656277 -178.98532
16060000000 -18.239981 29.207365 -46.976566 127.94807 -45.28688 129.86142 -10.720086 170.10493
16080000000 -16.258886 26.020321 -46.629986 91.813324 -45.68734 87.950455 -11.236343 162.78784
16100000000 -15.769188 17.771765 -46.594421 49.883846 -45.653877 49.172752 -12.559977 155.0706
16120000000 -15.98781 12.91542 -46.13298 9.428688 -45.033504 9.3448763 -14.294684 141.45428
16140000000 -16.309513 15.89428 -45.447533 -31.925575 -45.379345 -35.316025 -13.838 140.26315
16160000000 -15.529037 17.861809 -45.071877 -79.559952 -45.327633 -80.376297 -16.214138 108.76692
16180000000 -14.330784 15.358101 -44.293819 -119.90105 -43.881516 -123.87047 -16.594181 75.143272
16200000000 -13.338284 10.538459 -43.895458 -167.26424 -44.011856 -171.03506 -17.249201 44.092148
16220000000 -12.999099 4.6537843 -43.85252 150.39989 -44.016903 150.56386 -16.200052 18.500376
16240000000 -13.131008 2.4993238 -43.383286 110.37051 -42.737385 109.08971 -12.73258 -6.1435585
16260000000 -12.947568 3.7635303 -42.636482 62.855766 -43.569363 64.483734 -14.483518 -18.426031
16280000000 -12.397576 1.7035801 -42.25486 22.278212 -42.511223 25.00815 -11.226698 -27.155973
16300000000 -11.521588 -0.70667499 -41.610123 -24.88583 -41.947479 -23.594465 -9.3567972 -45.100151
16320000000 -10.867292 -5.8847804 -42.432159 -70.985229 -42.478561 -70.920143 -8.8587971 -58.863125
16340000000 -10.803428 -9.9639702 -42.962582 -108.37733 -42.885262 -106.69668 -7.8124142 -67.151489
16360000000 -10.709992 -10.669893 -43.038521 -144.80627 -42.832455 -145.93964 -6.5894618 -73.43959
16380000000 -10.499341 -11.317944 -42.972507 170.70383 -43.532852 175.40074 -7.9102535 -82.502678
16400000000 -10.046084 -13.561164 -42.852493 130.66312 -42.935829 131.58163 -6.0748429 -90.200531
16420000000 -9.4802523 -16.413591 -43.082741 88.28511 -43.037201 91.272125 -5.8678799 -99.130707
16440000000 -9.0619745 -21.234402 -43.581085 48.654758 -43.741505 47.333012 -6.1998391 -108.30274
16460000000 -9.0994873 -23.851345 -43.904278 9.5750542 -44.000286 11.058468 -5.5664101 -110.82269
16480000000 -8.9378405 -23.949036 -44.838814 -26.358526 -44.899761 -25.663374 -5.3838716 -115.73312
16500000000 -8.6809978 -25.248859 -44.851425 -60.194218 -44.706104 -60.925022 -5.364017 -122.39838
16520000000 -8.1400681 -27.414852 -45.014751 -97.624985 -45.198597 -97.564453 -5.376626 -127.20935
16540000000 -7.6700563 -31.291512 -44.38612 -138.83604 -44.844074 -140.93933 -5.3841691 -135.70694
16560000000 -7.5225673 -34.347317 -45.651756 177.72984 -46.108536 178.23456 -5.6802783 -140.88774
16580000000 -7.4555721 -35.052948 -46.923645 139.95828 -47.026413 141.25543 -5.3964605 -143.31679
16600000000 -7.1615891 -35.411518 -47.55228 111.06431 -47.90564 111.68877 -5.6980686 -148.16905
16620000000 -6.7279053 -38.484726 -46.925392 77.643051 -46.73938 78.743164 -5.7818313 -153.84831
16640000000 -6.2805629 -40.618301 -46.600063 36.605213 -47.485756 40.048294 -5.1481085 -155.3306
16660000000 -5.9328871 -44.091053 -48.619534 -5.3935723 -48.33926 -0.49053198 -5.8234453 -166.74997
16680000000 -5.7996211 -45.70462 -50.345486 -36.55283 -49.47757 -33.89809 -6.2411437 -169.73241
16700000000 -5.4280257 -46.482449 -51.187443 -65.203659 -50.409996 -66.249237 -6.7116113 -173.5296
16720000000 -4.9716382 -48.884907 -51.520878 -93.841446 -51.100861 -97.498672 -6.7761483 -178.0396
16740000000 -4.7037354 -53.742912 -53.047577 -132.69078 -52.727787 -133.15463 -6.1895037 -179.94484
16760000000 -4.3633261 -55.601639 -52.596188 -151.83505 -53.412514 -153.6367 -6.9428496 172.50142
16780000000 -3.9887669 -58.438026 -52.289047 172.44153 -52.222027 167.5798 -8.0929747 160.57289
16800000000 -3.6677854 -60.864178 -56.086098 152.68106 -57.094849 143.71518 -9.045764 155.94351
16820000000 -3.3251767 -63.49247 -53.173481 134.4597 -53.964401 131.50951 -9.4319677 151.05878
16840000000 -2.9716477 -66.970993 -51.632755 104.23071 -52.504169 102.45094 -10.57152 142.70337
16860000000 -2.8348851 -71.737434 -50.668625 76.136429 -52.289822 79.640556 -13.302037 128.44696
16880000000 -2.4564426 -73.921852 -48.675278 35.734051 -49.449806 38.438931 -12.867552 123.00697
16900000000 -2.1396036 -77.289368 -48.049187 -3.9151998 -48.293407 -0.88925946 -14.760716 104.44158
16920000000 -1.9461786 -80.402542 -47.182491 -39.641186 -47.787144 -36.4063 -17.277012 91.034348
16940000000 -1.6592457 -83.788757 -46.14864 -79.711311 -46.779076 -72.176422 -19.059595 70.314217
16960000000 -1.4558346 -87.58712 -46.054626 -118.54121 -46.055233 -116.11616 -19.803465 23.419819
16980000000 -1.2624809 -91.154152 -45.398602 -156.0329 -45.603828 -150.94334 -16.435228 -8.0989141
17000000000 -1.0157437 -95.077049 -45.024227 161.21733 -44.895782 163.49542 -15.093392 -35.575172
