!Keysight Technologies,P9374A,MY57211810,A.19.30.04
!Date: Friday, May 09, 2025 10:40:20
!Correction: S11(Cdelta 2-Port  ) 
!S21(Cdelta 2-Port  ) 
!S12(Cdelta 2-Port  ) 
!S22(Cdelta 2-Port  ) 
!S2P File: Measurements: S11, S21, S12, S22:
# Hz S  dB   R 50
13000000000 -18.368219 -66.568169 -55.557953 124.07613 -53.581367 106.50432 -8.5688992 -113.04577
13020000000 -17.306276 -83.322365 -51.647278 72.909279 -50.703804 59.010582 -9.3592043 -120.95362
13040000000 -18.983896 -102.87646 -49.168198 20.918766 -49.505344 12.591722 -10.137268 -128.86626
13060000000 -23.62038 -104.9815 -48.471741 -25.028315 -48.175125 -33.355785 -11.375977 -129.06548
13080000000 -24.940199 -63.824341 -47.259666 -62.979748 -47.663322 -63.792622 -12.389379 -135.89935
13100000000 -19.594772 -62.950741 -45.432907 -109.85765 -45.135235 -109.40765 -14.091752 -137.46252
13120000000 -17.667582 -78.68557 -45.293491 -154.56 -45.235611 -152.99826 -16.337769 -132.10725
13140000000 -18.214561 -97.342033 -45.274796 172.72223 -45.05954 174.07104 -18.237555 -127.51347
13160000000 -21.218075 -104.30886 -44.626495 132.5488 -43.96278 131.97546 -19.262383 -120.44404
13180000000 -23.868269 -91.607506 -43.807873 94.577393 -43.403015 94.712852 -19.102236 -96.220398
13200000000 -21.729969 -70.029922 -43.206768 58.629169 -43.357937 58.573093 -19.002954 -90.236137
13220000000 -19.00514 -79.407814 -42.810936 18.822676 -43.214008 14.604548 -17.666079 -82.625122
13240000000 -17.433954 -94.702545 -42.511864 -19.088459 -43.308289 -18.007265 -16.445465 -72.670418
13260000000 -18.592741 -115.90708 -42.200287 -59.934574 -42.550911 -57.295185 -15.013301 -73.45916
13280000000 -22.18046 -122.70168 -42.254852 -99.027534 -42.861454 -95.545601 -14.249136 -75.845665
13300000000 -25.771458 -92.814194 -42.323734 -141.80598 -42.52681 -134.64468 -13.501932 -76.431274
13320000000 -20.632664 -83.66468 -43.224522 -178.13548 -43.041245 -176.12083 -12.708367 -77.273621
13340000000 -18.514252 -99.679901 -43.617649 143.86148 -44.122177 140.88148 -12.612075 -83.406136
13360000000 -18.217232 -123.88125 -44.397869 107.84753 -44.765102 106.55021 -11.233049 -82.666695
13380000000 -21.430138 -141.06932 -44.900742 71.13945 -45.667145 68.642731 -10.757729 -87.723885
13400000000 -27.324284 -139.40303 -45.936405 32.74498 -47.159691 36.556358 -10.416506 -92.056831
13420000000 -25.218601 -89.635445 -47.041626 -10.864865 -48.272629 -4.3968101 -10.177441 -95.035423
13440000000 -21.108065 -104.31494 -50.809883 -44.288174 -50.449692 -39.25423 -10.127429 -98.726067
13460000000 -19.838625 -125.75273 -56.063278 -73.319977 -57.092701 -46.083351 -10.959418 -102.28268
13480000000 -21.878836 -152.4763 -60.751965 -74.450195 -54.519718 -65.974655 -10.101964 -107.0098
13500000000 -26.925127 -167.13245 -54.109058 -31.048271 -53.750153 -58.135212 -10.26914 -112.59255
13520000000 -34.136734 -100.17255 -48.553829 -72.236588 -48.687599 -85.965225 -10.653969 -116.21153
13540000000 -25.822653 -96.951439 -46.262791 -103.47388 -47.315689 -109.17748 -10.684083 -117.49633
13560000000 -22.919962 -116.97312 -43.47398 -139.6133 -44.077518 -145.61481 -11.565152 -117.1133
13580000000 -23.397604 -149.31781 -42.108185 173.74736 -42.98595 168.72284 -11.668624 -116.19045
13600000000 -27.705959 -169.91945 -41.248829 133.74141 -42.519299 132.23979 -11.50365 -120.61768
13620000000 -39.564999 169.34749 -39.437042 97.488487 -40.30703 99.058144 -11.638662 -120.2275
13640000000 -30.561785 -60.431931 -38.605465 51.296085 -39.018772 53.386753 -11.574043 -122.73539
13660000000 -24.668512 -91.399269 -38.60693 13.4846 -39.025536 16.475246 -10.909993 -124.14458
13680000000 -23.46105 -128.30156 -38.229382 -30.106457 -38.532642 -21.079514 -11.88708 -124.38922
13700000000 -25.967697 -161.56548 -37.912922 -61.482338 -37.677917 -58.34243 -10.974117 -129.33925
13720000000 -33.851532 153.12221 -37.371601 -99.850731 -37.055233 -98.839859 -11.365059 -131.30055
13740000000 -32.052956 -39.425106 -36.871906 -140.2648 -36.633053 -138.43227 -11.536171 -135.39035
13760000000 -25.335451 -83.638123 -36.715061 -178.18594 -36.343887 -177.96663 -11.605765 -140.9883
13780000000 -22.693888 -122.30536 -36.597057 143.11833 -36.391212 142.98039 -11.581048 -143.42
13800000000 -23.989708 -160.55037 -36.261982 102.32293 -36.375786 103.86221 -12.242382 -147.30406
13820000000 -29.459768 176.64827 -37.199711 63.157715 -37.279762 61.437233 -13.410509 -152.41808
13840000000 -47.763435 -165.39867 -37.151005 27.87808 -37.47377 29.843481 -13.989408 -147.21643
13860000000 -29.734997 -85.216019 -37.119995 -6.7359128 -37.19669 -5.8858924 -14.461108 -148.73395
13880000000 -25.331324 -117.07326 -36.801983 -43.089012 -36.885853 -43.998257 -14.409731 -149.59192
13900000000 -23.596569 -164.14232 -37.198635 -82.203461 -37.365646 -81.014694 -14.602924 -147.65277
13920000000 -24.441137 159.7005 -37.625515 -119.04121 -37.488415 -117.5183 -14.853238 -144.57652
13940000000 -27.719954 120.54937 -38.039066 -153.05435 -38.516056 -154.86974 -16.025719 -149.2429
13960000000 -44.85183 32.075977 -38.010235 170.05814 -38.333549 171.68309 -15.398978 -143.11931
13980000000 -32.505219 -118.49316 -38.60812 135.65224 -38.472294 137.34892 -15.440464 -145.63956
14000000000 -27.724617 -170.1171 -38.61496 102.76029 -38.602947 103.74 -15.168027 -148.18463
14020000000 -25.271488 146.35556 -39.017231 68.4076 -38.924721 68.639175 -15.250022 -149.32227
14040000000 -24.412252 106.69765 -38.699917 39.290462 -38.917446 37.604198 -15.576784 -144.61534
14060000000 -25.715425 66.715378 -39.151295 1.2534223 -39.577381 3.3427429 -17.123585 -152.04349
14080000000 -29.986319 9.6639729 -39.097439 -28.211651 -39.227692 -25.133963 -16.684292 -147.8539
14100000000 -41.474857 -109.84039 -38.490433 -59.804428 -38.629257 -57.873989 -16.808893 -149.68051
14120000000 -29.453108 124.54248 -37.939735 -97.051689 -37.898621 -96.065353 -17.609716 -151.44081
14140000000 -24.586998 83.876541 -38.051052 -129.70381 -37.838417 -127.34357 -17.390299 -150.26927
14160000000 -22.47888 47.465263 -37.123199 -164.32664 -37.701874 -161.64465 -18.173471 -142.07355
14180000000 -23.551062 16.380501 -36.747417 155.91348 -36.822338 157.88362 -19.059797 -147.11577
14200000000 -27.039968 -11.305135 -36.796268 118.62527 -36.693916 118.75484 -18.536661 -143.58125
14220000000 -36.954231 2.2934737 -37.216339 82.007118 -37.000622 82.641548 -19.778618 -140.21867
14240000000 -28.196493 65.636543 -37.048138 48.097927 -37.106071 46.831013 -20.31962 -137.66011
14260000000 -22.500353 39.056206 -36.663925 12.078575 -36.777843 10.505953 -18.949442 -132.48055
14280000000 -21.316132 11.289285 -36.816647 -27.542273 -37.308895 -26.386137 -18.433233 -122.41013
14300000000 -22.696083 -18.598822 -37.415958 -60.574791 -37.691006 -60.7659 -18.298048 -123.87077
14320000000 -27.633476 -41.378372 -37.063931 -95.966888 -37.670795 -95.792854 -18.326326 -121.69979
14340000000 -34.359009 22.715269 -37.708267 -134.5614 -37.965202 -130.59319 -17.91786 -115.48999
14360000000 -25.001205 30.467825 -38.082314 -165.85365 -38.361629 -163.36787 -17.149023 -118.39098
14380000000 -21.507618 9.4630442 -38.079983 162.96028 -38.116158 165.96484 -15.728682 -120.70153
14400000000 -21.353344 -19.372072 -37.850742 127.30193 -37.356964 129.82581 -15.239388 -121.43768
14420000000 -24.169096 -42.300934 -38.170704 92.392342 -37.839767 92.299065 -14.915593 -119.47736
14440000000 -32.603657 -35.441765 -38.096531 63.833233 -37.898685 64.095505 -14.969208 -126.28133
14460000000 -27.575514 22.090197 -37.005821 28.885086 -36.685333 28.366274 -14.80584 -125.56218
14480000000 -22.756762 9.7231045 -36.599331 -9.0264711 -36.473103 -11.168325 -14.380736 -129.84517
14500000000 -21.192966 -11.215076 -36.690697 -44.532261 -36.494579 -47.375092 -13.760157 -132.77455
14520000000 -21.985823 -32.043453 -36.395432 -81.773071 -36.46162 -81.742874 -13.579316 -134.56525
14540000000 -26.155415 -39.650284 -36.156029 -120.54433 -36.813446 -121.75751 -14.451205 -132.60564
14560000000 -28.294203 -3.487118 -36.532425 -161.19389 -36.95607 -158.74971 -14.385189 -140.25948
14580000000 -23.555342 11.01946 -37.403347 166.56085 -37.331921 168.37532 -14.182114 -138.77271
14600000000 -19.979929 -2.7557976 -36.989708 134.10979 -37.062389 135.68398 -13.712424 -141.24199
14620000000 -19.96306 -24.672117 -36.710426 96.578758 -36.719872 98.977608 -13.823679 -145.5002
14640000000 -21.126093 -38.645309 -37.368809 60.213612 -37.573986 62.429596 -13.298606 -141.3701
14660000000 -25.740442 -35.262783 -37.499046 29.324253 -37.7785 32.353058 -14.331156 -147.45273
14680000000 -23.192263 0.96013612 -36.539608 -4.2821255 -36.540951 -0.041641194 -13.499139 -147.75969
14700000000 -19.160429 -10.351181 -36.257339 -42.796776 -36.015564 -39.689358 -13.166976 -150.03697
14720000000 -18.303398 -27.23871 -36.532993 -78.864128 -36.203926 -75.698746 -13.396024 -154.72855
14740000000 -18.81208 -44.592739 -36.391922 -110.84286 -35.941769 -109.69424 -13.11844 -158.61073
14760000000 -21.540958 -52.126797 -35.482861 -147.11153 -35.033131 -147.1515 -12.786652 -153.69893
14780000000 -22.578798 -32.380535 -34.832283 172.68573 -34.937927 172.35631 -13.888849 -164.53069
14800000000 -19.778055 -27.025871 -35.036297 133.2252 -35.115154 133.35408 -13.570626 -162.20834
14820000000 -18.077902 -38.882942 -34.655525 96.399788 -34.557045 97.233208 -13.785284 -166.80814
14840000000 -18.089651 -52.39991 -34.184776 54.974384 -34.243214 55.378094 -14.472956 -171.21077
14860000000 -18.749205 -64.01516 -34.292484 11.982807 -34.386215 11.138817 -14.452401 -172.55792
14880000000 -20.765825 -67.861298 -35.096077 -31.11904 -35.319771 -28.985126 -14.290265 -164.87723
14900000000 -21.388044 -57.073582 -35.648403 -67.382652 -35.588123 -67.895004 -14.697534 -169.59172
14920000000 -20.034174 -52.893238 -35.769863 -107.90834 -35.960663 -109.34232 -13.655388 -175.2963
14940000000 -18.681297 -58.619751 -36.457607 -147.78902 -36.891685 -148.16788 -15.553119 -177.31398
14960000000 -18.044472 -73.882469 -37.43642 172.51645 -37.723972 175.38121 -16.444395 -177.32381
14980000000 -19.659388 -88.860527 -37.757099 135.88864 -38.07008 135.29074 -16.107782 -174.75185
15000000000 -22.972569 -93.222321 -38.602772 91.107819 -38.999523 93.432602 -16.01815 -170.75635
15020000000 -24.443914 -64.055847 -40.73822 52.959682 -40.724201 55.938267 -16.8486 -164.51219
15040000000 -20.776524 -61.211506 -42.627033 24.979408 -42.209419 26.363279 -14.505313 178.44031
15060000000 -19.319542 -78.095192 -42.115726 -6.2508268 -42.250961 -1.3640543 -17.071836 -173.57965
15080000000 -20.030544 -99.066452 -42.72287 -46.852066 -42.573929 -41.507023 -17.298357 -169.49046
15100000000 -23.816856 -115.21531 -44.668602 -80.228317 -44.241379 -78.418938 -16.70961 -166.77895
15120000000 -30.00914 -81.243164 -44.314922 -109.2802 -43.595879 -107.64819 -16.293386 -167.5713
15140000000 -22.618578 -51.290543 -44.847988 -150.46367 -44.41552 -155.64479 -16.937107 -156.67822
15160000000 -20.559095 -74.863007 -46.80481 175.44626 -46.626194 -179.04427 -15.543777 177.95363
15180000000 -21.003855 -92.966858 -45.295143 159.94476 -45.660126 159.36356 -17.008715 -171.15846
15200000000 -23.42841 -106.72622 -44.320942 115.02464 -43.81144 111.71774 -16.712221 -168.75639
15220000000 -29.756367 -92.761475 -44.295788 60.380821 -44.93298 61.70475 -16.588388 -175.28456
15240000000 -24.247957 -51.024498 -46.466915 19.806957 -46.12394 20.63962 -16.31422 -173.08528
15260000000 -20.564098 -66.103683 -47.30212 -15.781866 -46.974113 -13.748501 -17.653553 -157.41241
15280000000 -20.303209 -87.383377 -47.359016 -46.825115 -48.89809 -45.803802 -17.303783 175.37129
15300000000 -21.32089 -103.6517 -47.377617 -89.331642 -47.27319 -81.888382 -17.433357 -170.97057
15320000000 -24.944902 -113.70758 -47.243561 -134.30634 -47.493107 -128.57826 -17.557327 -177.28328
15340000000 -26.614258 -81.663986 -48.241543 176.85428 -48.756233 179.40285 -17.982931 -179.08551
15360000000 -22.580662 -73.239624 -48.088333 141.6826 -48.880276 150.10231 -17.32542 -171.60924
15380000000 -20.441994 -89.886818 -48.582787 98.972214 -48.51165 104.03592 -17.823645 -158.83376
15400000000 -20.268225 -114.01149 -49.157303 51.496662 -49.396221 58.193211 -17.522463 -167.28447
15420000000 -22.297701 -137.97791 -50.016514 19.225525 -50.088589 26.064035 -16.123209 -169.25587
15440000000 -26.991953 -141.0676 -47.724464 -18.139332 -48.120399 -12.084176 -17.52157 -175.56529
15460000000 -28.068703 -102.27844 -46.994186 -61.820396 -46.278324 -61.24902 -17.635244 -178.79318
15480000000 -23.694412 -101.92593 -45.04792 -100.1239 -45.778072 -99.669647 -16.805038 -172.81169
15500000000 -21.890688 -127.55785 -44.151703 -150.23505 -43.910122 -144.59946 -17.153976 -171.35704
15520000000 -22.259502 -159.27994 -43.898838 164.2133 -43.427223 161.93555 -18.940393 -166.95988
15540000000 -25.207949 171.64314 -44.087906 129.96744 -44.37051 125.76112 -15.900721 178.66261
15560000000 -31.454199 163.58063 -41.490879 95.520699 -42.439762 91.647636 -17.865316 176.92458
15580000000 -33.871529 -132.4427 -39.542233 45.950119 -40.10038 46.414524 -17.868093 178.74469
15600000000 -27.769634 -147.91179 -39.268375 -2.3078444 -39.680885 -2.0319762 -17.505182 -176.44176
15620000000 -25.819714 178.68596 -39.137749 -45.107677 -39.368324 -45.228523 -17.586853 -175.17107
15640000000 -25.397882 138.32411 -38.373436 -85.758446 -38.665951 -84.891937 -20.887741 -168.45375
15660000000 -25.859873 106.62811 -37.526947 -127.81969 -38.405167 -125.03765 -16.872944 173.00421
15680000000 -29.296965 77.550865 -37.319454 -173.82239 -37.720425 -168.69916 -18.811462 175.9296
15700000000 -34.407486 69.507813 -37.686264 146.27321 -37.628849 149.23796 -18.655748 178.51047
15720000000 -34.822941 119.13868 -37.082672 107.73078 -37.202076 109.39111 -18.238855 173.44601
15740000000 -27.231611 101.5415 -36.550159 63.856369 -36.430256 67.021622 -19.373789 -174.66957
15760000000 -23.286346 78.78894 -36.778996 17.761528 -36.344856 20.858431 -14.305601 150.34859
15780000000 -22.001133 57.418976 -37.510006 -22.775253 -37.430992 -18.919476 -19.834255 175.16588
15800000000 -23.279516 30.923075 -37.986313 -59.45356 -37.677078 -58.577248 -20.611397 -169.55093
15820000000 -27.7335 27.137192 -38.081108 -99.879311 -37.551334 -98.132446 -20.037598 -174.00134
15840000000 -27.537617 60.586449 -38.480923 -138.42342 -38.370697 -139.91733 -19.407259 -175.24342
15860000000 -22.138269 60.139187 -38.927059 -175.12991 -38.602646 -175.39066 -18.946205 -157.15282
15880000000 -19.259075 44.790318 -39.059452 145.30482 -38.694626 144.13588 -18.141027 160.24394
15900000000 -19.520247 22.472542 -39.994041 106.85124 -39.842678 103.822 -18.367292 -155.42345
15920000000 -22.398376 14.543386 -40.663868 73.108887 -41.406231 69.467949 -16.859039 -159.15973
15940000000 -24.718229 31.896143 -40.657223 40.199253 -41.285126 39.702587 -17.20657 -167.68674
15960000000 -20.806047 49.268616 -40.69421 -0.19131789 -41.356262 2.7202914 -16.485891 -169.73067
15980000000 -17.920807 37.244061 -41.952606 -36.162334 -42.279533 -31.061352 -15.955797 -161.01317
16000000000 -17.380104 22.894863 -42.597832 -66.141533 -42.658966 -61.48156 -15.915293 -165.89836
16020000000 -18.537277 12.245005 -41.91114 -99.780106 -42.221035 -94.721947 -13.116969 -168.80499
16040000000 -20.404213 18.577868 -42.213844 -137.49251 -42.470303 -131.8597 -14.937877 -179.02393
16060000000 -18.984005 33.569607 -43.074497 -170.61732 -42.799671 -168.13214 -15.758061 172.40576
16080000000 -16.432533 31.27824 -43.108402 157.96538 -42.852104 162.77187 -15.55576 171.38078
16100000000 -15.116597 22.995621 -43.401096 122.98579 -42.427052 124.89187 -16.050179 172.98827
16120000000 -14.883195 11.305614 -43.125423 93.666313 -42.062214 93.040352 -17.117846 170.55086
16140000000 -16.317854 8.2879467 -42.749386 55.770954 -43.435276 51.081516 -14.517692 169.56111
16160000000 -16.653139 15.85867 -42.934326 16.523033 -43.527882 15.640017 -16.711229 161.45795
16180000000 -14.890564 21.027754 -43.808437 -17.171719 -44.13858 -17.805889 -17.93004 155.73428
16200000000 -12.960236 15.809747 -44.162399 -47.296825 -43.851128 -49.109982 -18.639952 161.73695
16220000000 -12.173383 5.0808835 -43.773899 -82.449516 -43.83662 -82.271492 -18.394682 163.10355
16240000000 -12.626582 -3.1087687 -43.83342 -119.0153 -43.422554 -119.7863 -21.46257 165.9964
16260000000 -13.833811 -1.3341167 -44.181431 -153.72589 -45.69342 -153.00601 -17.734596 161.43752
16280000000 -13.211166 6.33109 -44.663982 175.28615 -45.634502 -179.54674 -19.607136 159.21313
16300000000 -11.301745 3.9140716 -44.342064 145.52803 -44.691353 147.0363 -20.69902 162.14867
16320000000 -10.259023 -4.2861509 -44.08881 109.95758 -44.528675 110.40135 -19.192633 160.76277
16340000000 -10.254128 -13.536723 -43.84053 75.42926 -44.453865 80.532074 -19.192257 163.42384
16360000000 -10.989004 -15.724192 -43.969723 42.211437 -43.561363 46.092098 -23.110571 163.98872
16380000000 -11.238732 -10.579441 -43.326927 8.4420614 -43.674507 15.071261 -18.792349 152.16847
16400000000 -10.106059 -9.5700436 -43.244167 -29.957247 -42.925022 -26.142672 -22.451393 154.60255
16420000000 -9.0563622 -14.609757 -44.004284 -65.573296 -43.638218 -64.592781 -21.578241 157.91003
16440000000 -8.6464357 -21.825136 -43.641342 -95.360336 -43.657406 -96.075478 -21.815479 145.48145
16460000000 -8.8959398 -26.731672 -42.208683 -134.347 -41.942738 -132.94008 -24.126291 152.89822
16480000000 -9.3452063 -26.388386 -42.740883 -178.5358 -42.28204 -179.16655 -31.578417 159.5251
16500000000 -9.0443993 -23.00288 -43.407909 146.05658 -43.438747 146.82278 -30.057583 168.20979
16520000000 -8.0703545 -24.636768 -43.529835 109.6608 -43.614403 111.24021 -24.883055 -159.08968
16540000000 -7.2735643 -29.557241 -43.527985 73.603195 -43.076138 72.464203 -26.039803 -174.45323
16560000000 -7.1230845 -35.867226 -43.574715 35.216305 -43.401096 31.86355 -27.279316 -176.88411
16580000000 -7.5528717 -38.44429 -43.873501 -7.9784327 -43.367359 -9.0703354 -27.313095 -149.11717
16600000000 -7.7615108 -35.668049 -45.014164 -47.289631 -44.725529 -53.880318 -27.777294 -136.90735
16620000000 -6.9606261 -35.021191 -45.93261 -83.348602 -46.34272 -91.468239 -28.705345 -122.24664
16640000000 -5.9466443 -38.344131 -47.13932 -126.69749 -48.61834 -125.91058 -20.647018 -145.82704
16660000000 -5.5605769 -44.65239 -49.657349 -160.69353 -49.98661 -166.89996 -23.798687 -149.62527
16680000000 -5.7033501 -48.592102 -51.463043 166.38907 -52.997311 158.39928 -24.949099 -137.66466
16700000000 -5.883965 -48.360363 -54.795555 134.64166 -57.433914 141.64462 -22.891243 -120.37936
16720000000 -5.2943001 -46.893349 -56.196312 130.25381 -59.20977 158.35718 -21.089857 -120.42966
16740000000 -4.5792365 -51.244549 -57.005127 109.15259 -56.678402 128.85994 -14.490061 -150.44771
16760000000 -3.9939482 -55.51252 -57.295139 96.061798 -53.898258 111.16412 -18.143188 -137.21338
16780000000 -3.8510337 -60.249825 -53.28595 87.935387 -51.524639 78.237587 -19.488821 -141.06168
16800000000 -3.8508022 -62.561516 -50.445961 42.964573 -49.718361 38.482456 -19.002016 -133.18973
16820000000 -3.6060076 -63.096558 -50.115601 1.4684287 -48.912804 0.14573611 -17.426729 -141.84656
16840000000 -3.030498 -65.299049 -49.333534 -30.275646 -48.874733 -38.937607 -17.334555 -142.78094
16860000000 -2.61361 -70.738297 -48.466755 -65.384613 -48.973801 -69.546303 -21.590384 -132.11548
16880000000 -2.2626238 -74.796066 -47.223175 -106.75356 -48.066673 -108.23239 -17.870705 -155.8811
16900000000 -2.1752443 -78.614006 -46.853268 -143.82808 -47.544571 -149.7513 -18.940536 -154.65486
16920000000 -2.1173723 -80.868645 -46.244549 175.84576 -47.328346 174.35341 -18.306683 -158.86482
16940000000 -1.7801013 -82.926453 -46.485367 134.05478 -47.637066 135.3618 -18.943386 -163.16685
16960000000 -1.3759346 -86.67041 -47.255978 96.312798 -48.164265 94.973457 -20.106386 -160.18793
16980000000 -1.1086886 -91.191315 -47.094601 61.293743 -48.29443 66.289833 -23.944889 -138.01686
17000000000 -0.98130399 -95.902344 -47.218105 24.169806 -47.894989 26.699028 -22.053919 -143.93556
